frequency,Re(S21),Im(S21),Amplitude,phase
8388000000.0,-0.0091567218,-0.0089898286,0.01283209150450437,-2.3653911965112955
8388011011.0,-0.0091995217,-0.0089071501,0.012805019422581946,-2.372340262152241
8388022022.0,-0.0092455888,-0.0088863576,0.012823738287011444,-2.3760039580568377
8388033033.0,-0.0092841697,-0.0088437679,0.012822169772993514,-2.3804838052946784
8388044044.0,-0.0093333824,-0.008817031,0.012839472834956688,-2.384635284306531
8388055055.0,-0.0093563963,-0.0087775136,0.012829142478000571,-2.3881063164498166
8388066066.0,-0.0094058277,-0.0087341227,0.012835672715551085,-2.3932066227915687
8388077077.0,-0.009423018,-0.0086877241,0.01281677877885254,-2.396772081535924
8388088088.0,-0.0094680385,-0.0086355947,0.012814727810615033,-2.4021442638901402
8388099099.0,-0.0095024613,-0.0086124905,0.012824654512718381,-2.405284093867438
8388110110.0,-0.0095486202,-0.0085597846,0.012823652370609754,-2.410746755173099
8388121121.0,-0.0095727017,-0.0085066536,0.012806239624010472,-2.415091234676733
8388132132.0,-0.0096061114,-0.0084733163,0.012809155528334242,-2.418769268962998
8388143143.0,-0.0096355348,-0.0084169108,0.012794057929256366,-2.423596881612582
8388154154.0,-0.0096782277,-0.0083873001,0.012806829989521502,-2.427531295481092
8388165165.0,-0.0097259888,-0.0083334074,0.012807831082275414,-2.433153378051797
8388176176.0,-0.0097459771,-0.008300894,0.012801910436843419,-2.4360978916585396
8388187187.0,-0.0097870585,-0.0082525843,0.012802017876531369,-2.441051454894659
8388198198.0,-0.0098191297,-0.0082090003,0.012798554371132006,-2.4452702085603066
8388209209.0,-0.009850523,-0.0081756253,0.0128013144801434,-2.448843379420136
8388220220.0,-0.0098925015,-0.0081274982,0.012803039206317595,-2.4538299704272943
8388231231.0,-0.0099226061,-0.0080676991,0.012788505799502067,-2.4589373576604765
8388242242.0,-0.0099502787,-0.0080390719,0.012791978862593673,-2.4620384673557894
8388253253.0,-0.0099933477,-0.0079968832,0.012799106967579322,-2.4667171826863
8388264264.0,-0.0100200349,-0.0079634321,0.012799115211940567,-2.470060566443102
8388275275.0,-0.010066762,-0.0078932921,0.01279233197429485,-2.476625750423847
8388286286.0,-0.0100823158,-0.0078513036,0.012778734683461527,-2.4799625128151974
8388297297.0,-0.01012558,-0.0078189983,0.012793127246760383,-2.484032702007011
8388308308.0,-0.0101450434,-0.0077549212,0.012769522638144818,-2.4889359516964604
8388319319.0,-0.0101923941,-0.0077277317,0.01279072846701468,-2.492872983309608
8388330330.0,-0.010207394,-0.0076817416,0.012774977349506595,-2.49645108087816
8388341341.0,-0.0102486748,-0.0076499355,0.012788934604192614,-2.500379186920228
8388352352.0,-0.0102755131,-0.0075893211,0.012774347898314685,-2.5054384422702523
8388363363.0,-0.0103074868,-0.0075415756,0.012771830200197997,-2.5099328495963276
8388374374.0,-0.0103425237,-0.0075023427,0.012777047486540268,-2.514030178709543
8388385385.0,-0.0103748609,-0.0074599032,0.012778415177467002,-2.5182044699284964
8388396396.0,-0.0104007607,-0.0074248724,0.012779066996261747,-2.5216133102783016
8388407407.0,-0.010431595,-0.0073633582,0.012768602829813926,-2.52693741946952
8388418418.0,-0.0104796728,-0.007321704,0.012784009209112601,-2.531768136002517
8388429429.0,-0.0105021666,-0.0072808908,0.012779157802284162,-2.5353943055529684
8388440440.0,-0.0105332225,-0.0072202891,0.012770330885379794,-2.54067983929568
8388451451.0,-0.0105595423,-0.0071853325,0.01277235047753723,-2.5441023951351367
8388462462.0,-0.010582155,-0.0071405634,0.01276595668618081,-2.547998240709765
8388473473.0,-0.0106082935,-0.007082729,0.012755427906173247,-2.552902949315034
8388484484.0,-0.0106473592,-0.0070429259,0.012765933697411852,-2.557195251997331
8388495495.0,-0.0106827944,-0.0069922915,0.012767702871450433,-2.5620341085795095
8388506507.0,-0.0107082401,-0.0069377619,0.012759269031584045,-2.566702152877388
8388517518.0,-0.0107253985,-0.006905106,0.012755965735883673,-2.569582086395934
8388528529.0,-0.0107726248,-0.0068332004,0.012757040126460966,-2.5763253921889686
8388539540.0,-0.010803523,-0.0068020005,0.012766492079405731,-2.579685520696296
8388550551.0,-0.0108165392,-0.0067592554,0.012754805126992955,-2.583065248005515
8388561562.0,-0.0108434826,-0.0067035678,0.012748291499087225,-2.587889712649039
8388572573.0,-0.0108737924,-0.0066515457,0.012746859274248158,-2.592611461489136
8388583584.0,-0.0109006854,-0.0065957746,0.012740847097574726,-2.597447043192184
8388594595.0,-0.0109266622,-0.0065713014,0.012750448969450087,-2.600143923471468
8388605606.0,-0.0109560912,-0.0065159606,0.012747300770103049,-2.605054165059789
8388616617.0,-0.0109985543,-0.0064538128,0.012752250638514455,-2.610944970860813
8388627628.0,-0.0110090773,-0.0064253619,0.012746962718363418,-2.61328779963683
8388638639.0,-0.0110175322,-0.0063580041,0.01272046508244308,-2.6181961529897158
8388649650.0,-0.0110513283,-0.0063236009,0.012732626812125678,-2.621863091379758
8388660661.0,-0.0110949265,-0.006284315,0.012751078741017453,-2.6262353771135207
8388671672.0,-0.011121828,-0.0062139427,0.012740021269231353,-2.6320823710880887
8388682683.0,-0.0111376071,-0.0061705714,0.01273272332678553,-2.6356604570020075
8388693694.0,-0.0111624345,-0.0061258551,0.012732872600987818,-2.6396773391273456
8388704705.0,-0.0111894594,-0.0060784976,0.01273389707581517,-2.6439587109887666
8388715716.0,-0.0112039666,-0.0060316837,0.012724389016010208,-2.6477357995831494
8388726727.0,-0.0112375577,-0.0059743532,0.012726963472061177,-2.6529533427688285
8388737738.0,-0.0112611702,-0.0059300544,0.012727116698621388,-2.6568976016809858
8388748749.0,-0.0112928279,-0.0058658672,0.012725421799966172,-2.6625198004437123
8388759760.0,-0.0113118699,-0.0058177437,0.012720241443990586,-2.6665671734191427
8388770771.0,-0.0113374739,-0.0057754676,0.012723770684503512,-2.6704422615324463
8388781782.0,-0.0113500933,-0.0057091488,0.01270507764396764,-2.6755442785026364
8388792793.0,-0.0113796656,-0.0056668266,0.012712580889901584,-2.679563707235501
8388803804.0,-0.0114155469,-0.0056363224,0.012731175956008202,-2.6829648503448107
8388814815.0,-0.0114296292,-0.005563578,0.012711798606474877,-2.6885865505293487
8388825826.0,-0.0114655094,-0.0055139386,0.012722477144253721,-2.693329060419894
8388836837.0,-0.011474742,-0.0054740845,0.012713587419753099,-2.696468854176465
8388847848.0,-0.011507097,-0.0054225926,0.012720762236319951,-2.701217445469791
8388858859.0,-0.0115127192,-0.0053671002,0.01270230167862851,-2.7053580135311375
8388869870.0,-0.0115314628,-0.0053257922,0.012701917054734875,-2.7089290722637296
8388880881.0,-0.0115593384,-0.0052607685,0.012700157064237702,-2.714497526544383
8388891892.0,-0.0115869657,-0.0052073249,0.01270330692170887,-2.7192275671142845
8388902903.0,-0.0116098152,-0.0051558553,0.012703174912307913,-2.723660567517838
8388913914.0,-0.0116153164,-0.0051075189,0.012688669133757338,-2.7273180810407363
8388924925.0,-0.0116521008,-0.0050585665,0.012702777180139896,-2.7320114123243813
8388935936.0,-0.0116680693,-0.0050068534,0.012696945386930433,-2.7362482588834736
8388946947.0,-0.0116837798,-0.0049431384,0.012686422965376908,-2.7413519390384686
8388957958.0,-0.0117020955,-0.0048973918,0.012685562089786464,-2.745235706512104
8388968969.0,-0.0117046052,-0.0048261598,0.012660552961976152,-2.7505023674478624
8388979980.0,-0.0117408901,-0.0047900088,0.012680405539427966,-2.7542288391559198
8388990991.0,-0.0117553773,-0.0047395107,0.012674851365628308,-2.7583495399898577
8389002002.0,-0.0117816205,-0.004702059,0.01268526469749454,-2.7618613353030765
8389013013.0,-0.0117994217,-0.0046398589,0.012678905436446005,-2.766938105874549
8389024024.0,-0.0118244856,-0.0045824499,0.012681376376033374,-2.7718744145208754
8389035035.0,-0.0118283226,-0.0045274959,0.012665205669636304,-2.776029686638214
8389046046.0,-0.0118630286,-0.0044831886,0.012681893690911775,-2.78027087376785
8389057057.0,-0.0118700099,-0.0044237636,0.012667549858389467,-2.784853932072424
8389068068.0,-0.011914635,-0.0043729724,0.012691785327304696,-2.789831771299724
8389079079.0,-0.0119168408,-0.0043343025,0.012680586453869193,-2.792754515287424
8389090090.0,-0.0119145966,-0.0042633698,0.012654403747007744,-2.797961688627868
8389101101.0,-0.011935958,-0.0042247649,0.012661584886499636,-2.8014008217664332
8389112112.0,-0.0119473989,-0.0041677022,0.012653461269692415,-2.8059537369304706
8389123123.0,-0.0119760954,-0.0041130143,0.0126626911698069,-2.8107780189612988
8389134134.0,-0.0119860958,-0.004048457,0.012651343668070466,-2.815860911498638
8389145145.0,-0.0120156342,-0.0039933516,0.012661845135264931,-2.8207306897215196
8389156156.0,-0.0120290321,-0.0039544674,0.012662362563143308,-2.8239785249480573
8389167167.0,-0.012044766,-0.0039180321,0.01266599240215256,-2.827099219976688
8389178178.0,-0.0120334318,-0.003850059,0.012634335565779952,-2.831937892559147
8389189189.0,-0.0120623151,-0.0037810366,0.012641031735670456,-2.8378346936116596
8389200200.0,-0.0120662308,-0.0037172523,0.012625842165207195,-2.842748082369781
8389211211.0,-0.0120953926,-0.0036697003,0.012639826835837382,-2.847022685047714
8389222222.0,-0.0120977835,-0.0036075529,0.012624214967243337,-2.851788518336292
8389233233.0,-0.012140178,-0.003561359,0.01265176666709298,-2.856245021587131
8389244244.0,-0.0121314134,-0.0035268695,0.012633685113684361,-2.8586693143342736
8389255255.0,-0.0121456407,-0.0034534872,0.012627080496063228,-2.8645643471193307
8389266266.0,-0.0121637453,-0.0033957452,0.012628847341962573,-2.8693543527626657
8389277277.0,-0.0121528395,-0.0033631419,0.012609608691481899,-2.8716121669720978
8389288288.0,-0.0121691393,-0.0032943383,0.012607165269704818,-2.877216836720505
8389299299.0,-0.0121853909,-0.0032376634,0.012608180506223029,-2.8818925823000114
8389310310.0,-0.012208431,-0.0032004605,0.012620964103182501,-2.885210231915336
8389321321.0,-0.0122237018,-0.0031173228,0.012614935082461705,-2.8918922539204064
8389332332.0,-0.0122207131,-0.0030725214,0.012601040291419181,-2.8952787588266355
8389343343.0,-0.0122270672,-0.0030126146,0.012592736757410955,-2.900015475709465
8389354354.0,-0.0122394037,-0.0029601312,0.012592274602024335,-2.904296740250912
8389365365.0,-0.0122656525,-0.0029131433,0.012606848739359537,-2.908408930029165
8389376376.0,-0.0122779719,-0.0028535345,0.012605207381073898,-2.9132357037079433
8389387387.0,-0.0122911313,-0.0027998595,0.01260599547253528,-2.9176193913756276
8389398398.0,-0.0122792785,-0.002755805,0.012584718577647546,-2.9208234069445442
8389409409.0,-0.0123023073,-0.0026935659,0.01259373106594214,-2.926045978722235
8389420420.0,-0.012315014,-0.0026333339,0.01259341166043123,-2.93093394578516
8389431431.0,-0.0123169842,-0.0025743723,0.012583143189285297,-2.9355488771216254
8389442442.0,-0.0123384314,-0.0025139986,0.012591944979760194,-2.940590576672133
8389453453.0,-0.0123427834,-0.002465048,0.01258653104320724,-2.944470444978329
8389464464.0,-0.0123588738,-0.0024059623,0.012590886235422339,-2.949322603402398
8389475475.0,-0.0123597769,-0.0023607431,0.012583210758863223,-2.9528637194472602
8389486486.0,-0.0123604578,-0.002291583,0.012571088643051955,-2.9582777401982994
8389497497.0,-0.0123655619,-0.0022387872,0.012566594177803925,-2.9624826805319575
8389508509.0,-0.0123873406,-0.0021996079,0.012581116089367857,-2.965855399956189
8389519520.0,-0.0123857708,-0.0021380424,0.012568951571803051,-2.9706563604431815
8389530531.0,-0.0123794706,-0.002085748,0.012553949062178337,-2.9746758683643155
8389541542.0,-0.0123931867,-0.0020187659,0.01255653185955659,-2.980117683998563
8389552553.0,-0.0123959374,-0.0019557761,0.012549275842774751,-2.9851070460627
8389563564.0,-0.01242297,-0.0019147733,0.012569667474173409,-2.988664407799255
8389574575.0,-0.012399123,-0.0018556717,0.012537215345813833,-2.9930337458962764
8389585586.0,-0.0124141087,-0.0017956983,0.012543310057558116,-2.9979392407956973
8389596597.0,-0.0124117394,-0.0017240229,0.01253090299592319,-3.0035731762100886
8389607608.0,-0.0124347477,-0.0016666192,0.012545938383415724,-3.0083574787600442
8389618619.0,-0.01244259,-0.0016224907,0.012547928991657806,-3.0119261377585436
8389629630.0,-0.012429357,-0.0015629826,0.012527243513293408,-3.0164999820044085
8389640641.0,-0.0124462664,-0.0015090088,0.012537410213367288,-3.0209396522592096
8389651652.0,-0.0124321053,-0.0014638768,0.012517994147460939,-3.0243826599393917
8389662663.0,-0.0124266458,-0.0013804969,0.01250309151888313,-3.030954631268268
8389673674.0,-0.0124350199,-0.0013439543,0.01250743511171993,-3.033932366734538
8389684685.0,-0.0124382016,-0.0012850844,0.012504411259926072,-3.0386403977080727
8389695696.0,-0.0124477867,-0.0012398876,0.012509385076386874,-3.0423130527301043
8389706707.0,-0.012456256,-0.0011876765,0.012512749058707614,-3.0465322381415874
8389717718.0,-0.0124656374,-0.0011339796,0.012517109311717898,-3.050873903117144
8389728729.0,-0.012436439,-0.0010656353,0.01248201079927938,-3.056114913535384
8389739740.0,-0.0124619807,-0.0010044351,0.012502393884264105,-3.061166555366483
8389750751.0,-0.0124488288,-0.0009461866,0.012484734982118323,-3.0657324350240795
8389761762.0,-0.0124642626,-0.0008850707,0.012495646934263036,-3.070702971975209
8389772773.0,-0.0124661368,-0.0008401886,0.012494418097690032,-3.074296754386693
8389783784.0,-0.0124645669,-0.0007868904,0.012489380469270193,-3.078546136531107
8389794795.0,-0.0124723362,-0.0007217822,0.012493203745639758,-3.0837864774878163
8389805806.0,-0.0124599224,-0.0006614635,0.012477467698850357,-3.088555151803928
8389816817.0,-0.0124721971,-0.0006010225,0.012486670034350817,-3.0934409193593084
8389827828.0,-0.0124642898,-0.0005608456,0.012476901378364078,-3.09662679019971
8389838839.0,-0.0124464763,-0.0005029224,0.012456632900863839,-3.101207813186134
8389849850.0,-0.0124489561,-0.0004192975,0.012456015348948213,-3.1079240431811423
8389860861.0,-0.0124673816,-0.0003873943,0.01247339882725198,-3.11053002094172
8389871872.0,-0.0124590667,-0.0003304849,0.012463449093416191,-3.1150732176002265
8389882883.0,-0.0124361807,-0.0002630861,0.01243896316816903,-3.120440913308052
8389893894.0,-0.0124427408,-0.0002211034,0.01244470511219435,-3.123824853391676
8389904905.0,-0.0124547221,-0.0001503454,0.012455629503462665,-3.1295218826186653
8389915916.0,-0.0124359916,-9.69707e-05,0.012436369662885107,-3.1337952267466025
8389926927.0,-0.0124119741,-2.54838e-05,0.012412000261163922,-3.1395394939565238
8389937938.0,-0.0124282262,-1.5327e-06,0.012428226294509435,-3.141469329475188
8389948949.0,-0.0124331796,6.28214e-05,0.012433338308521735,-3.146645332584158
8389959960.0,-0.0124116232,0.0001290144,0.012412293711243928,-3.1519869228657154
8389970971.0,-0.0124250939,0.0001847837,0.012426467858551072,-3.1564633725050517
8389981982.0,-0.0124218407,0.0002493379,0.012424342870532547,-3.161662498909984
8389992993.0,-0.0123883967,0.0003053965,0.012392160417731168,-3.1662394796122477
8390004004.0,-0.0123967319,0.0003645312,0.012402090339787524,-3.17098960997355
8390015015.0,-0.0123892961,0.0004125375,0.01239616251274488,-3.1748782519843335
8390026026.0,-0.0123894385,0.0004608175,0.012398005449006244,-3.17876989729814
8390037037.0,-0.0123856438,0.0005086762,0.0123960850197522,-3.182639408804038
8390048048.0,-0.0123744973,0.0005718315,0.012387702559074445,-3.187770286145522
8390059059.0,-0.0123713207,0.0006319135,0.012387448911447859,-3.192627204261413
8390070070.0,-0.0123549091,0.0006841683,0.012373837930568983,-3.1969123842495053
8390081081.0,-0.0123520067,0.0007631654,0.012375560227504937,-3.203298945216611
8390092092.0,-0.01234184,0.0008089833,0.012368325212625954,-3.207047048301488
8390103103.0,-0.0123270122,0.0008398684,0.01235559018049188,-3.2096198796967004
8390114114.0,-0.0123265822,0.0009083074,0.012360002065786704,-3.215146600477122
8390125125.0,-0.0123109261,0.0009797457,0.012349850326069934,-3.2210087026531093
8390136136.0,-0.012308417,0.0010413626,0.012352391068557041,-3.2259973728375506
8390147147.0,-0.0122834809,0.0010916427,0.012331893074671385,-3.230230582336994
8390158158.0,-0.0122817285,0.0011303725,0.01233363680900603,-3.2333710141312535
8390169169.0,-0.0122729232,0.0011829395,0.012329800879728695,-3.2376819457929797
8390180180.0,-0.0122543121,0.0012544897,0.012318356605148776,-3.243608559510872
8390191191.0,-0.0122723852,0.0013014146,0.012341195989784467,-3.2472419580601635
8390202202.0,-0.0122484209,0.0013736094,0.012325202526827912,-3.253271864514043
8390213213.0,-0.012230615,0.0014225248,0.012313062985497964,-3.257380934265884
8390224224.0,-0.0122138997,0.0014539873,0.012300139224830807,-3.2600787071535895
8390235235.0,-0.0122073341,0.0015216086,0.012301800622698157,-3.2656001466158266
8390246246.0,-0.0121879782,0.0015920228,0.012291515333733067,-3.2714796519146816
8390257257.0,-0.0121705744,0.0016562182,0.012282749690193422,-3.276845644623776
8390268268.0,-0.0121663975,0.0017013598,0.012284781369526375,-3.2805325358779385
8390279279.0,-0.0121784179,0.0017442817,0.012302698126671048,-3.2838524261544086
8390290290.0,-0.0121456495,0.0018090991,0.012279643371469346,-3.2894559195714828
8390301301.0,-0.0121535037,0.0018761566,0.012297463794361715,-3.2947553018647775
8390312312.0,-0.0121082955,0.0019290377,0.012260995325149649,-3.299580313472753
8390323323.0,-0.012112516,0.0019719605,0.012271987290729088,-3.302980276123463
8390334334.0,-0.0120888807,0.0020266573,0.012257584443538447,-3.307694430980794
8390345345.0,-0.0120944437,0.0020802989,0.012272050029469848,-3.3119303730990044
8390356356.0,-0.0120573762,0.0021464495,0.012246941099081709,-3.3177666998931703
8390367367.0,-0.0120347951,0.0021866835,0.012231838693677916,-3.321328632493722
8390378378.0,-0.0120091704,0.0022405558,0.012216393247974208,-3.326042429931266
8390389389.0,-0.0119891028,0.0022941436,0.012206624464051838,-3.3306595555751164
8390400400.0,-0.0119811603,0.0023691188,0.012213145623581565,-3.336811316460879
8390411411.0,-0.011980118,0.0024078237,0.012219690759761708,-3.339935123798362
8390422422.0,-0.0119534247,0.0024606593,0.012204065152613967,-3.3446105913814037
8390433433.0,-0.0119500827,0.0025146534,0.01221179586543154,-3.3489964495798556
8390444444.0,-0.0119204846,0.0025876311,0.012198105910694675,-3.3553506381572666
8390455455.0,-0.0118978181,0.0026282526,0.012184653760780172,-3.359003217173275
8390466466.0,-0.011872167,0.0027105662,0.012177664735098903,-3.3660579014955023
8390477477.0,-0.0118671417,0.002747151,0.012180964278113614,-3.3690778282367844
8390488488.0,-0.0118407258,0.0027862411,0.012164124585769206,-3.3726983628708354
8390499499.0,-0.0118310677,0.0028269777,0.012164126184740134,-3.376140112297945
8390510511.0,-0.0118154853,0.0028927435,0.012164442355953202,-3.381696211541778
8390521522.0,-0.0117694847,0.0029611355,0.012136271814395652,-3.3880712893831992
8390532533.0,-0.011773587,0.0029984428,0.012149403692010601,-3.3909668151200343
8390543544.0,-0.0117239144,0.0030397092,0.01211156475766414,-3.395280803214492
8390554555.0,-0.0117131733,0.0031095677,0.012118904242410538,-3.4010832020003394
8390565566.0,-0.0116958997,0.0031765553,0.012119594604045887,-3.4067911064243943
8390576577.0,-0.0116808718,0.0032200715,0.012116584769362507,-3.410582094641711
8390587588.0,-0.0116589728,0.003259926,0.012106145723417335,-3.414236540080746
8390598599.0,-0.0116468587,0.0033140231,0.012109172832406815,-3.4188083750219236
8390609610.0,-0.0116129171,0.0033681026,0.012091482898949953,-3.4238784036441428
8390620621.0,-0.0115848426,0.0034382766,0.012084300726350795,-3.430102784067427
8390631632.0,-0.0115695694,0.0034751736,0.012080222168964995,-3.433390610324929
8390642643.0,-0.0115494694,0.0035352323,0.012078415079657581,-3.4386315678661643
8390653654.0,-0.011526326,0.0035860702,0.012071291999517036,-3.4432197769936237
8390664665.0,-0.0114912653,0.0036350106,0.0120524885503823,-3.4479612708950906
8390675676.0,-0.0114758935,0.0036877901,0.012053876034081331,-3.452520644670494
8390686687.0,-0.0114358304,0.0037528101,0.012035854792420277,-3.458682214529349
8390697698.0,-0.0114306893,0.0037712069,0.012036721287615747,-3.460267586367431
8390708709.0,-0.0114069873,0.0038379024,0.01203531695030451,-3.466147275376705
