frequency,Re(S21),Im(S21),Amplitude,phase
7805000000.0,0.0017327374,-0.0153119905,0.01540971875049798,-1.4581135617411214
7805007508.0,0.0016857726,-0.0153136317,0.015406139850791816,-1.461154658752518
7805015015.0,0.0016500975,-0.0153376167,0.015426124198761826,-1.463623549330452
7805022523.0,0.0015857707,-0.0153432667,0.015424996004547534,-1.467809111562778
7805030030.0,0.001543786,-0.0153294653,0.015407004303163547,-1.4704276240901504
7805037538.0,0.0014952193,-0.0153411567,0.015413849929496765,-1.4736386222863007
7805045045.0,0.0014480528,-0.0153499554,0.015418105840004375,-1.476738721119042
7805052553.0,0.0014052032,-0.015338586,0.01540281846003147,-1.4794390351069149
7805060060.0,0.001353242,-0.0153311915,0.015390799092972278,-1.4827572516519858
7805067568.0,0.0013034642,-0.0153319964,0.015387304264564819,-1.485984319252763
7805075075.0,0.0012422675,-0.0153413852,0.015391599280007755,-1.4899976923290317
7805082583.0,0.0012088136,-0.015331478,0.015379058748311907,-1.4921138924260302
7805090090.0,0.001168569,-0.0153478918,0.015392314192877829,-1.49480421459665
7805097598.0,0.0011134766,-0.0153419066,0.015382260180541452,-1.4983458999930048
7805105105.0,0.0010766429,-0.0153219942,0.01535977428867215,-1.5006438310265027
7805112613.0,0.0010502241,-0.0153120255,0.015347999725464913,-1.5023153892078127
7805120120.0,0.0009826945,-0.0153242106,0.015355686861664072,-1.5067570880424426
7805127628.0,0.0009422467,-0.0153167394,0.015345694337213068,-1.5093563064726923
7805135135.0,0.0008974124,-0.015318434,0.015344698407855066,-1.5122793889668475
7805142643.0,0.0008372511,-0.0153273098,0.015350160100455866,-1.5162257694200745
7805150150.0,0.0008022639,-0.0153195751,0.015340567414857353,-1.5184755733998139
7805157658.0,0.0007519609,-0.0153328691,0.015351297014678064,-1.5217931753342757
7805165165.0,0.0006888662,-0.015315736,0.015331219973087545,-1.5258489446001255
7805172673.0,0.0006516394,-0.0153248118,0.015338660000568875,-1.5283000737108148
7805180180.0,0.000608356,-0.0153078667,0.01531995038920508,-1.5310758327338763
7805187688.0,0.000587942,-0.0153007988,0.015312090638232436,-1.532389646631114
7805195195.0,0.0005146385,-0.015296311,0.015304965958616284,-1.5371643976091662
7805202703.0,0.0005056,-0.0153110337,0.015319379371323622,-1.5377863842168116
7805210210.0,0.0004528859,-0.0152982816,0.015304983683471125,-1.5412012597565212
7805217718.0,0.0003949379,-0.0152980026,0.015303099669493864,-1.5449857549327337
7805225225.0,0.000336822,-0.0152921489,0.01529585783927973,-1.5487740753868795
7805232733.0,0.0002935672,-0.015277613,0.01528043326213903,-1.5515831764066883
7805240240.0,0.0002546716,-0.0152683223,0.015270446079945531,-1.5541181364059875
7805247748.0,0.0002227742,-0.0152775935,0.015279217633616844,-1.556215600275989
7805255255.0,0.0001559191,-0.0152577492,0.0152585458486661,-1.5605776719430433
7805262763.0,0.0001184319,-0.0152772197,0.015277678746360839,-1.563044292722862
7805270270.0,6.70532e-05,-0.0152648359,0.015264983170169532,-1.566403697278894
7805277778.0,2.0194e-05,-0.015254817,0.015254830366186476,-1.5694725489872643
7805285285.0,-2.69042e-05,-0.0152560204,0.015256044122943334,-1.57255983860231
7805292793.0,-5.90814e-05,-0.0152453852,0.015245499680502603,-1.574671670281302
7805300300.0,-0.000112144,-0.0152441527,0.015244565189524209,-1.5781527197182728
7805307808.0,-0.0001682557,-0.015241407,0.01524233569110166,-1.5818352594543414
7805315315.0,-0.000215315,-0.015233931,0.01523545254536228,-1.5849292951061924
7805322823.0,-0.0002487208,-0.0152018879,0.015203922446543821,-1.5871560455347975
7805330330.0,-0.0002989734,-0.0152018632,0.015204802854539805,-1.5904606836375363
7805337838.0,-0.0003268324,-0.0152071592,0.015210670936938791,-1.592285027455346
7805345345.0,-0.0003607491,-0.0152094875,0.015213765146268265,-1.5945105691851738
7805352853.0,-0.0004258779,-0.0151965271,0.015202493475964488,-1.5988136795283854
7805360360.0,-0.0004810792,-0.0151969193,0.015204532002248052,-1.6024421220057201
7805367868.0,-0.0005086011,-0.0151794792,0.015187997361803623,-1.6042896302171694
7805375375.0,-0.0005726207,-0.0151828005,0.015193594883662941,-1.6084935505423452
7805382883.0,-0.0005915568,-0.015166305,0.015177837355850512,-1.6097812398856062
7805390390.0,-0.0006548347,-0.0151585612,0.015172698709803393,-1.6139684858227397
7805397898.0,-0.0007156972,-0.0151797021,0.015196564688337699,-1.6179097404059102
7805405405.0,-0.0007300924,-0.0151537729,0.015171350237118388,-1.618938020050144
7805412913.0,-0.0007789755,-0.0151445815,0.015164601928166216,-1.6221869592718388
7805420420.0,-0.0008227628,-0.015137175,0.01515951864689934,-1.6250966829993327
7805427928.0,-0.0008735495,-0.0151478744,0.015173041473848466,-1.6284006508228774
7805435435.0,-0.000919939,-0.0151075886,0.01513557138236185,-1.6316137433874713
7805442943.0,-0.0009766046,-0.015122227,0.015153729111485072,-1.6352875084378795
7805450450.0,-0.0010089088,-0.0151089878,0.015142635480895202,-1.6374727483310303
7805457958.0,-0.0010567063,-0.015099814,0.015136743739624307,-1.6406638307357333
7805465465.0,-0.0011062366,-0.0150904745,0.01513096758473594,-1.6439723796921817
7805472973.0,-0.0011307085,-0.015082095,0.01512442036247992,-1.645626595286775
7805480480.0,-0.0011900951,-0.0150720029,0.015118915231082303,-1.6495934840630666
7805487988.0,-0.0012305221,-0.0150568355,0.015107034120324502,-1.652340252417686
7805495495.0,-0.0012789245,-0.0150431451,0.015097412439764448,-1.6556094739278782
7805503003.0,-0.0013108139,-0.0150391431,0.015096160381458286,-1.6577367574920179
7805510511.0,-0.0013481717,-0.0150201908,0.015080573550136795,-1.6603137411123845
7805518018.0,-0.0014139727,-0.0150191302,0.015085542441718737,-1.6646644335014817
7805525526.0,-0.001449145,-0.0150226172,0.015092350670745788,-1.6669629920207094
7805533033.0,-0.0015137445,-0.0149998632,0.015076051155060282,-1.6713730355476202
7805540541.0,-0.0015475532,-0.0149828822,0.01506259207194788,-1.6737194373218534
7805548048.0,-0.0015784995,-0.0149690565,0.015052053453655168,-1.6758588817978506
7805555556.0,-0.0016293719,-0.0149671453,0.015055573427133942,-1.679232543569871
7805563063.0,-0.001671332,-0.0149611326,0.01505419673476492,-1.682046670663695
7805570571.0,-0.0017248101,-0.0149368781,0.015036133055254653,-1.685760417320001
7805578078.0,-0.0017610914,-0.0149361191,0.015039584325656703,-1.688162671484048
7805585586.0,-0.0018083228,-0.0149325763,0.01504167099441819,-1.691308691625127
7805593093.0,-0.0018517733,-0.0149236034,0.015038051828447875,-1.6942488433776488
7805600601.0,-0.0018938297,-0.0149145611,0.015034318199979515,-1.6970989789702569
7805608108.0,-0.001923216,-0.0148830208,0.015006767403937754,-1.699306335667021
7805615616.0,-0.0019639107,-0.0148845947,0.015013597324453676,-1.7019810758180205
7805623123.0,-0.0020349383,-0.0148644448,0.015003089451744727,-1.7068502980308906
7805630631.0,-0.002058507,-0.0148466493,0.014988677276739248,-1.708569235463528
7805638138.0,-0.0020982622,-0.0148500911,0.01499759680543013,-1.711163374265147
7805645646.0,-0.0021646355,-0.0148320531,0.014989177629512563,-1.7157162837975797
7805653153.0,-0.0021981789,-0.0148189084,0.014981055925534614,-1.7180585806985345
7805660661.0,-0.0022488388,-0.0147931666,0.01496312313668978,-1.7216600218800924
7805668168.0,-0.0022804102,-0.0148036541,0.014978265767194507,-1.7236386642915729
7805675676.0,-0.0023374864,-0.0147648101,0.014948694255995971,-1.727807919696613
7805683183.0,-0.0023883263,-0.0147471542,0.014939299164078927,-1.7313539651081853
7805690691.0,-0.0024202192,-0.0147445789,0.014941889703594183,-1.733488530241095
7805698198.0,-0.0024576146,-0.0147264809,0.014930140964511956,-1.7361564933080205
7805705706.0,-0.0025015572,-0.0147282372,0.014939168632970703,-1.739038457169812
7805713213.0,-0.0025545186,-0.0147102934,0.014930448660098246,-1.7427368340705363
7805720721.0,-0.0026034693,-0.0146870877,0.014916051672729408,-1.7462363780342793
7805728228.0,-0.0026488097,-0.0146638709,0.014901184603872302,-1.749504359671145
7805735736.0,-0.0026963384,-0.0146581073,0.014904038056366732,-1.7527113010219704
7805743243.0,-0.0027148746,-0.0146456845,0.01489518776542496,-1.7540860934306348
7805750751.0,-0.0027634568,-0.0146358449,0.014894450289363561,-1.7574136366784507
7805758258.0,-0.0028080991,-0.0146305693,0.014897616540827037,-1.7604239221112916
7805765766.0,-0.0028610451,-0.01459259,0.014870415662392696,-1.7644020161189247
7805773273.0,-0.0028929558,-0.0145817252,0.014865930951981066,-1.7666490942064468
7805780781.0,-0.0029483188,-0.0145669312,0.014862303601123443,-1.7704966588075584
7805788288.0,-0.0029665782,-0.0145535389,0.014852813899410726,-1.771880452245659
7805795796.0,-0.0030241386,-0.0145346154,0.014845890310046317,-1.775934125048618
7805803303.0,-0.0030519881,-0.0145256039,0.01484276928414091,-1.7778947603395658
7805810811.0,-0.0030961388,-0.0145035499,0.014830341707818313,-1.7811139798390447
7805818318.0,-0.003154879,-0.0144797448,0.014819455825966351,-1.7853257287991275
7805825826.0,-0.0031890743,-0.0144842339,0.014831157290003694,-1.7875140801050606
7805833333.0,-0.0032435917,-0.0144642731,0.014823497678607855,-1.7913953757286778
7805840841.0,-0.0032669435,-0.0144240315,0.014789374717856888,-1.793531460795662
7805848348.0,-0.0033006246,-0.0144193246,0.014792263000308314,-1.795822445437057
7805855856.0,-0.0033626589,-0.0143969626,0.014784451527992102,-1.8002500832249329
7805863363.0,-0.003383849,-0.0143965171,0.014788851837292625,-1.8016522243836506
7805870871.0,-0.0034300546,-0.0143737581,0.014777354177128488,-1.8050484621987724
7805878378.0,-0.0034787788,-0.0143541956,0.014769726919018808,-1.8085647305469543
7805885886.0,-0.0035206104,-0.0143490407,0.014774629152667237,-1.811398569702321
7805893393.0,-0.003572777,-0.0143045322,0.014743960694215304,-1.815554164132029
7805900901.0,-0.0036115542,-0.0143009821,0.014749963144498297,-1.8181631058701162
7805908408.0,-0.0036411633,-0.0142699024,0.014727124114462831,-1.8206291521937301
7805915916.0,-0.0036687135,-0.0142729079,0.014736870721661523,-1.8223901636209476
7805923423.0,-0.0037380837,-0.0142457848,0.014728056705353789,-1.827410429409144
7805930931.0,-0.003748504,-0.0142146528,0.014700599867439554,-1.8286335502241697
7805938438.0,-0.0038082528,-0.014213633,0.01471496355576176,-1.8325774211107484
7805945946.0,-0.0038492226,-0.0141768114,0.014690081555101072,-1.8359200542917742
7805953453.0,-0.0038805138,-0.0141607381,0.014682809366357042,-1.8382635829969072
7805960961.0,-0.0039392805,-0.0141443445,0.014682656850596233,-1.8424188246649664
7805968468.0,-0.0039634472,-0.0141115812,0.014657613641769294,-1.8446068289505666
7805975976.0,-0.004011007,-0.0141114757,0.014670443878279194,-1.847729889290229
7805983483.0,-0.0040467215,-0.0141102802,0.01467909950307151,-1.850092473534744
7805990991.0,-0.0040946818,-0.0140619407,0.014645975395772304,-1.8541501192585819
7805998498.0,-0.0041232148,-0.0140261838,0.014619669362824916,-1.85670777302096
7806006006.0,-0.0041716619,-0.014032624,0.014639579889234788,-1.8597586881935346
7806013514.0,-0.0042049856,-0.0139895704,0.014607874036722918,-1.8627851810770903
7806021021.0,-0.0042682425,-0.0139793001,0.01461638550821188,-1.8671320850665394
7806028529.0,-0.004291093,-0.01397405,0.01461805570303893,-1.8687319999917984
7806036036.0,-0.0043303708,-0.0139406968,0.014597778547951154,-1.8719748377081
7806043544.0,-0.0043753218,-0.0139059383,0.014578016355353773,-1.8756268249306143
7806051051.0,-0.0044115394,-0.0139038319,0.014586919530223301,-1.8780385830392858
7806058559.0,-0.0044477173,-0.0138788344,0.014574094602524805,-1.8809234150784977
7806066066.0,-0.0044853588,-0.0138253365,0.014534729887513208,-1.8845129133390381
7806073574.0,-0.0045486471,-0.0138384159,0.014566809707746965,-1.888368478981012
7806081081.0,-0.0045495939,-0.0138225211,0.014552006535693366,-1.888771363861784
7806088589.0,-0.0046052079,-0.0137842987,0.014533231934192892,-1.893228480135417
7806096096.0,-0.0046364188,-0.0137637184,0.01452364704485385,-1.8957157294493396
7806103604.0,-0.0046762587,-0.0137176622,0.014492813793830186,-1.899335322042692
7806111111.0,-0.0047153721,-0.0137223511,0.01450991570454941,-1.9017825122119287
7806118619.0,-0.0047506597,-0.0136809166,0.014482273530125015,-1.9050166428191497
7806126126.0,-0.0048003558,-0.0136615161,0.014480346610394133,-1.9086982089192912
7806133634.0,-0.0048342126,-0.0136309221,0.01446276767283037,-1.9116080600698677
7806141141.0,-0.0048736,-0.0136266105,0.014471920766736883,-1.9142727504630108
7806148649.0,-0.0049017145,-0.0135850778,0.014442338587346686,-1.9170741686370285
7806156156.0,-0.0049528553,-0.013562073,0.014438164692233812,-1.920946763038369
7806163664.0,-0.0049892581,-0.0135386536,0.014428715732497075,-1.9238734094709184
7806171171.0,-0.0050140646,-0.0135301119,0.01442930254168561,-1.9256912302320484
7806178679.0,-0.0050638471,-0.0134819175,0.01440155015715269,-1.9300954484431885
7806186186.0,-0.0051111991,-0.0134522738,0.014390553381646142,-1.9339001432156455
7806193694.0,-0.0051238255,-0.0134367469,0.014380533891657495,-1.9351044067815455
7806201201.0,-0.0051616479,-0.0134157206,0.014374427580284328,-1.9380841379505518
7806208709.0,-0.0052046562,-0.0134021204,0.014377248602437623,-1.9412157215197887
7806216216.0,-0.0052373903,-0.0133586736,0.014348673022473928,-1.94443846062956
7806223724.0,-0.0052842252,-0.0133229202,0.014332593576177449,-1.9483912646599826
7806231231.0,-0.0053237912,-0.0133153553,0.014340203607565532,-1.9511504902783412
7806238739.0,-0.0053475032,-0.0132917408,0.014327112897174884,-1.9532991625940677
7806246246.0,-0.0053894456,-0.0132735479,0.014325962366590029,-1.9564893025753227
7806253754.0,-0.0054126543,-0.0132187586,0.014283991231318453,-1.959437750768111
7806261261.0,-0.0054721478,-0.0131967133,0.014286274653227191,-1.9638763202413172
7806268769.0,-0.0055024004,-0.013177969,0.014280590923588602,-1.966335960084884
7806276276.0,-0.0055376387,-0.0131633175,0.014280699211787354,-1.9690082989183462
7806283784.0,-0.0055726516,-0.0131334274,0.014266792250749756,-1.9720828458476274
7806291291.0,-0.0056108018,-0.0131146636,0.014264483803490689,-1.9750586827939696
7806298799.0,-0.0056423182,-0.0130699252,0.014235824507335229,-1.978330250722721
7806306306.0,-0.0056740182,-0.013060563,0.014239831052751303,-1.9806346675540443
7806313814.0,-0.0057073932,-0.013028637,0.014223913639261707,-1.9836811141011366
7806321321.0,-0.0057362462,-0.0129701184,0.01418197771035595,-1.9872003191120593
7806328829.0,-0.0057760658,-0.0129573758,0.01418649088916478,-1.9901306493594983
7806336336.0,-0.0058174948,-0.0129231768,0.014172217340701676,-1.9937831422795609
7806343844.0,-0.0058442079,-0.0128942424,0.014156844741974822,-1.9963427518284889
7806351351.0,-0.0058680763,-0.0128677659,0.014142620645404603,-1.9986527674786085
7806358859.0,-0.0059267397,-0.0128472096,0.0141483934769248,-2.003028159396675
7806366366.0,-0.0059578212,-0.0128087705,0.014126579032902471,-2.006165874605748
7806373874.0,-0.0059876138,-0.0127885928,0.014120893201995484,-2.0086815275578687
7806381381.0,-0.0060044217,-0.0127453444,0.01408889221429571,-2.01106358300771
7806388889.0,-0.0060501616,-0.0127345537,0.014098698994031267,-2.0143246582211978
7806396396.0,-0.0060904061,-0.0126837003,0.014070156351765863,-2.0184591828631038
7806403904.0,-0.006117752,-0.0126663677,0.01406640537753364,-2.0207450464181127
7806411411.0,-0.0061565736,-0.0126213284,0.014042839067398854,-2.024629322486459
7806418919.0,-0.0061760993,-0.0126147325,0.014045486058161773,-2.026084659637088
7806426426.0,-0.0061982019,-0.0125671241,0.014012505662370469,-2.028995315913296
7806433934.0,-0.0062333292,-0.0125288251,0.013993779021478175,-2.032457209288586
7806441441.0,-0.0062626555,-0.0125016571,0.01398257072779039,-2.035200473837356
7806448949.0,-0.0063026274,-0.0124744222,0.013976205542531334,-2.0386303573667206
7806456456.0,-0.0063248693,-0.0124496678,0.013964175593010828,-2.0408514027791576
7806463964.0,-0.0063602553,-0.0124188535,0.013952805084843705,-2.0441127627780733
7806471471.0,-0.0063882072,-0.0123818876,0.013932707266327159,-2.0471078396216216
7806478979.0,-0.0064207203,-0.0123516836,0.013920838226390717,-2.050178263207113
7806486486.0,-0.0064576533,-0.0123091489,0.01390023139323127,-2.0539471471472877
7806493994.0,-0.0065003231,-0.012283787,0.013897684104402524,-2.0575137952701876
7806501502.0,-0.0065229686,-0.0122598767,0.01388717739700148,-2.0597604192446446
7806509009.0,-0.006551034,-0.0122072387,0.013853978603561277,-2.0633335068703738
7806516517.0,-0.0065715535,-0.0121804522,0.013840113120919465,-2.0655550811647845
7806524024.0,-0.00659841,-0.0121607936,0.013835603185618653,-2.0679380832730336
7806531532.0,-0.0066194976,-0.0121249377,0.013814190627948026,-2.070517691203192
7806539039.0,-0.0066688488,-0.0120950932,0.01381176396532853,-2.0746893109810425
7806546547.0,-0.0066782585,-0.0120554221,0.013781594196680971,-2.076677100527609
7806554054.0,-0.0067126441,-0.0120234978,0.013770406317893079,-2.0799848195074877
7806561562.0,-0.006736764,-0.0119701608,0.013735673946681782,-2.083410954753789
7806569069.0,-0.0067814452,-0.0119600659,0.013748860874012286,-2.0866031683950834
7806576577.0,-0.0067856686,-0.011926468,0.013721732299678857,-2.0880786122305803
7806584084.0,-0.0068171374,-0.0118774435,0.013694780992267492,-2.091846130026909
7806591592.0,-0.0068659937,-0.011853269,0.013698242787846938,-2.095817947155268
7806599099.0,-0.0068941614,-0.0118307794,0.013692947185347438,-2.098421215864687
7806606607.0,-0.0069107873,-0.0117644387,0.013644082931142679,-2.101922100155775
7806614114.0,-0.0069202428,-0.0117471165,0.013633946841451455,-2.1031636085711822
7806621622.0,-0.0069657355,-0.011710333,0.013625467699380056,-2.107410612024414
7806629129.0,-0.0069760692,-0.0116676779,0.013594125534999927,-2.10966804267058
7806636637.0,-0.0070048116,-0.011637545,0.01358307178728433,-2.1126226438337907
7806644144.0,-0.0070377285,-0.011604816,0.013572080784963235,-2.115944215251853
7806651652.0,-0.0070418835,-0.011554939,0.013531619951849566,-2.1181181016754618
7806659159.0,-0.0070910447,-0.0115383588,0.013543139914175573,-2.12185492243512
7806666667.0,-0.0071138442,-0.0115011743,0.013523453315660692,-2.1247309608226463
7806674174.0,-0.0071406824,-0.0114652461,0.013507080116414315,-2.127820044462386
7806681682.0,-0.0071409229,-0.011423491,0.013471782602566944,-2.129473760018427
7806689189.0,-0.0071964625,-0.0113879682,0.013471261716636549,-2.1343674998154754
7806696697.0,-0.0071907354,-0.0113412621,0.013428734177639737,-2.1358649889354218
7806704204.0,-0.0072051537,-0.0113251763,0.013422885608791627,-2.1374138760524946
7806711712.0,-0.0072292867,-0.0112668485,0.013386727057527883,-2.141273738774889
7806719219.0,-0.007259484,-0.0112263603,0.013369041608569856,-2.1448103014637043
7806726727.0,-0.0072843523,-0.0111792476,0.013343064315689296,-2.148292652491909
7806734234.0,-0.0072939634,-0.0111639731,0.013335523891398611,-2.1495217957534303
7806741742.0,-0.0073234003,-0.0111282841,0.013321820407299931,-2.1528369471563
7806749249.0,-0.0073246458,-0.0110866053,0.013287710606927204,-2.154639553112806
7806756757.0,-0.0073355884,-0.0110292218,0.013245927324570743,-2.157716860982115
7806764264.0,-0.0073734308,-0.0109929493,0.013236782693493127,-2.1616148852266974
7806771772.0,-0.0073976867,-0.0109556255,0.013219360748826214,-2.164711488325438
7806779279.0,-0.007376751,-0.0109330135,0.013188905925329184,-2.1643553794165684
7806786787.0,-0.0074143466,-0.010902344,0.013184598598336907,-2.1680201923194247
7806794294.0,-0.0074460308,-0.0108581065,0.013165935266432496,-2.171899651477947
7806801802.0,-0.0074360623,-0.0108244759,0.013132566430030426,-2.172721938308761
7806809309.0,-0.0074672661,-0.0107904235,0.013122244560956843,-2.176151323787411
7806816817.0,-0.0074917705,-0.0107416186,0.01309614429412475,-2.1798106224476976
7806824324.0,-0.0075056957,-0.0106811653,0.013054606853786238,-2.1833346339753636
7806831832.0,-0.0075223916,-0.0106571792,0.013044609763602099,-2.185439041519485
7806839339.0,-0.0075251477,-0.010622641,0.013018000987928074,-2.187141969381761
