frequency,Re(S21),Im(S21),Amplitude,phase
7983000000.0,-0.0089729298,0.0137266024,0.01639917932835097,2.149760540142956
7983011011.0,-0.008930073,0.0137205935,0.016370732719630212,2.1477701204583117
7983022022.0,-0.0088527247,0.0138048409,0.01639952337381495,2.141014807564517
7983033033.0,-0.0087896285,0.0138451925,0.01639960135277893,2.1364478666319284
7983044044.0,-0.0087485551,0.0138704097,0.016398947575487585,2.133509176791718
7983055055.0,-0.0086667153,0.0139130278,0.016391592255019856,2.1278991359227004
7983066066.0,-0.0086251287,0.0139172172,0.016373203097852892,2.1256079896992173
7983077077.0,-0.008545138,0.0139675864,0.01637415198660709,2.119835095744905
7983088088.0,-0.0084818574,0.0140126188,0.016379724985116455,2.11510478020739
7983099099.0,-0.0084006381,0.0140650788,0.016382831322374686,2.1092054528102753
7983110110.0,-0.0083512514,0.0140925879,0.016381221983271833,2.1057560325744635
7983121121.0,-0.0082920483,0.0140994738,0.016357054332807583,2.102427660544737
7983132132.0,-0.0082287732,0.0141539073,0.016372104331271273,2.097410784251642
7983143143.0,-0.0081475843,0.0141750817,0.01634980339720577,2.092466890445052
7983154154.0,-0.0080955858,0.0142187144,0.016361856515503644,2.088382653176931
7983165165.0,-0.0080345671,0.0142498007,0.016358822955033256,2.0842009691236205
7983176176.0,-0.007963531,0.0142683862,0.01634027756007564,2.079855488851788
7983187187.0,-0.0079009218,0.0143040438,0.016341059767409016,2.075446426998901
7983198198.0,-0.0078467855,0.0143366987,0.016343591168944235,2.0715808928565096
7983209209.0,-0.0077828243,0.0143539423,0.01632813564484322,2.067637624710253
7983220220.0,-0.007706142,0.014388909,0.016322540449772056,2.0624865805270485
7983231231.0,-0.007660468,0.0144198823,0.016328373327581573,2.059125168365122
7983242242.0,-0.007579189,0.0144671564,0.016332260106910555,2.053372250348239
7983253253.0,-0.0075417235,0.0145155423,0.016357828756089286,2.0499707463305348
7983264264.0,-0.0074563591,0.0145136486,0.01631696315839546,2.0453818111577418
7983275275.0,-0.0073780935,0.014555644,0.016318793948986495,2.039939808091814
7983286286.0,-0.0073035518,0.014567323,0.016295667162826204,2.0355356633398016
7983297297.0,-0.0072330153,0.0146037434,0.01629680433775523,2.030664840106057
7983308308.0,-0.0071691588,0.0146354934,0.016297070441065813,2.0262889406031768
7983319319.0,-0.0071263718,0.0146912027,0.0163283989357292,2.0224348230450335
7983330330.0,-0.0070555295,0.0147176664,0.016321464419195332,2.017821924312146
7983341341.0,-0.0069993962,0.014726155,0.016304943675112756,2.0144924393803105
7983352352.0,-0.0068878391,0.0147501643,0.016279117738516525,2.0076700337376656
7983363363.0,-0.0068633779,0.0147719218,0.016288512205340416,2.005744161919733
7983374374.0,-0.0067824455,0.0148064877,0.016285995363216874,2.0003430692439266
7983385385.0,-0.0067282249,0.014826042,0.016281293919426183,1.9968151809029897
7983396396.0,-0.0066550395,0.0148486264,0.01627179328510958,1.9921459225583713
7983407407.0,-0.0065921032,0.01486651,0.01626250116616599,1.988164605101952
7983418418.0,-0.0065544206,0.0149100637,0.016287124636956703,1.9849655918026934
7983429429.0,-0.0064563858,0.0149553801,0.016289515386711712,1.9783365731712543
7983440440.0,-0.006388924,0.0149593936,0.016266585590021556,1.9744311745793202
7983451451.0,-0.0063212578,0.0149582718,0.016239094661240697,1.9706262794115506
7983462462.0,-0.0062620995,0.0149910389,0.01624638844325758,1.9664870524702407
7983473473.0,-0.0061912013,0.0150237119,0.016249396690072013,1.9616860188508771
7983484484.0,-0.0061258343,0.0150474411,0.016246579010026255,1.9574095679352763
7983495495.0,-0.0060337552,0.0150651866,0.01622855659343574,1.9517421281481906
7983506507.0,-0.0059999844,0.0150771415,0.016227138028970654,1.9495362720847267
7983517518.0,-0.0059232189,0.0151462946,0.016263294938213057,1.9435783674926246
7983528529.0,-0.0058535403,0.0151342589,0.016226821207370016,1.9398493833734964
7983539540.0,-0.0057858547,0.0151417671,0.016209541187836084,1.935787768282302
7983550551.0,-0.0057259405,0.0151773195,0.016221511082960813,1.9315552534820652
7983561562.0,-0.0056631128,0.015196606,0.016217511538604183,1.9275107708622385
7983572573.0,-0.0055768575,0.015229111,0.016218112141233556,1.9218272106831218
7983583584.0,-0.0055281022,0.0152193312,0.016192218998918533,1.9192074803413732
7983594595.0,-0.0054434922,0.0152368826,0.016180055583886094,1.9139220317000292
7983605606.0,-0.0053890409,0.0152763009,0.016198985493209556,1.909937895486052
7983616617.0,-0.005279614,0.0153034078,0.01618853341974179,1.90300627512096
7983627628.0,-0.0052553289,0.0153160471,0.01619258412411662,1.9013339422612512
7983638639.0,-0.00517275,0.015320791,0.016170466271205077,1.896408376128249
7983649650.0,-0.0051053281,0.0153574507,0.016183808791862937,1.8917366375313378
7983660661.0,-0.0050385091,0.0153747585,0.016179300753867736,1.8874801323095158
7983671672.0,-0.0049716171,0.0153988887,0.01618155585177149,1.8830874478809068
7983682683.0,-0.004895838,0.0154063024,0.016165499786968844,1.8784855565500487
7983693694.0,-0.0048406429,0.0154225533,0.016164373602978288,1.874926820572527
7983704705.0,-0.0047504479,0.015439874,0.016154146971799236,1.8692785402970065
7983715716.0,-0.0047008454,0.0154547234,0.016153836164985974,1.8660733498148814
7983726727.0,-0.0046040754,0.0154785093,0.016148738664027964,1.8599116061146448
7983737738.0,-0.0045506206,0.0154823568,0.01613727114253369,1.8566686000151402
7983748749.0,-0.0044716463,0.0154991229,0.016131287341734638,1.851678453258635
7983759760.0,-0.0043990195,0.0155154154,0.01612698011395616,1.8470714377960518
7983770771.0,-0.0043519509,0.0155214275,0.016119993432807816,1.8441605381898907
7983781782.0,-0.0042668619,0.0155707131,0.016144758186983885,1.8382616712278927
7983792793.0,-0.0041805731,0.0155530817,0.01610514022948321,1.8333836477083247
7983803804.0,-0.0041314941,0.0155821226,0.016120539327819202,1.8299758712312053
7983814815.0,-0.0040577272,0.0156115311,0.016130252735648224,1.8250881316095688
7983825826.0,-0.004003259,0.0155789633,0.016085091859353116,1.8223201092279362
7983836837.0,-0.0039262796,0.0156003571,0.016086852182602307,1.817354438632478
7983847848.0,-0.0038511462,0.0156316189,0.016099032159996814,1.812354662279514
7983858859.0,-0.0037730531,0.0156236059,0.01607274061925764,1.8077562432178553
7983869870.0,-0.0036865311,0.0156363541,0.016065057768083313,1.802334707265097
7983880881.0,-0.0036205353,0.0156828724,0.016095364630017792,1.7976805887907017
7983891892.0,-0.0035609225,0.01568489,0.016084027585250724,1.7940410143300491
7983902903.0,-0.0034641945,0.0157061404,0.016083640439848883,1.7878836411111856
7983913914.0,-0.0034101546,0.0156969819,0.016063137774570347,1.7847211832443308
7983924925.0,-0.0033507692,0.0156893796,0.016043200630315786,1.781204559913393
7983935936.0,-0.0032797393,0.0157223001,0.016060741275247058,1.7764513905973593
7983946947.0,-0.0032074212,0.0157078476,0.01603196890525413,1.772219655151888
7983957958.0,-0.0031370788,0.0157272652,0.016037086208801787,1.7676798473522581
7983968969.0,-0.003097779,0.0157242253,0.016026462367534546,1.7653121411558537
7983979980.0,-0.0029899726,0.0157349712,0.016016530673450484,1.7585783966398976
7983990991.0,-0.0029362796,0.0157561179,0.01602738248024538,1.7550408940282174
7984002002.0,-0.0028481842,0.0157768682,0.016031897062958607,1.7494017363772982
7984013013.0,-0.0027890405,0.0157724499,0.016017144650612675,1.7458169497623865
7984024024.0,-0.0026990994,0.0157849006,0.016014000890563252,1.7401509346114925
7984035035.0,-0.0026356578,0.0157768288,0.015995468702829883,1.7363264973606267
7984046046.0,-0.0025703453,0.0157910281,0.015998851315523303,1.732153720310829
7984057057.0,-0.0024969593,0.0158009949,0.015997069905944728,1.7275257330340572
7984068068.0,-0.0024576933,0.0157974751,0.015987509996618764,1.725134156403344
7984079079.0,-0.0023390677,0.0158077363,0.015979854962906298,1.7177001673256351
7984090090.0,-0.0022776496,0.0158123963,0.015975592772996997,1.713854373831705
7984101101.0,-0.0022322476,0.0158192629,0.015975982224796764,1.7109802318944687
7984112112.0,-0.0021284777,0.015836879,0.015979272629880196,1.7043958193086857
7984123123.0,-0.0020559757,0.0158466662,0.01597948264911017,1.699817457169681
7984134134.0,-0.0020208134,0.0158511958,0.015979489825634522,1.697598809045233
7984145145.0,-0.0019274572,0.0158410339,0.01595786471551821,1.691876109281254
7984156156.0,-0.0018647023,0.0158195805,0.015929100472519015,1.6881279775170657
7984167167.0,-0.0018075907,0.0158249716,0.015927872120265564,1.6845273615030651
7984178178.0,-0.0017204578,0.0158424258,0.015935571225095337,1.678970532185482
7984189189.0,-0.0016573816,0.0158289918,0.015915523716563205,1.6751216306841485
7984200200.0,-0.0015781979,0.0158250378,0.01590353828501674,1.6701955731506677
7984211211.0,-0.0015018425,0.015855891,0.01592685814273133,1.6652328512035486
7984222222.0,-0.0014132322,0.0158537506,0.015916615008792455,1.6597031524760828
7984233233.0,-0.0013673149,0.0158141246,0.0158731246734878,1.6570434611558513
7984244244.0,-0.0012847794,0.0158328684,0.01588491044602968,1.651765263180337
7984255255.0,-0.0011971766,0.0158558042,0.01590093577876237,1.6461573339551183
7984266266.0,-0.0011296981,0.0158592432,0.01589942806121937,1.641908998722153
7984277277.0,-0.0010679692,0.015835219,0.015871191479851464,1.6381370046403656
7984288288.0,-0.00099335,0.0158258892,0.015857033555907504,1.6334814970588858
7984299299.0,-0.0009220235,0.0158302108,0.015857039487463885,1.6289751467798248
7984310310.0,-0.0008451852,0.0158272676,0.015849818223068326,1.6241462296560276
7984321321.0,-0.0008166607,0.0158203247,0.01584138909036561,1.6223715302608261
7984332332.0,-0.0007020432,0.0158198347,0.015835404465626708,1.615144633834585
7984343343.0,-0.0006566277,0.0158014813,0.015815118438085026,1.6123272518448375
7984354354.0,-0.000573346,0.0158293282,0.015839708232762092,1.6070009882426
7984365365.0,-0.0005022232,0.0158304028,0.015838367370182637,1.6025109214111029
7984376376.0,-0.0004203136,0.0158114001,0.015816985700335733,1.597373014122074
7984387387.0,-0.0003467503,0.0158061692,0.015809972186869234,1.5927304644028697
7984398398.0,-0.0003083557,0.0157902509,0.015793261434000047,1.5903220780686542
7984409409.0,-0.0002074333,0.0158132657,0.015814626162914677,1.583913250727213
7984420420.0,-0.0001532548,0.015786764,0.015787507866202918,1.5805038251748214
7984431431.0,-8.69781e-05,0.0157783285,0.01577856823174371,1.5763087750237799
7984442442.0,-1.31061e-05,0.0157672254,0.015767230847053088,1.571627550846626
7984453453.0,6.9319e-05,0.0157732575,0.015773409817952083,1.566401638269703
7984464464.0,0.0001440208,0.0157527581,0.015753416446852037,1.5616540047618022
7984475475.0,0.0002121493,0.0157610532,0.0157624809372992,1.5573367891469898
7984486486.0,0.0002964937,0.0157384236,0.01574121615146608,1.5519597114135368
7984497497.0,0.0003545401,0.0157403802,0.015744372566827175,1.5482758948790825
7984508509.0,0.0004390507,0.0157122784,0.015718411434883523,1.542860436841853
7984519520.0,0.000501193,0.015709162,0.015717155123160582,1.538902642749137
7984530531.0,0.0005653036,0.0156938503,0.01570402831756817,1.5347911854707503
7984541542.0,0.0006507129,0.0157066793,0.01572015273180496,1.5293909486637092
7984552553.0,0.0007166082,0.0156812269,0.015697592312249382,1.5251296206391525
7984563564.0,0.0007826775,0.015663158,0.0156827007432384,1.5208685253329304
7984574575.0,0.0008543749,0.0156345325,0.015657859463007906,1.5162039710848394
7984585586.0,0.0009147763,0.0156463723,0.015673091010686084,1.5123970948944936
7984596597.0,0.0009984631,0.0156594337,0.015691232977900663,1.507121398792197
7984607608.0,0.0010538176,0.015643979,0.015679432722088854,1.5035354365860072
7984618619.0,0.0011400829,0.0156162706,0.015657831793428383,1.4979195256237816
7984629630.0,0.0011999186,0.01560225,0.015648322904040737,1.4940406498734022
7984640641.0,0.0012584348,0.0155795727,0.015630314893195094,1.4901966477708044
7984651652.0,0.0013374206,0.0155777705,0.015635076834220375,1.4851519130556492
7984662663.0,0.0014260636,0.0155384051,0.015603707586434416,1.479276005958506
7984673674.0,0.0014711929,0.0155449978,0.015614460129988973,1.476436460677315
7984684685.0,0.0015615993,0.0155117084,0.015590115133006267,1.4704620790714822
7984695696.0,0.0016128103,0.0155120321,0.01559564993628725,1.4671969946696843
7984706707.0,0.0016799034,0.0154966776,0.015587465864330652,1.462813891981614
7984717718.0,0.0017811918,0.015466785,0.015569010323864912,1.4561390406127308
7984728729.0,0.0018275752,0.0154566017,0.015564272139232786,1.4531036301498117
7984739740.0,0.0018794521,0.0154531958,0.015567067823753196,1.4497685096320192
7984750751.0,0.0019402236,0.0154361415,0.015557600458490353,1.4457584993795538
7984761762.0,0.0020570373,0.0154151978,0.015551839944736962,1.4381378697017306
7984772773.0,0.0021110988,0.0154101506,0.015554082411317031,1.4346497690786657
7984783784.0,0.0021609674,0.0153503615,0.015501721784516228,1.4309390701552287
7984794795.0,0.0022448435,0.0153439367,0.015507279445250838,1.4255252795123576
7984805806.0,0.0023322822,0.0153198626,0.015496377974975818,1.4197172661575708
7984816817.0,0.0023861002,0.0152988973,0.015483853937582441,1.4160773145329026
7984827828.0,0.0024456498,0.0153017885,0.015495997361995525,1.4123090595387853
7984838839.0,0.0025178231,0.0152903952,0.01549630983605699,1.407593925533405
7984849850.0,0.0026078858,0.0152317289,0.015453369652892434,1.4012264697144141
7984860861.0,0.002650379,0.0152473515,0.015475989034895096,1.3986904549742691
7984871872.0,0.002715899,0.0152114353,0.015451985997414283,1.3941147847377033
7984882883.0,0.0027959054,0.0151899073,0.015445075939869718,1.3887703548506063
7984893894.0,0.00285364,0.015171399,0.015437441785049784,1.3848751929932883
7984904905.0,0.0029289404,0.0151357531,0.015416540265925807,1.3796475427167036
7984915916.0,0.0029980636,0.0151278788,0.015422097857851064,1.37515006891743
7984926927.0,0.0030635129,0.0150914868,0.015399288461582913,1.3705215724852553
7984937938.0,0.0031263702,0.0150680009,0.015388919447116773,1.3662150087485956
7984948949.0,0.0031988981,0.015040116,0.015376541820176589,1.3612281430293518
7984959960.0,0.0032625899,0.0150142226,0.015364614317903745,1.3568228716733797
7984970971.0,0.0033342129,0.0150030419,0.015369067698324516,1.352114449698135
7984981982.0,0.0034169444,0.0149659371,0.015351051505152594,1.346329092733142
7984992993.0,0.0034685098,0.0149584769,0.015355344066497816,1.34294705111802
7985004004.0,0.0035550431,0.0148998323,0.015318072137543317,1.3365791301841
7985015015.0,0.0036055496,0.014884915,0.01531537405600285,1.3331453504560955
7985026026.0,0.0036591921,0.0148681275,0.015311789646574913,1.3294823528271993
7985037037.0,0.0037312729,0.0148358649,0.015297884977516546,1.3244030458496927
7985048048.0,0.0038141254,0.0147988128,0.01528242169475666,1.318553970940697
7985059059.0,0.0038695839,0.0147706528,0.015269114699198741,1.3145765466524058
7985070070.0,0.003926359,0.0147430859,0.015256961586490928,1.3105188581506242
7985081081.0,0.0039936945,0.014713988,0.015246345090659408,1.3057599387873478
7985092092.0,0.0040597272,0.0146953129,0.015245773386985859,1.3012590780070943
7985103103.0,0.0041418823,0.014666746,0.015240361780993562,1.2955639215672607
7985114114.0,0.0041941277,0.0146365076,0.015225572629256511,1.2917218957578498
7985125125.0,0.0042576376,0.014588142,0.015196755079460146,1.286827684536612
7985136136.0,0.0043268107,0.0145532158,0.015182798851167204,1.2818096175225524
7985147147.0,0.0043667715,0.0145514604,0.015192553870432068,1.2792554683456536
7985158158.0,0.0044452315,0.0145271192,0.015192013538027174,1.2738482912681854
7985169169.0,0.0045056269,0.014466844,0.015152235778337783,1.2688728434399215
7985180180.0,0.0045889592,0.0144295889,0.015141716625345617,1.2628866340638685
7985191191.0,0.0046190169,0.0144051811,0.015127609184741745,1.2605041491175462
7985202202.0,0.0047272929,0.0143621724,0.01512016184469307,1.2528164998330062
7985213213.0,0.0047724982,0.014339074,0.01511243799810207,1.2494973213598939
7985224224.0,0.0048383005,0.0143159325,0.015111422006973947,1.2448820541095866
7985235235.0,0.0049003983,0.0142567618,0.015075448932638198,1.2397230568473903
7985246246.0,0.0049729277,0.0142339359,0.015077630487405376,1.234681768207609
7985257257.0,0.00501132,0.0142176061,0.015074934539067067,1.2319202327435435
7985268268.0,0.0050477344,0.0141505569,0.015023910381557825,1.228150735297718
7985279279.0,0.0051403524,0.0141497582,0.015054530212353125,1.222338340573982
7985290290.0,0.0051930894,0.0140992854,0.015025246297716571,1.217892381804682
7985301301.0,0.0052631034,0.0140502568,0.015003665337011415,1.212384051944923
7985312312.0,0.0053175745,0.0140080923,0.014983432465505677,1.2079924856367648
7985323323.0,0.0053839627,0.0139730455,0.014974413340764357,1.2030169986829833
7985334334.0,0.0054438744,0.0139492887,0.014973924793417491,1.1987130431331148
7985345345.0,0.0055302039,0.0139177137,0.01497617807755847,1.192576495489815
7985356356.0,0.0055860632,0.0138596281,0.01494300482315066,1.1876671260713263
7985367367.0,0.0056142891,0.0138206974,0.014917503769758048,1.1849365880986904
7985378378.0,0.0057022646,0.0138004549,0.014932125669687728,1.1789678443904543
7985389389.0,0.0057430305,0.0137462952,0.014897752550283324,1.1750505456584772
7985400400.0,0.0058175141,0.0137001949,0.014884179876690716,1.1692390934190486
7985411411.0,0.0058573735,0.0136752674,0.014876886864529319,1.1661180260769972
7985422422.0,0.0059382965,0.0136177907,0.014856230641415027,1.1595876098965539
7985433433.0,0.0059780012,0.0135836196,0.01484086317518983,1.1562149128946684
7985444444.0,0.0060149073,0.0135452466,0.014820688758705004,1.152892759764447
7985455455.0,0.006070628,0.0134913002,0.014794178091428535,1.1479705759480907
7985466466.0,0.0061431507,0.0134655687,0.014800670286758305,1.142788727590412
7985477477.0,0.0062170077,0.0133960332,0.014768374664713837,1.1362845113181563
7985488488.0,0.0062744925,0.0133727257,0.014771562164510452,1.1320903071483182
7985499499.0,0.0063191372,0.0132979446,0.014723003278444688,1.127187647456512
7985510511.0,0.006385033,0.0132687844,0.014725124307277421,1.1222957666698614
7985521522.0,0.006431113,0.0132285153,0.01470893712887179,1.1182856843696976
7985532533.0,0.0065018724,0.0131783175,0.014694978626615555,1.112461529340196
7985543544.0,0.0065485305,0.0131279643,0.014670606612253794,1.1080907632265145
7985554555.0,0.0066164293,0.013069461,0.014648820686745383,1.1021603345777298
7985565566.0,0.0066601781,0.0130566493,0.0146572188107741,1.09910254034673
7985576577.0,0.0067112841,0.0130024067,0.014632290123665457,1.0943067704107774
7985587588.0,0.0067795532,0.0129375695,0.014606267358875793,1.0881173989255983
7985598599.0,0.0068143349,0.0129017446,0.014590756452390918,1.084866272285739
7985609610.0,0.0068770496,0.0128754705,0.014596970637677887,1.0802265446569435
7985620621.0,0.0069324979,0.0127927626,0.014550405563882512,1.0741871550909183
7985631632.0,0.006957425,0.0127575905,0.014531410048454185,1.0715257702555725
7985642643.0,0.0070454532,0.0126821467,0.014507765359065854,1.0637089005160851
7985653654.0,0.0070917514,0.0126283316,0.014483359310566058,1.0591100507191955
7985664665.0,0.0071386115,0.0126150192,0.01449477435368695,1.0558415114580433
7985675676.0,0.0071711421,0.0125567485,0.01446019404816701,1.0518989589001781
7985686687.0,0.0072307059,0.0125291927,0.014465952354616275,1.0473787596822932
7985697698.0,0.0072884486,0.0124645758,0.014439083519004508,1.0416782156866302
7985708709.0,0.0073331568,0.0124183968,0.01442191969661586,1.0373858234841102
7985719720.0,0.0073739132,0.012353603,0.01438701160640191,1.0326565169300823
7985730731.0,0.0074448819,0.0122991265,0.014376883499839243,1.0264757498720267
7985741742.0,0.0074936791,0.0122475301,0.014358176068156528,1.0217074716204695
7985752753.0,0.0075304289,0.0122197543,0.014353736606553839,1.0185135892088781
7985763764.0,0.0075741119,0.0121637937,0.014329167744495188,1.0138693858327597
7985774775.0,0.0076399505,0.0120623998,0.014278316867806593,1.006201453819547
