frequency,Re(S21),Im(S21),Ampiezza,phase
5000000000.0,0.5289181109,-0.1011153207,0.5384966816223555,-0.18889466929601204
5001101101.0,0.51004537,-0.1610533893,0.5348686508512668,-0.30585467895969165
5002202202.0,0.4851018138,-0.2182653733,0.5319431764143969,-0.4228017372045878
5003303303.0,0.4544525247,-0.2717802313,0.5295201519599473,-0.5389761754495589
5004404404.0,0.4187764596,-0.3213736617,0.5278775933391912,-0.6545513454114884
5005505506.0,0.3781592913,-0.3666616785,0.526730705462436,-0.7699626424746636
5006606607.0,0.3330578632,-0.4071817855,0.5260461450123154,-0.8852005110087093
5007707708.0,0.2838282662,-0.4426773399,0.5258533179081769,-1.0006586187462487
5008808809.0,0.2311324174,-0.47282834,0.5262972862178974,-1.116125025874116
5009909910.0,0.1753496185,-0.4972156788,0.5272294756106114,-1.2317510155027303
5011011011.0,0.1168989478,-0.5158123604,0.5288929524376049,-1.3479302457378057
5012112112.0,0.0562602356,-0.5277626035,0.5307528424444524,-1.464595990785137
5013213213.0,-0.0059571684,-0.5330783455,0.5331116302392618,-1.5819708952032199
5014314314.0,-0.0691981076,-0.5313763582,0.535863053540096,-1.7002918844752117
5015415415.0,-0.1326592694,-0.52225283,0.5388381020313529,-1.819548820226631
5016516517.0,-0.1955086463,-0.5058340195,0.5423022091616305,-1.9396174078204722
5017617618.0,-0.2568796038,-0.4815875428,0.5458147050314665,-2.0608068616467814
5018718719.0,-0.3157614862,-0.4496102244,0.549413023191343,-2.1830645840158875
5019819820.0,-0.3711594098,-0.4101026449,0.5531215841359474,-2.3063891412317856
5020920921.0,-0.4218927228,-0.3631635727,0.5566697854992902,-2.43086424356766
5022022022.0,-0.4669027983,-0.3093040533,0.5600600150414058,-2.556508572206844
5023123123.0,-0.5050069962,-0.2493347785,0.5632050230427557,-2.6829773167048723
5024224224.0,-0.5352649917,-0.1839683774,0.5659973279290194,-2.810544970030863
5025325325.0,-0.5566003478,-0.1145452277,0.5682645126698709,-2.938631826152804
5026426426.0,-0.5685409362,-0.0422702078,0.570110135502455,-3.0673806196039184
5027527528.0,-0.5704874492,0.0312633398,0.5713434397192051,-3.1963389934773656
5028628629.0,-0.5624373406,0.1046024171,0.5720816617969524,-3.3254723736790375
5029729730.0,-0.5444698413,0.1761771511,0.5722637474582497,-3.454535685201584
5030830831.0,-0.5167235634,0.2445324819,0.5716636910605463,-3.5836011986814658
5031931932.0,-0.4799400578,0.3082682369,0.5704136788003088,-3.712539848053074
5033033033.0,-0.4351184785,0.3662685207,0.5687536545710465,-3.8412877704663106
5034134134.0,-0.3834644513,0.4172006977,0.5666581046558646,-3.9691011833254364
5035235235.0,-0.3258838504,0.4603714559,0.5640409217060542,-4.0963996178195945
5036336336.0,-0.2638273782,0.4953082549,0.561190834618643,-4.222961553191896
5037437437.0,-0.1986212137,0.5216525696,0.558186160614847,-4.348583423561231
5038538539.0,-0.1313136479,0.5391205237,0.5548821615436628,-4.473471069126107
5039639640.0,-0.0632407575,0.5479342414,0.5515716873696177,-4.597480720049349
5040740741.0,0.0045662867,0.5482392356,0.5482582515799456,-4.720717791634617
5041841842.0,0.070961526,0.5405078371,0.5451460906388019,-4.842929156823894
5042942943.0,0.135201666,0.5249364471,0.5420680436837673,-4.964468459297639
5044044044.0,0.1964943463,0.5021649198,0.5392398675966056,-5.085368118972517
5045145145.0,0.2541902733,0.4728308687,0.5368256005779953,-5.20565630976293
5046246246.0,0.3075447174,0.4372710273,0.5345930269996451,-5.325344644696898
5047347347.0,0.3562182418,0.3962354685,0.5328170251488759,-5.444654888116017
5048448448.0,0.3998047546,0.3500940346,0.531422313102557,-5.5639802042855155
5049549550.0,0.4376380454,0.2996094452,0.5303705105250331,-5.6828660637827895
5050650651.0,0.4695925808,0.2452185327,0.529763457329727,-5.80194037638019
5051751752.0,0.49520063,0.1875143696,0.5295142139346991,-5.9212067364292365
5052852853.0,0.5140530341,0.1272517245,0.5295691864673016,-6.0405177091481965
5053953954.0,0.5261082521,0.0646277069,0.5300628579959829,-6.160956578352155
5055055055.0,0.5308829031,0.0006173276,0.5308832620240063,-6.2820224757564045
5056156156.0,0.528083619,-0.0639905602,0.531946520292075,-6.403772443521505
5057257257.0,0.5173362193,-0.1281646302,0.5329755493771927,-6.5260353372246644
5058358358.0,0.4988243595,-0.1912745626,0.5342393657607108,-6.649344171197984
5059459459.0,0.4726193721,-0.2522233175,0.5357104374332313,-6.773405592186474
5060560561.0,0.4385140348,-0.3099250188,0.5369805173325713,-6.898435067391603
5061661662.0,0.3967992915,-0.3630810651,0.5378452728890089,-7.024239486474139
5062762763.0,0.348501556,-0.4109926724,0.5388583406619172,-7.150678452821959
5063863864.0,0.2936272951,-0.4523228633,0.5392707678816393,-7.278201216766425
5064964965.0,0.2335904395,-0.4861645479,0.539370430280169,-7.406074794109399
5066066066.0,0.1692082809,-0.511619602,0.5388748087225563,-7.534575325302079
5067167167.0,0.1019255178,-0.5280819523,0.5378283736693125,-7.663315406192984
5068268268.0,0.0332788494,-0.5353195738,0.5363529881624615,-7.791895209764695
5069369369.0,-0.0355000306,-0.5328681393,0.5340493479573261,-7.920504000990425
5070470470.0,-0.1029709071,-0.5210230518,0.5311007703025691,-8.049099383868043
5071571572.0,-0.1677731122,-0.5003396185,0.527719197128548,-8.177517740429758
5072672673.0,-0.2286005815,-0.4714467161,0.5239467835416228,-8.305469683613516
5073773774.0,-0.2845202191,-0.4349169203,0.5197157710132997,-8.433299825831291
5074874875.0,-0.3351426887,-0.3920497235,0.5157747642968697,-8.561283143556906
5075975976.0,-0.3787906447,-0.3434761638,0.5113298618416551,-8.688234845985946
5077077077.0,-0.415386878,-0.2905888248,0.5069399604620176,-8.814346097984199
5078178178.0,-0.4439617645,-0.2342492474,0.5019708739014843,-8.939268458801864
5079279279.0,-0.4648741791,-0.1761106717,0.4971146458117323,-9.06264922838115
5080380380.0,-0.4779645605,-0.1170851032,0.49209657841252347,-9.184542690572766
5081481481.0,-0.4842032208,-0.058300425,0.48770041889286314,-9.30494993299164
5082582583.0,-0.4833983482,-0.0005306454,0.48339863945508676,-9.423680221836618
5083683684.0,-0.4763864266,0.0558232355,0.479645974725532,-9.541426565242396
5084784785.0,-0.4633670551,0.1100290548,0.4762514258794695,-9.657915635103155
5085885886.0,-0.4450696753,0.1618732215,0.4735926052108875,-9.773607907166728
5086986987.0,-0.4217015714,0.2109311041,0.47151261488752805,-9.888577928283844
5088088088.0,-0.3935264537,0.2567120458,0.4698554503467205,-10.002794629717979
5089189189.0,-0.3611671188,0.2992823126,0.4690539311609033,-10.116747865242832
5090290290.0,-0.3246215294,0.338158835,0.4687542373553036,-10.230598309694534
5091391391.0,-0.2844614421,0.373187948,0.4692414693673848,-10.34428098195857
5092492492.0,-0.2406684282,0.4040376615,0.4702847267801147,-10.458353253520192
5093593594.0,-0.1937254752,0.4303817165,0.4719724373720908,-10.57261659961895
5094694695.0,-0.1437882736,0.4519464162,0.47426852176893636,-10.68754734318672
5095795796.0,-0.0911375492,0.4684091266,0.4771930036749881,-10.803406967323332
5096896897.0,-0.0362115351,0.4792620273,0.4806280953980993,-10.920160715233742
5097997998.0,0.0205717793,0.4841449811,0.48458184120733133,-11.038039691208093
5099099099.0,0.0787058405,0.4826029318,0.48897873073454523,-11.157237181725291
5100200200.0,0.1374605275,0.4741689321,0.49369177913900153,-11.277737429883949
5101301301.0,0.1961478083,0.4584673341,0.49866447551199655,-11.399842713739206
5102402402.0,0.2537505204,0.4351259623,0.5037101643512585,-11.5235236258631
5103503504.0,0.3093101411,0.4040536899,0.5088537586665812,-11.648932806441987
5104604605.0,0.3614332423,0.3651840736,0.5138028768414796,-11.775810451787349
5105705706.0,0.4090784604,0.3187384163,0.5185936412921648,-11.904465509041346
5106806807.0,0.4507797477,0.2651897246,0.5229990162226881,-12.03460507013909
5107907908.0,0.4851606086,0.2053817465,0.5268419857343496,-12.1659175835805
5109009009.0,0.5112178176,0.1403258861,0.530127353889098,-12.298475502430378
5110110110.0,0.5276930131,0.0711469195,0.5324676518145458,-12.432352438490822
5111211211.0,0.5338803234,-0.0001895263,0.5338803570407016,-12.566725612068831
5112312312.0,0.5295653032,-0.0720159898,0.5344396253461953,-12.701532244037669
5113413413.0,0.5146223941,-0.1426040901,0.5340151074852326,-12.836692143115817
5114514515.0,0.4896900777,-0.2099887103,0.5328148183480724,-12.971472056044886
5115615616.0,0.4551963965,-0.2726304151,0.5305950457968709,-13.106002392148428
5116716717.0,0.4123002708,-0.3290834828,0.5275295744823518,-13.239991410898272
5117817818.0,0.3622736814,-0.3780938101,0.5236383766217327,-13.37313346728714
5118918919.0,0.3067845932,-0.4188739505,0.5192034023697899,-13.505023274329744
5120020020.0,0.2471220928,-0.4508825857,0.5141638210117176,-13.635794979543535
5121121121.0,0.1849732233,-0.4739792909,0.5087941249071755,-13.765088754760843
5122222222.0,0.1216491337,-0.4883345395,0.5032585162703535,-13.893025875587686
5123323323.0,0.0584218195,-0.4940287079,0.49747107777541605,-14.019457689727163
5124424424.0,-0.0036321783,-0.4917923225,0.49180573521376,-14.144552400614328
5125525526.0,-0.0635071579,-0.482015042,0.4861806863901499,-14.268165893080118
5126626627.0,-0.1205163737,-0.4655705714,0.48091595241114693,-14.390464423149846
5127727728.0,-0.1738985116,-0.4427516359,0.4756781510946467,-14.511423011699044
5128828829.0,-0.2233896607,-0.4146933319,0.47103449982987944,-14.631282617901684
5129929930.0,-0.2682964372,-0.3817866844,0.4666305290048635,-14.74972887396175
5131031031.0,-0.3089200358,-0.344643892,0.4628293430753726,-14.867959364169588
5132132132.0,-0.3446326069,-0.3039106896,0.4594924819753175,-14.985272602318311
5133233233.0,-0.3753511492,-0.2600255728,0.4566199554506228,-15.102117750440812
5134334334.0,-0.4011824758,-0.2137535715,0.4545744913851009,-15.218414369414626
5135435435.0,-0.4216547648,-0.1652191624,0.4528687583646071,-15.33451530145648
5136536537.0,-0.436919116,-0.1150177712,0.4518046055741763,-15.450555953761283
5137637638.0,-0.446898406,-0.0632934528,0.45135822408890114,-15.567270705093986
5138738739.0,-0.4511276599,-0.0107180409,0.45125496332736786,-15.684209404229271
5139839840.0,-0.4497386814,0.0424601779,0.45173858397828975,-15.802095027771982
5140940941.0,-0.4425207273,0.0954406597,0.45269582902219474,-15.920384519076498
5142042042.0,-0.4291931578,0.1480065734,0.45399637935995185,-16.04004133653934
5143143143.0,-0.4097152839,0.1992883706,0.45561219092300476,-16.16067744041228
5144244244.0,-0.3839003591,0.2486557934,0.45739391044098127,-16.282726396273407
5145345345.0,-0.3517904987,0.2952231369,0.45925293198483863,-16.40615478269821
5146446446.0,-0.3135062769,0.3381196562,0.4610976985027204,-16.531115735471936
5147547548.0,-0.2694091727,0.3762834037,0.46278558991714036,-16.657393013713506
5148648649.0,-0.2198564237,0.4087561044,0.4641318777313379,-16.785279236106646
5149749750.0,-0.1657751929,0.4345371911,0.46508492238526733,-16.91430400521149
5150850851.0,-0.1079764033,0.4526867549,0.46538607814533617,-17.0446112206188
5151951952.0,-0.0478165598,0.4625872487,0.4650520251014317,-17.17575775267775
5153053053.0,0.0132690534,0.4635828998,0.463772759835147,-17.30737460957006
5154154154.0,0.0739098792,0.4559155901,0.4618676168985977,-17.439474507612996
5155255255.0,0.132286737,0.4395254643,0.45900154090616924,-17.57111181349346
5156356356.0,0.1872591343,0.4149901073,0.45528317840180627,-17.70264222177474
5157457457.0,0.2370150279,0.3832524124,0.4506201671705978,-17.832620909468716
5158558559.0,0.2813348034,0.345660636,0.44567987040480206,-17.961921670948062
5159659660.0,0.3189589766,0.3032131316,0.44008298300252224,-18.089460217717804
5160760761.0,0.349513171,0.2571857981,0.4339400781753273,-18.215178927465693
5161861862.0,0.3731892517,0.2088734063,0.42766612847380236,-18.33929726958048
5162962963.0,0.3901040042,0.1595361905,0.4214652182234329,-18.461350981949472
5164064064.0,0.400446889,0.1101263742,0.4153137719895847,-18.581181631994877
5165165165.0,0.4046375785,0.061220195,0.4092425713561355,-18.69939837648674
5166266266.0,0.4033641736,0.0137093905,0.4035970811736532,-18.815581373941033
5167367367.0,0.3971506956,-0.0319553318,0.39843420817747555,-18.929844433329222
5168468468.0,0.3863713576,-0.0755828764,0.393694802072068,-19.042738689482846
5169569570.0,0.3716243966,-0.1168462868,0.3895609668424982,-19.15418936669226
5170670671.0,0.3533691277,-0.1555460872,0.3860884945898918,-19.264213743472276
5171771772.0,0.3318465852,-0.1917540182,0.3832646078165146,-19.373521437084413
5172872873.0,0.3074044101,-0.2252697978,0.38110884685320795,-19.48196598767162
5173973974.0,0.2803298153,-0.2561486408,0.37973271063975983,-19.589910675989533
5175075075.0,0.2507674269,-0.284261066,0.3790628655480555,-19.697474097841777
5176176176.0,0.2188165598,-0.3096486149,0.37916085181911313,-19.80516987584859
5177277277.0,0.1846110165,-0.3320994618,0.3799622085695009,-19.9129976467476
5178378378.0,0.1482783142,-0.3514742908,0.38147167071141325,-20.021131242618658
5179479479.0,0.1097959714,-0.367764903,0.38380487127480417,-20.13022685956079
5180580581.0,0.0693294603,-0.3805504219,0.3868141642620617,-20.240146535749428
5181681682.0,0.0269303674,-0.389523123,0.39045295240268335,-20.35132532702852
5182782783.0,-0.0172086836,-0.3945452296,0.3949203425899476,-20.46394112522874
5183883884.0,-0.0628560561,-0.3948406339,0.39981246849867025,-20.57822102708306
5184984985.0,-0.1097382314,-0.3903165822,0.4054497672598781,-20.694428747124554
5186086086.0,-0.1572401488,-0.3800465031,0.4112904191847708,-20.812646396933793
5187187187.0,-0.2049712074,-0.3640181969,0.4177588341822839,-20.933181861466096
5188288288.0,-0.2519789853,-0.3414784129,0.42438298211582487,-21.05606818898091
5189389389.0,-0.2973228706,-0.3121698395,0.43110427749592106,-21.18139567699947
5190490490.0,-0.3399314521,-0.2759917293,0.43786393636473314,-21.309191085470655
5191591592.0,-0.3785645567,-0.2328248755,0.4444305865273654,-21.439757903977043
5192692693.0,-0.411748861,-0.1830446544,0.4506023413601096,-21.57283266080952
5193793794.0,-0.4378089008,-0.1273610872,0.4559577613688249,-21.708055953130952
5194894895.0,-0.4556551538,-0.0669091021,0.46054147167039133,-21.845349013169923
5195995996.0,-0.4641308164,-0.0030552243,0.4641408720718892,-21.984565990943505
5197097097.0,-0.4623140494,0.0622005045,0.4664795633601542,-22.124887149798404
5198198198.0,-0.4499984109,0.1269368107,0.46755911254429944,-22.266087609594955
5199299299.0,-0.4273462475,0.1889998361,0.46727481560443435,-22.40755060022939
5200400400.0,-0.394999279,0.246429722,0.4655663629339185,-22.548937666772815
5201501502.0,-0.3542757434,0.2974646765,0.46259759632630204,-22.68959827193545
5202602603.0,-0.3066983469,0.3407147116,0.45842162982549584,-22.829040449402754
5203703704.0,-0.2540828435,0.3753710868,0.4532786606122757,-22.966901782557777
5204804805.0,-0.1981649394,0.4009839638,0.4472778581957365,-23.102950726041026
5205905906.0,-0.1406929971,0.4176093498,0.4406723141670683,-23.2369869139657
5207007007.0,-0.0833287848,0.4255664242,0.4336478614989575,-23.368584530896296
5208108108.0,-0.0273451453,0.4255322716,0.4264099801183531,-23.497772100726788
5209209209.0,0.0262455015,0.4183179105,0.41914043063640677,-23.624603335955324
5210310310.0,0.0766490568,0.4047410817,0.41193497196040024,-23.749106452421035
5211411411.0,0.1234043912,0.3857818282,0.405038594132432,-23.871540165014096
5212512513.0,0.1661195782,0.3623780035,0.3986396012465293,-23.99177481804915
5213613614.0,0.2044872324,0.3349887508,0.3924697330714257,-24.10999835107484
5214714715.0,0.2387110824,0.304627013,0.3870149840896109,-24.226616431662336
5215815816.0,0.2685751561,0.2716951661,0.38203517868940545,-24.341568224118507
5216916917.0,0.2944306501,0.2367852683,0.37783153786073975,-24.45543601498732
5218018018.0,0.3160184591,0.2001454972,0.37406668729168274,-24.568170766559696
5219119119.0,0.3338242339,0.162408758,0.3712347287283673,-24.679943913127506
5220220220.0,0.3477365274,0.1235065854,0.3690183858907012,-24.791465502626508
5221321321.0,0.357753885,0.083826779,0.3674435618025006,-24.902579372632427
5222422422.0,0.3640832965,0.0435444885,0.3666780185244727,-25.013706301265525
5223523524.0,0.3664709592,0.0027405186,0.36648120603813367,-25.12526323504002
5224624625.0,0.3648792095,-0.0383115376,0.3668850111937269,-25.237355773600957
5225725726.0,0.3594406765,-0.0793893765,0.3681036172381853,-25.35012046005051
5226826827.0,0.3497721304,-0.1202991857,0.3698816530792487,-25.464003533299692
5227927928.0,0.3357264059,-0.1606521834,0.37218455589897714,-25.57905857852585
5229029029.0,0.3171148815,-0.2001657793,0.37500424967130086,-25.695793015814683
5230130130.0,0.2937821415,-0.2382686627,0.3782590412523835,-25.81417688740645
5231231231.0,0.2655259905,-0.2744164694,0.3818487269966567,-25.934603508647
5232332332.0,0.2322580443,-0.3078886653,0.385667252125814,-26.05725363941838
5233433433.0,0.1940468913,-0.3378723464,0.38963048967584096,-26.182214363057188
5234534535.0,0.1511639199,-0.3632826472,0.3934778423700288,-26.30922465593745
5235635636.0,0.1039884675,-0.3832241252,0.3970822729716146,-26.438566416046093
5236736737.0,0.0532622954,-0.3966996618,0.40025928319467025,-26.57007218996195
5237837838.0,-2.50318e-05,-0.4029409603,0.4029409610775221,-26.703599678261817
5238938939.0,-0.054642807,-0.4011024693,0.40480739523308695,-26.83893558211627
5240040040.0,-0.1090846658,-0.3908284186,0.4057663331254511,-26.975722067086707
5241141141.0,-0.1617022703,-0.3721570078,0.4057689769743659,-27.113427306584338
5242242242.0,-0.2107816993,-0.3454739576,0.40469887588131775,-27.251367401720533
5243343343.0,-0.2549330093,-0.3114768785,0.40250302492137574,-27.389436836816593
5244444444.0,-0.2928034204,-0.2715049157,0.3993103583019144,-27.526660485083838
5245545546.0,-0.3235535208,-0.2268699016,0.3951668420731549,-27.662815076439777
5246646647.0,-0.3467916862,-0.1791411596,0.390328103882198,-27.797520642382732
5247747748.0,-0.3621988731,-0.1296568688,0.38470628705797144,-27.930575242365222
5248848849.0,-0.3701653943,-0.0800513269,0.3787223707093696,-28.061355359765585
5249949950.0,-0.3711635646,-0.0314331637,0.372492195175643,-28.189847307390554
5251051051.0,-0.3658010458,0.0152614193,0.3661192647586632,-28.316030247082395
5252152152.0,-0.3548511627,0.0593248849,0.3597760270473008,-28.43998435583867
5253253253.0,-0.3391393463,0.100222372,0.35363826158674866,-28.561675296554288
5254354354.0,-0.3194052648,0.1376480886,0.34780270194061397,-28.68123444863328
5255455455.0,-0.2962718902,0.1714029017,0.3422805685893675,-28.798818837614263
5256556557.0,-0.270446155,0.2014701916,0.3372408054456411,-28.91459830797107
5257657658.0,-0.2424187111,0.2278247757,0.3326724513904639,-29.028707155250146
5258758759.0,-0.2126840123,0.2505747736,0.32866731850416436,-29.141342162812236
5259859860.0,-0.1814278348,0.2697936488,0.3251225494687101,-29.253121433412332
5260960961.0,-0.1491789749,0.285745534,0.3223427938595185,-29.363983429014873
5262062062.0,-0.1161142834,0.2981925714,0.32000208819262355,-29.473800573282563
5263163163.0,-0.0823498794,0.307630614,0.31846208142761917,-29.583571937784477
5264264264.0,-0.0481378399,0.3137254407,0.31739707587286825,-29.69287826496673
5265365365.0,-0.0134854845,0.3165762122,0.3168633087359582,-29.802558038448336
5266466466.0,0.0213031836,0.3163041742,0.3170207505004038,-29.91237895840888
5267567568.0,0.0561857988,0.3127722983,0.31777878244253227,-30.022872512807513
5268668669.0,0.090932881,0.3058982766,0.31912778705999617,-30.134076033865153
5269769770.0,0.1253500397,0.2954892755,0.32097748268111653,-30.24633306115068
5270870871.0,0.1592767016,0.2814608048,0.3234026164260876,-30.36009341049032
5271971972.0,0.1922874995,0.2636828836,0.3263481968198593,-30.47521049288827
5273073073.0,0.2240559134,0.2419014687,0.32972317614739394,-30.592248395762923
5274174174.0,0.2540748334,0.2160560032,0.3335179417752457,-30.71122139084056
