frequency,Re(S21),Im(S21),Amplitude,phase
8625000000.0,-0.0039341184,-0.0076525273,0.008604560515358343,-2.045655460418906
8625020220.0,-0.0040189599,-0.0075884975,0.008587044484880364,-2.0578520034959893
8625040440.0,-0.0040563027,-0.0075449918,0.008566241466132888,-2.0640814011516664
8625060661.0,-0.0041422828,-0.0075302916,0.008594405062376709,-2.073702994623181
8625080881.0,-0.0041875466,-0.0075022317,0.00859179998647876,-2.0798930792576527
8625101101.0,-0.0042356688,-0.0074473742,0.00856762934878249,-2.0879183160052563
8625121321.0,-0.0042767789,-0.0074121021,0.008557458460332111,-2.0941319546061323
8625141542.0,-0.0043637264,-0.0073720887,0.008566784688243581,-2.105257450506779
8625161762.0,-0.0044007241,-0.0073398962,0.008558063380876262,-2.1108938317330197
8625181982.0,-0.0044582716,-0.0072835291,0.008539671059819188,-2.1200677533381196
8625202202.0,-0.0045391549,-0.0072407808,0.008545924982109465,-2.130751786920645
8625222422.0,-0.0045811014,-0.0072246779,0.008554674791938638,-2.135906115489585
8625242643.0,-0.0046457601,-0.0072115153,0.008578405436261805,-2.1430933970628137
8625262863.0,-0.004688172,-0.0071246617,0.008528760815090953,-2.1527890702720236
8625283083.0,-0.0047472672,-0.0070796428,0.008523959645832897,-2.161483814966816
8625303303.0,-0.0047988805,-0.0070494646,0.008527848802595729,-2.168481539373722
8625323524.0,-0.0048604118,-0.0069959135,0.008518591935587799,-2.177990190335059
8625343744.0,-0.0049051419,-0.006996272,0.008544485880210676,-2.1822654929291283
8625363964.0,-0.004963112,-0.0069138859,0.008510834210743551,-2.193399967689248
8625384184.0,-0.0050004321,-0.006891846,0.008514802550524963,-2.1984699932190743
8625404404.0,-0.0050753805,-0.0068268896,0.008506815434130942,-2.210085581432954
8625424625.0,-0.0051219716,-0.0067846609,0.008500953864078746,-2.2174477625663167
8625444845.0,-0.0051638471,-0.0067539117,0.008501802169162447,-2.2235580351353446
8625465065.0,-0.0052296669,-0.0066849743,0.008487537762897795,-2.2346520866138757
8625485285.0,-0.0052608793,-0.0066686943,0.008494017581570042,-2.2387272767161708
8625505506.0,-0.0053271226,-0.0065990118,0.008480872120953718,-2.249948845213769
8625525726.0,-0.0053794615,-0.0065677244,0.008489617766680524,-2.257060868603054
8625545946.0,-0.005417637,-0.0065018163,0.008463120338428061,-2.265485290658368
8625566166.0,-0.0054531597,-0.0064681591,0.008460143784630194,-2.2712577960926
8625586386.0,-0.0055231454,-0.0064197638,0.008468677721895643,-2.28125968841522
8625606607.0,-0.0055529259,-0.00638312,0.00846044957347367,-2.286752797527839
8625626827.0,-0.0056166798,-0.0063261775,0.008459764401993372,-2.2968565299038333
8625647047.0,-0.0056676538,-0.0062715525,0.00845308643969235,-2.30565641766898
8625667267.0,-0.0057135078,-0.0062228714,0.008447976079606215,-2.313547155965004
8625687487.0,-0.0057532601,-0.0061805019,0.008443850159385565,-2.3204086746513637
8625707708.0,-0.0057923712,-0.0061259839,0.008430850660618338,-2.3282102921286394
8625727928.0,-0.0058403245,-0.0060479786,0.00840758201930604,-2.3387291729185873
8625748148.0,-0.0058969853,-0.0060117217,0.00842111830024178,-2.3465601235062934
8625768368.0,-0.005912661,-0.0059679264,0.00840093480612354,-2.35154278405013
8625788589.0,-0.0059776647,-0.0059309706,0.008420741506761174,-2.3601154987316915
8625808809.0,-0.006020914,-0.005869448,0.008408437739562563,-2.368932353679206
8625829029.0,-0.0060499414,-0.0058116557,0.008389107993033374,-2.3762806262705505
8625849249.0,-0.0061113082,-0.0057692168,0.008404281670719365,-2.3849808361669336
8625869469.0,-0.0061434151,-0.0057002585,0.008380602368429746,-2.3935942004216195
8625889690.0,-0.0061804154,-0.0056636238,0.008382968988639026,-2.3997998854448843
8625909910.0,-0.006203418,-0.0055939905,0.008353150579081777,-2.4078063569829733
8625930130.0,-0.0062708374,-0.0055492995,0.008373656706477703,-2.4171619469673886
8625950350.0,-0.0063022789,-0.0054963234,0.008362313690048513,-2.4243979435437724
8625970571.0,-0.0063689255,-0.0054323506,0.00837100024285453,-2.4353906716855414
8625990791.0,-0.0063797836,-0.0053613733,0.008333424412855847,-2.442716436053698
8626011011.0,-0.0064064096,-0.0053054075,0.008318018556364756,-2.4499268141014854
8626031231.0,-0.0064605644,-0.0052781916,0.008342553501947587,-2.4565797829265006
8626051451.0,-0.006484675,-0.0052038626,0.008314517172710858,-2.4653375356159977
8626071672.0,-0.0065498804,-0.0051500339,0.008332093519965637,-2.4752743049719625
8626091892.0,-0.006563454,-0.0050915916,0.008306818490331094,-2.4818149341912723
8626112112.0,-0.0066001994,-0.0050259028,0.008295922557184837,-2.4907863730569426
8626132332.0,-0.0066411036,-0.0049950633,0.008309928663769615,-2.4967210777292537
8626152553.0,-0.0066791613,-0.0049092766,0.008289281778702256,-2.5077518202708635
8626172773.0,-0.0067114885,-0.004856678,0.008284406984287786,-2.51517877731406
8626192993.0,-0.0067451445,-0.0048059756,0.008282172166387004,-2.522520684819751
8626213213.0,-0.0067826591,-0.0047495819,0.008280277331806009,-2.530696463851054
8626233433.0,-0.0068092068,-0.0046941131,0.008270428951436428,-2.538031603146988
8626253654.0,-0.0068329854,-0.004623715,0.008250359378708189,-2.5466927098071643
8626273874.0,-0.0068808763,-0.0045601758,0.008254796301714981,-2.55631911134544
8626294094.0,-0.0069172323,-0.0045090752,0.008257109775909384,-2.56391015982862
8626314314.0,-0.0069391855,-0.0044416883,0.008238986003008328,-2.572217145135933
8626334535.0,-0.0069612241,-0.0043900383,0.008229889260852037,-2.578946658074481
8626354755.0,-0.0070016041,-0.0043172831,0.008225654584206805,-2.5890468757760594
8626374975.0,-0.0070257621,-0.0042650454,0.008218999047928987,-2.59599957090487
8626395195.0,-0.0070551417,-0.0041880989,0.008204583889708246,-2.6058748447514306
8626415415.0,-0.0070691028,-0.0041326495,0.008188467883970608,-2.6125681658132467
8626435636.0,-0.0070881573,-0.0040880415,0.008182545888369069,-2.618449831365313
8626455856.0,-0.0071380567,-0.0040051723,0.00818494096527899,-2.6302664055046647
8626476076.0,-0.0071568302,-0.0039568287,0.00817781828318383,-2.6365452353165435
8626496296.0,-0.0071715841,-0.0038892872,0.008158319277121769,-2.644665588527553
8626516517.0,-0.0071730265,-0.0038117252,0.008122903309163374,-2.653144017684706
8626536737.0,-0.007239426,-0.0037698321,0.008162164104676309,-2.661493934334977
8626556957.0,-0.0072563168,-0.0037061936,0.00814800616731745,-2.669378819069931
8626577177.0,-0.007272464,-0.0036467063,0.008135551577474984,-2.6767934938049964
8626597397.0,-0.0073246433,-0.0035798339,0.00815264437000806,-2.686994905011255
8626617618.0,-0.0073222077,-0.0035164974,0.008122836916136262,-2.69386871858985
8626637838.0,-0.0073356555,-0.0034478544,0.008105525373365974,-2.702221012238831
8626658058.0,-0.0073400423,-0.0033610376,0.008072966909036791,-2.712184909451766
8626678278.0,-0.007387033,-0.0033196245,0.008098651947336003,-2.719249978343212
8626698498.0,-0.0073961397,-0.0032452107,0.008076773795848846,-2.7281160069510806
8626718719.0,-0.0074091961,-0.0031885718,0.008066174866193421,-2.7351964867455707
8626738939.0,-0.0074296775,-0.0031454625,0.008068087883316127,-2.7411080132238803
8626759159.0,-0.0074474147,-0.0030809529,0.00805954443413488,-2.7493368841461425
8626779379.0,-0.007471246,-0.0030049539,0.008052904117996265,-2.7591890035024593
8626799600.0,-0.0074903987,-0.0029335098,0.008044349099315477,-2.768317349343834
8626819820.0,-0.007496631,-0.0028839846,0.008032237765604189,-2.77434154859414
8626840040.0,-0.0075118937,-0.0028199979,0.008023773122172891,-2.7824674935200284
8626860260.0,-0.007516985,-0.002738921,0.008000421972275339,-2.7921788758435366
8626880480.0,-0.0075321578,-0.0026693696,0.007991178585509462,-2.8010066020618805
8626900701.0,-0.0075452656,-0.0026132175,0.007984982071166448,-2.808183285193016
8626920921.0,-0.0075637858,-0.0025310242,0.007976022763838334,-2.8186809563913946
8626941141.0,-0.0075640726,-0.0024946979,0.007964842240141054,-2.8230175031266174
8626961361.0,-0.007591369,-0.0024296529,0.007970702384899301,-2.8318401419495047
8626981582.0,-0.0076024965,-0.0023551705,0.007958943467356865,-2.8411794102934707
8627001802.0,-0.0075852267,-0.0022748097,0.007918991303291536,-2.8502275790322478
8627022022.0,-0.0076132716,-0.00223077,0.007933362417554523,-2.8565603361674627
8627042242.0,-0.0075871091,-0.0021647639,0.007889893994094345,-2.8636563503736627
8627062462.0,-0.0075955523,-0.0021022085,0.007881097342344373,-2.871583163417855
8627082683.0,-0.0076368188,-0.0020380499,0.007904090635798874,-2.880798962393503
8627102903.0,-0.0076265369,-0.0019653222,0.007875694028901481,-2.8893846346076844
8627123123.0,-0.0076412572,-0.001911345,0.007876677681965719,-2.896487042793117
8627143343.0,-0.0076183415,-0.0018521503,0.007840254329064354,-2.9031022814722705
8627163564.0,-0.0076415829,-0.0017710004,0.007844120832468899,-2.913854932043359
8627183784.0,-0.0076357631,-0.001708846,0.007824642660916701,-2.9214253936248573
8627204004.0,-0.0076501298,-0.0016601997,0.007828202156352895,-2.92789047460629
8627224224.0,-0.0076437286,-0.0016134212,0.007812151744498273,-2.9335684339999286
8627244444.0,-0.0076478758,-0.0015133778,0.007796173203422208,-2.9462343534037934
8627264665.0,-0.0076381126,-0.0014530236,0.007775091103802947,-2.953605515789848
8627284885.0,-0.0076391534,-0.0014057495,0.007767418897258072,-2.9596095733699292
8627305105.0,-0.0076588175,-0.0013320817,0.007773797473164652,-2.9693874623654866
8627325325.0,-0.0076362272,-0.0012918576,0.007744731235407566,-2.9740045774735666
8627345546.0,-0.0076534366,-0.0012084061,0.007748247356192029,-2.984994761430329
8627365766.0,-0.0076384357,-0.0011380968,0.007722756261154739,-2.9936847017569157
8627385986.0,-0.0076521389,-0.001072262,0.007726899477897795,-3.00237334342475
8627406206.0,-0.0076468751,-0.0010119224,0.007713539118888408,-3.010025590962776
8627426426.0,-0.0076432521,-0.0009449425,0.007701442656571602,-3.0185858754375428
8627446647.0,-0.0076387554,-0.0008965846,0.00769119288576137,-3.0247541107377685
8627466867.0,-0.0076133161,-0.0008494433,0.0076605571571808076,-3.0304788384588197
8627487087.0,-0.0076009722,-0.0007757458,0.00764045547931473,-3.0398860427734347
8627507307.0,-0.0076082252,-0.0007180544,0.007642034599193751,-3.0474926869438157
8627527528.0,-0.0076055543,-0.0006432403,0.00763270687854529,-3.057218374417521
8627547748.0,-0.0075851844,-0.0006027807,0.007609097643892859,-3.062291141166161
8627567968.0,-0.0075796667,-0.0005253623,0.0075978518562387215,-3.07239127190546
8627588188.0,-0.0075628163,-0.0004644335,0.007577063340336277,-3.080259550329849
8627608408.0,-0.0075464597,-0.0004149936,0.007557861714252587,-3.0866561606684337
8627628629.0,-0.0075572915,-0.0003325851,0.007564606246508423,-3.097612526856719
8627648849.0,-0.0075537851,-0.0003058251,0.007559973434395919,-3.1011284144018902
8627669069.0,-0.0075376873,-0.000245149,0.007541672749780535,-3.1090810078536277
8627689289.0,-0.0075123729,-0.0001714008,0.0075143279688136486,-3.1187808110391426
8627709510.0,-0.0075114632,-0.0001132117,0.007512316306837135,-3.126521937574677
8627729730.0,-0.007498717,-4.04658e-05,0.007498826183280864,-3.1361963428330446
8627749950.0,-0.0074810822,2.70414e-05,0.007481131072269139,-3.145207275312594
8627770170.0,-0.0074629292,6.94042e-05,0.007463251917709216,-3.1508922459322735
8627790390.0,-0.0074524183,0.0001266656,0.007453494663069013,-3.158587593998317
8627810611.0,-0.0074423004,0.0002098902,0.007445259507894685,-3.1697875084573197
8627830831.0,-0.0074007259,0.0002236397,0.007404104170144211,-3.1718020772319044
8627851051.0,-0.0073800098,0.0003052085,0.007386318221994521,-3.182925210647063
8627871271.0,-0.0073629715,0.0003579672,0.007371668049097713,-3.190171622667539
8627891491.0,-0.0073629294,0.0004153376,0.0073746345449356415,-3.1979422232804877
8627911712.0,-0.0073532893,0.000463619,0.007367890207288345,-3.2045585068144176
8627931932.0,-0.0073089732,0.0004888507,0.007325303013883367,-3.208376823129247
8627952152.0,-0.0073085208,0.0005557374,0.007329619385874781,-3.217486260402492
8627972372.0,-0.0072954997,0.0006335156,0.007322954177662417,-3.2282118618975444
8627992593.0,-0.0072574879,0.0006850649,0.0072897492779833255,-3.235708002377177
8628012813.0,-0.007265207,0.0007360354,0.007302395556452838,-3.2425577961071106
8628033033.0,-0.0072354781,0.0007979982,0.007279350552266517,-3.2514383383784957
8628053253.0,-0.0071950403,0.0008432444,0.007244285060429045,-3.258258455951046
8628073473.0,-0.0071896015,0.0008818559,0.007243482557248762,-3.2636401629544474
8628093694.0,-0.0071433469,0.0009428508,0.007205301698388503,-3.2728241462511987
8628113914.0,-0.007129736,0.0009996865,0.007199479740090825,-3.2808981582768317
8628134134.0,-0.0071325828,0.0010567862,0.007210446204734232,-3.2886857249271193
8628154354.0,-0.0070857891,0.001092947,0.007169584389243759,-3.294631508488672
8628174575.0,-0.0070612064,0.0011494164,0.007154145223853784,-3.3029564074104525
8628194795.0,-0.0070348819,0.0012166154,0.007139307836090608,-3.312839239769577
8628215015.0,-0.0070202294,0.0012619808,0.007132756575700099,-3.3194564758357545
8628235235.0,-0.0069955393,0.0012904941,0.007113574707555921,-3.3240156380492754
8628255455.0,-0.0069721484,0.0013490925,0.007101471952009584,-3.3327279545408044
8628275676.0,-0.0069532378,0.001397004,0.007092188384368032,-3.339867068130887
8628295896.0,-0.0069071932,0.0014375004,0.007055191372466547,-3.3467801544202453
8628316116.0,-0.0069031124,0.0014892735,0.007061932905716111,-3.354075461370155
8628336336.0,-0.0068614235,0.0015271477,0.007029318071048396,-3.36059308007197
8628356557.0,-0.006816553,0.0015878248,0.006999041534189095,-3.370448321929649
8628376777.0,-0.0068100122,0.0016543232,0.007008070448718896,-3.3799016253906786
8628396997.0,-0.0067643649,0.001679609,0.006969771796352661,-3.384973072249464
8628417217.0,-0.006766013,0.001717268,0.0069805401868331795,-3.3901520614335303
8628437437.0,-0.0067129467,0.0017769689,0.006944153790679473,-3.400365274640712
8628457658.0,-0.0066887308,0.0018179871,0.006931392126451587,-3.406980040171015
8628477878.0,-0.0066698179,0.0018284141,0.00691589249050614,-3.409152212011011
8628498098.0,-0.0066322464,0.0018883917,0.006895847701547783,-3.4189809858709066
8628518318.0,-0.006627372,0.0019181392,0.006899370813122066,-3.423321279072336
8628538539.0,-0.0065779909,0.0019688268,0.006866312201530094,-3.4324118836124025
8628558759.0,-0.0065633481,0.0020252734,0.006868716810767581,-3.4408961031356795
8628578979.0,-0.0064932611,0.0020556268,0.006810876687596938,-3.4481888313991607
8628599199.0,-0.006493064,0.002088539,0.0068206946319723915,-3.452797890588263
8628619419.0,-0.0064457263,0.0021122267,0.006782985269533214,-3.4582593719778867
8628639640.0,-0.0064526974,0.0021896374,0.006814089497463731,-3.4687365220544493
8628659860.0,-0.0063925773,0.0022054439,0.0067623241073260084,-3.473806865764987
8628680080.0,-0.0063726772,0.0022563942,0.006760349804647204,-3.481891539125232
8628700300.0,-0.0063260657,0.0023140506,0.006736017920112509,-3.4922698981936233
8628720521.0,-0.0063235025,0.0023311235,0.0067394970613361424,-3.494779642122053
8628740741.0,-0.006263032,0.0023697653,0.006696368972070467,-3.5033176223200693
8628760961.0,-0.0062462741,0.002409318,0.0066948303456812715,-3.509729117434417
8628781181.0,-0.0062011304,0.0024471133,0.006666511962101399,-3.5174557531056587
8628801401.0,-0.0061797314,0.0024656938,0.006653474738172859,-3.5212340082715277
8628821622.0,-0.0061527875,0.0025108826,0.006645398818064948,-3.529052477770074
8628841842.0,-0.0060944132,0.0025329104,0.006599811159931956,-3.5354846658579575
8628862062.0,-0.0060656062,0.0025784409,0.006590897969796776,-3.5435412552852035
8628882282.0,-0.0060452342,0.002614864,0.006586529455741137,-3.5498405131462754
8628902503.0,-0.0060110253,0.0026388548,0.006564752837138892,-3.5552634672299295
8628922723.0,-0.0059736988,0.0026739454,0.006544849987226796,-3.5624653769288726
8628942943.0,-0.0059468208,0.0027110729,0.006535640282055542,-3.56933066244648
8628963163.0,-0.0059196135,0.0027217803,0.006515359697733529,-3.572558224531914
8628983383.0,-0.0058853415,0.0027766553,0.006507461811385476,-3.582420056253566
8629003604.0,-0.005846301,0.002776139,0.006471953579092019,-3.5849218024413294
8629023824.0,-0.0058095239,0.002845956,0.0064691601849550156,-3.59710965232841
8629044044.0,-0.005806199,0.0028685421,0.006476147049525158,-3.6004674871544484
8629064264.0,-0.0057789398,0.0028687201,0.006451798216324503,-3.6023636675234343
8629084484.0,-0.0057211418,0.0029116481,0.006419435968520976,-3.6123569660491786
8629104705.0,-0.0057006599,0.0029291379,0.0064091631382485826,-3.616238483870711
8629124925.0,-0.0056890631,0.0029579177,0.006412075800842883,-3.6210572752984076
8629145145.0,-0.0056393784,0.0029985723,0.006387020007539811,-3.630293362003073
8629165365.0,-0.0055916489,0.0030069667,0.006348888576418719,-3.6349902302669688
8629185586.0,-0.005561334,0.0030596772,0.0063474451890312405,-3.644566107424454
8629205806.0,-0.005536487,0.0030529411,0.0063224313093333175,-3.645527006189959
8629226026.0,-0.0054989803,0.0031019159,0.006313530437913553,-3.655188589419649
8629246246.0,-0.0054781471,0.0031176848,0.0063031781000848644,-3.6589914516602
8629266466.0,-0.0054501855,0.0031471082,0.006293553209985397,-3.665252269169225
8629286687.0,-0.0054079552,0.0031694941,0.006268306971993463,-3.6717139396241167
8629306907.0,-0.0053485567,0.0031710821,0.006217943426733256,-3.6767645342334903
8629327127.0,-0.0053284727,0.0032256655,0.0062287670716230465,-3.6859469330654138
8629347347.0,-0.0053227767,0.0032424226,0.006232596257985403,-3.6887202309207714
8629367568.0,-0.0052755825,0.0032712823,0.006207500189335441,-3.696646042870852
8629387788.0,-0.0052492243,0.0032880757,0.006194013041691225,-3.7011928230152993
8629408008.0,-0.0052333606,0.003315627,0.006195276069132138,-3.7063209516227102
8629428228.0,-0.0051689274,0.0033375143,0.006152788974861339,-3.714930603158834
8629448448.0,-0.0051510899,0.0033635382,0.006152001006237016,-3.7200571379735745
8629468669.0,-0.0051290095,0.0033818892,0.0061436074917076925,-3.7245231874353886
8629488889.0,-0.0051060533,0.0033881714,0.006127926707967291,-3.7274412223967404
8629509109.0,-0.0050641241,0.0034097031,0.006105033016319438,-3.7341773673069114
8629529329.0,-0.0050372021,0.0034265291,0.006092167649481686,-3.7389364939207153
8629549550.0,-0.005016944,0.0034850912,0.006108648604352148,-3.748728534582608
8629569770.0,-0.0049926694,0.0034612475,0.006075111685718429,-3.7477847825985497
8629589990.0,-0.0049447308,0.0034933078,0.006054218535038975,-3.7566482309401428
8629610210.0,-0.0049194294,0.0035250814,0.006052023173965076,-3.7633484901779095
8629630430.0,-0.0049058848,0.003511317,0.006032996995305073,-3.7628016215786415
8629650651.0,-0.004870926,0.0035381533,0.006020336275639168,-3.769806153728665
8629670871.0,-0.0048425977,0.0035560501,0.006008015046398877,-3.774987334024582
8629691091.0,-0.0048015737,0.0035758084,0.005986778408296255,-3.78170336816742
8629711311.0,-0.0047737789,0.0035891313,0.005972506046436864,-3.7862721122372145
8629731532.0,-0.0047440326,0.0036159996,0.005965006153983659,-3.7928692090706817
8629751752.0,-0.0047229935,0.0036017041,0.005939607733259753,-3.793102319616028
8629771972.0,-0.0046838703,0.0036571444,0.005942503357144483,-3.8045132874889593
8629792192.0,-0.0046776884,0.0036660641,0.005943130046768569,-3.806336396090097
8629812412.0,-0.0046451178,0.0036812572,0.005926953175825559,-3.8117438424186245
8629832633.0,-0.0046141638,0.0036782656,0.005900859716801765,-3.8146046274679946
8629852853.0,-0.0045966064,0.0037177942,0.005911918817953659,-3.821684215295765
8629873073.0,-0.0045488272,0.003705127,0.005866838584927051,-3.8251269091770768
8629893293.0,-0.0045239552,0.0037308052,0.005863879099363669,-3.831200924446719
8629913514.0,-0.0044977262,0.003748826,0.005855188925085375,-3.836425505642821
8629933734.0,-0.0044610274,0.0037626758,0.0058359656132859795,-3.8422747060820135
8629953954.0,-0.0044588351,0.0038016393,0.005859494160445635,-3.8475989558789605
