frequency,Re(S21),Im(S21),Amplitude,phase
7980000000.0,-0.0142965237,-0.0011489572,0.01434261805083345,-3.061398813028209
7980014014.0,-0.0142547901,-0.0010842671,0.014295967121506695,-3.065675487212284
7980028028.0,-0.0142954557,-0.0009802536,0.01432902476761679,-3.073128831067194
7980042042.0,-0.0142758841,-0.0009151365,0.014305185830679204,-3.0775765788000093
7980056056.0,-0.0142740299,-0.0008104885,0.014297021409885566,-3.0848729205671273
7980070070.0,-0.0142264865,-0.0007503296,0.014246259601850528,-3.0888997395259223
7980084084.0,-0.0142443072,-0.0006652677,0.014259834105649166,-3.094922456691108
7980098098.0,-0.0142276174,-0.0005830691,0.014239559910901655,-3.1006340732545605
7980112112.0,-0.0142064752,-0.0005244218,0.014216151231347052,-3.1046951273837537
7980126126.0,-0.0141937996,-0.0004489506,0.014200897990134303,-3.109973144832315
7980140140.0,-0.0141745434,-0.0003602541,0.01417912069259058,-3.116182553875846
7980154154.0,-0.0141812612,-0.0002864991,0.0141841549257235,-3.1213927484072985
7980168168.0,-0.0141544571,-0.0002150705,0.014156090954628352,-3.1263992802679637
7980182182.0,-0.0141391557,-0.0001370429,0.01413981982435713,-3.1319005183784943
7980196196.0,-0.0140904787,-6.33742e-05,0.01409062121712096,-3.1370950226701373
7980210210.0,-0.0140904209,-4.2263e-06,0.014090421533821068,-3.141292712239336
7980224224.0,-0.0140823296,6.83571e-05,0.014082495505277343,-3.1464467200024546
7980238238.0,-0.0140650576,0.0001423039,0.014065777464871004,-3.1517098567118196
7980252252.0,-0.0140648767,0.0002118493,0.014066472077678659,-3.1566538081067566
7980266266.0,-0.0140370283,0.0002973195,0.014040176721825162,-3.162770572635801
7980280280.0,-0.0140169518,0.0003574025,0.014021507561975264,-3.167085006079145
7980294294.0,-0.0139997191,0.0004325759,0.014006400565033317,-3.172481724263431
7980308308.0,-0.0139541658,0.0005052602,0.013963310175012001,-3.177785398611863
7980322322.0,-0.0139564105,0.0005797865,0.013968448247034904,-3.183111446292557
7980336336.0,-0.0139436402,0.0006517327,0.013958863046083134,-3.188299159489765
7980350350.0,-0.0139062988,0.0007084895,0.013924334945931588,-3.1924960225993715
7980364364.0,-0.0138735746,0.0007685958,0.013894848386561935,-3.196936063845984
7980378378.0,-0.0138705034,0.0008646115,0.013897424855538663,-3.2038466493647833
7980392392.0,-0.013858286,0.0009136787,0.013888372821343387,-3.2074275113542132
7980406406.0,-0.0138371186,0.001004191,0.013873508954656963,-3.2140379107040693
7980420420.0,-0.0137865196,0.0010392642,0.013825635347375027,-3.2168329869498815
7980434434.0,-0.0137914456,0.0011252013,0.013837270312575421,-3.2229992480434575
7980448448.0,-0.013778263,0.0011930491,0.013829819140255589,-3.2279664393534
7980462462.0,-0.0137420519,0.0012505032,0.013798831424272994,-3.232341006298136
7980476476.0,-0.013711131,0.0013136524,0.013773917232479173,-3.237110293939059
7980490490.0,-0.0136798134,0.0013877577,0.013750024221532441,-3.2426924468620406
7980504505.0,-0.0136441658,0.0014704111,0.013723169064793046,-3.2489468142280025
7980518519.0,-0.0136305808,0.0015365582,0.013716914523584227,-3.2538474915319124
7980532533.0,-0.0135937324,0.0015842375,0.013685735969220509,-3.2576110494032045
7980546547.0,-0.0135723217,0.0016512827,0.013672404722052745,-3.2626630679862436
7980560561.0,-0.0135543655,0.0017042767,0.013661090116742262,-3.2666726224009714
7980574575.0,-0.0135089051,0.00179766,0.013627989524372478,-3.27388762533779
7980588589.0,-0.0134881837,0.0018345491,0.013612371943392397,-3.2767747163681875
7980602603.0,-0.0134757314,0.0019078522,0.01361011523764552,-3.2822348403481323
7980616617.0,-0.0134438,0.0019805842,0.013588909897901659,-3.2878637225140768
7980630631.0,-0.013424167,0.0020280862,0.013576501511012307,-3.291535977105627
7980644645.0,-0.0133820119,0.0020890246,0.013544086025684672,-3.2964497179225845
7980658659.0,-0.0133771942,0.0021606552,0.013550562924019086,-3.3017274947730493
7980672673.0,-0.0133230223,0.0022230347,0.01350721312794395,-3.3069261616257988
7980686687.0,-0.0132809874,0.0022842944,0.013476001900594631,-3.31192339839302
7980700701.0,-0.0132705496,0.0023662189,0.01347985454553488,-3.318044292314478
7980714715.0,-0.0132384731,0.0023834818,0.013451325418350226,-3.3197263192405524
7980728729.0,-0.0132163975,0.0024514824,0.013441835024858621,-3.324996175416403
7980742743.0,-0.0131781754,0.0025170826,0.01341640830059923,-3.3303233216864956
7980756757.0,-0.0131463863,0.0025853991,0.013398199925926934,-3.335776875351626
7980770771.0,-0.0130805556,0.002653803,0.013347044810275432,-3.3417573639834735
7980784785.0,-0.0130697776,0.0026639638,0.013338507774154205,-3.3426645814626017
7980798799.0,-0.0130404796,0.0027635088,0.013330082110988425,-3.3504208652021874
7980812813.0,-0.0130045339,0.0028178287,0.013306316565405804,-3.354974493501124
7980826827.0,-0.0129690658,0.0028503796,0.013278604278644116,-3.3579359237727813
7980840841.0,-0.0129221027,0.0029294612,0.01324999928723216,-3.3645261003214664
7980854855.0,-0.0129412268,0.0029704313,0.013277756331438604,-3.3672169227927187
7980868869.0,-0.0128742464,0.0030385505,0.013227963165543031,-3.3733688690043295
7980882883.0,-0.0128382756,0.0030862697,0.013204028970079301,-3.3775120037875768
7980896897.0,-0.0128097374,0.0031375276,0.01318838321014826,-3.3817967332847982
7980910911.0,-0.0127879576,0.0032025231,0.01318286819267459,-3.3869785481038615
7980924925.0,-0.0127587663,0.0032606655,0.013168828991254534,-3.391799961938283
7980938939.0,-0.0127244176,0.0032818587,0.013140829493831637,-3.3940097307022756
7980952953.0,-0.0126714402,0.0033643718,0.01311046888371317,-3.401113216130872
7980966967.0,-0.0126434155,0.0034116644,0.013095625585815578,-3.405152785067024
7980980981.0,-0.0126209849,0.003467606,0.013088680270266518,-3.4097257192899546
7980994995.0,-0.0125659658,0.0035216623,0.013050118843980347,-3.4148368841692838
7981009009.0,-0.0125240477,0.0035444141,0.013015938003238726,-3.417389111788579
7981023023.0,-0.0125177332,0.0036014597,0.013025519430606458,-3.4217351548942294
7981037037.0,-0.012453043,0.0036719614,0.012983126760643561,-3.4283314278202868
7981051051.0,-0.0124241007,0.0037349801,0.012973370978706208,-3.4336216238550317
7981065065.0,-0.0123707508,0.0037723964,0.012933153132721873,-3.437579785315329
7981079079.0,-0.0123735468,0.0037869365,0.012940075288298073,-3.438591546992829
7981093093.0,-0.012334613,0.0038646885,0.012925884691648817,-3.445224951468638
7981107107.0,-0.0122613698,0.0039198001,0.012872685119908436,-3.4510116147469545
7981121121.0,-0.0122589896,0.0039491213,0.012879378286820441,-3.453236377615279
7981135135.0,-0.012206876,0.0040072914,0.012847809386969047,-3.458789676225984
7981149149.0,-0.0121785383,0.0040640412,0.012838739268318534,-3.463677824108786
7981163163.0,-0.0121437789,0.0041277017,0.012826117389774199,-3.469243826735557
7981177177.0,-0.012092913,0.0041546639,0.012786703130499755,-3.472520478649483
7981191191.0,-0.0120767562,0.0042153932,0.012791308773727757,-3.4774210041511773
7981205205.0,-0.0120256768,0.0042505037,0.01275475143629902,-3.481339744461202
7981219219.0,-0.0119896881,0.0042977341,0.012736684777821283,-3.485777636601641
7981233233.0,-0.0119316572,0.0043137185,0.012687498210268015,-3.488506962079651
7981247247.0,-0.011906991,0.0043792754,0.01268678397794832,-3.4940275288181337
7981261261.0,-0.0118523977,0.0044013132,0.012643215141864016,-3.4971539525160944
7981275275.0,-0.0118318293,0.0044609125,0.012644837876263765,-3.502138745597198
7981289289.0,-0.0118058504,0.0045081675,0.012637312921473316,-3.5063628903511037
7981303303.0,-0.0117553604,0.0045555981,0.012607219050314457,-3.5113062268398587
7981317317.0,-0.0117103055,0.0045997573,0.012581296519923277,-3.515873015035405
7981331331.0,-0.0116794622,0.0046179309,0.012559264432219096,-3.5181177229187828
7981345345.0,-0.011624671,0.0046765774,0.012530097846243331,-3.524078161306755
7981359359.0,-0.0116097628,0.0047045563,0.012526749069576413,-3.52659448249619
7981373373.0,-0.0115601315,0.0047445052,0.012495878116007665,-3.5310490959580996
7981387387.0,-0.011519375,0.0047534027,0.012461574443824997,-3.5329514147324828
7981401401.0,-0.0114812469,0.0048321972,0.01245669138087829,-3.539966235506781
7981415415.0,-0.0114468842,0.0048750499,0.012441755077789454,-3.544212193519228
7981429429.0,-0.0114060108,0.0048957855,0.012412324441124107,-3.5470394637806275
7981443443.0,-0.011372919,0.00494891,0.012403023694594032,-3.5520277742295043
7981457457.0,-0.0113317235,0.0049853348,0.012379883704968448,-3.556053426325069
7981471471.0,-0.0113018454,0.005014099,0.012364178024733474,-3.5591559944010918
7981485485.0,-0.0112599211,0.0050800447,0.012352840860798915,-3.5654121974474076
7981499499.0,-0.0112104473,0.0050879455,0.012311024249714055,-3.567649838547768
7981513514.0,-0.0111702263,0.0051194892,0.012287519084914104,-3.5713402948851694
7981527528.0,-0.0111360899,0.0051600432,0.012273489482895574,-3.575502863923222
7981541542.0,-0.0110915733,0.0051919314,0.01224659748385562,-3.5793936550183263
7981555556.0,-0.0110561072,0.0052244354,0.012228337240469981,-3.5830306444440914
7981569570.0,-0.0110216381,0.0052531686,0.012209516237238786,-3.586364555403452
7981583584.0,-0.0109901248,0.0052986374,0.012200754133095784,-3.5908400106711382
7981597598.0,-0.0109519219,0.0053141224,0.012173105198998379,-3.5933487847073726
7981611612.0,-0.0109161187,0.005360225,0.01216115370855556,-3.5980446905194694
7981625626.0,-0.0108633586,0.0054013779,0.012132083221392868,-3.603006316603477
7981639640.0,-0.0108429971,0.0054229926,0.01212350753083707,-3.605350488030227
7981653654.0,-0.0107939756,0.0054539625,0.012093618821709307,-3.609454044456647
7981667668.0,-0.010744374,0.0054945974,0.012067815595208718,-3.614313047259249
7981681682.0,-0.0107123306,0.0055256808,0.01205351298116798,-3.617819439416753
7981695696.0,-0.0106697742,0.0055518969,0.012027786191449168,-3.6213785517447468
7981709710.0,-0.0106376559,0.0055797764,0.012012228257937898,-3.6246716347322763
7981723724.0,-0.0106130882,0.0055947468,0.011997451100008263,-3.626727840818351
7981737738.0,-0.0105839162,0.0056225748,0.011984683120976437,-3.629916975132848
7981751752.0,-0.0105238464,0.0056509591,0.011945069351019515,-3.634374753844607
7981765766.0,-0.0104994822,0.0056733038,0.011934215620442397,-3.63699012073088
7981779780.0,-0.0104557867,0.0057044823,0.011910692415930745,-3.641037104072168
7981793794.0,-0.0104060167,0.0057567643,0.01189224616153035,-3.646900826416092
7981807808.0,-0.0103877139,0.0057665994,0.011881004532796608,-3.64837089863811
7981821822.0,-0.0103406231,0.0057986749,0.011855509971829286,-3.652664286699491
7981835836.0,-0.0103078296,0.0058076661,0.011831328606362237,-3.654682828408986
7981849850.0,-0.0102605781,0.0058184769,0.011795513400527898,-3.657447708923904
7981863864.0,-0.0102342753,0.0058759482,0.011801150713607269,-3.6627834212208086
7981877878.0,-0.0101906575,0.0058838728,0.011767304679020004,-3.6652130626413966
7981891892.0,-0.0101629245,0.0059279055,0.011765419584937483,-3.6696328072155087
7981905906.0,-0.010122586,0.0059274832,0.011730379551134661,-3.671334323761978
7981919920.0,-0.0100808985,0.0059622987,0.011712109987330376,-3.6756980888146797
7981933934.0,-0.0100542332,0.0059837504,0.011700122823692167,-3.678436400166718
7981947948.0,-0.0100283883,0.0060076862,0.011690203820859897,-3.6813265543208913
7981961962.0,-0.009967844,0.0060312112,0.011650468769424749,-3.685729395570403
7981975976.0,-0.0099520803,0.0060635629,0.011653784678803042,-3.6888047822000916
7981989990.0,-0.009910996,0.0060444,0.011608730037003015,-3.689236509613141
7982004004.0,-0.0098463452,0.0060931317,0.011579152288104166,-3.69573677734426
7982018018.0,-0.0098508485,0.0061203199,0.011597307094678846,-3.697525970323801
7982032032.0,-0.009795482,0.0061406193,0.011561084421448382,-3.7015447555164074
7982046046.0,-0.0097740539,0.0061208023,0.011532404364909795,-3.7010757191055363
7982060060.0,-0.0097341732,0.0061766784,0.011528464075696502,-3.707019586281448
7982074074.0,-0.0097104057,0.0061801541,0.011510268613648393,-3.7083808760644534
7982088088.0,-0.009674488,0.0062275655,0.011505576479209299,-3.713533425658266
7982102102.0,-0.0096567379,0.006226327,0.011489984107048426,-3.714278954349627
7982116116.0,-0.0096281153,0.0062314324,0.011468711958448683,-3.7160054938346136
7982130130.0,-0.0095978088,0.0062699719,0.011464313384941423,-3.7202640387173895
7982144144.0,-0.0095480875,0.0062829548,0.011429851089428036,-3.723594126383845
7982158158.0,-0.0095280746,0.0063099934,0.011428045427421468,-3.726533225276036
7982172172.0,-0.0095031448,0.0063144082,0.011409711302482386,-3.7280622568427253
7982186186.0,-0.0094709451,0.0063436439,0.011399149925201493,-3.731761707113136
7982200200.0,-0.0094136449,0.00634505,0.011352372871157642,-3.734673516573124
7982214214.0,-0.0094155247,0.0063780304,0.011372395401129625,-3.7369859110102075
7982228228.0,-0.0093907118,0.0064151574,0.01137276187113025,-3.7409123561470947
7982242242.0,-0.0093520974,0.0064203597,0.01134384169743526,-3.743211163621861
7982256256.0,-0.0093094532,0.0064210364,0.011309094894513672,-3.7453946774245797
7982270270.0,-0.0092983159,0.0064594222,0.011321784918202855,-3.7487441580536878
7982284284.0,-0.0092803338,0.006468538,0.011312231402197642,-3.7503128966373906
7982298298.0,-0.0092390382,0.0064809775,0.011285517100096279,-3.7533095464462
7982312312.0,-0.0091993167,0.0064955471,0.011261419087984307,-3.756394297157897
7982326326.0,-0.0091731927,0.0065001335,0.011242739871986523,-3.7580678051527654
7982340340.0,-0.0091594898,0.0065110264,0.011237869823850114,-3.7595636636954373
7982354354.0,-0.0091467239,0.0065309095,0.0112390096093927,-3.761663687859199
7982368368.0,-0.0091166323,0.0065516516,0.011226625636458439,-3.7647248715371404
7982382382.0,-0.0090682129,0.0065554954,0.011189593609204384,-3.767529091779595
7982396396.0,-0.0090599839,0.0065812352,0.011198033980390409,-3.7698224364390023
7982410410.0,-0.0090178949,0.0066091067,0.011180461519965573,-3.774051813135556
7982424424.0,-0.0089854461,0.0066277044,0.011165335070197607,-3.7771132508027305
7982438438.0,-0.0090040694,0.0066466043,0.011191542095743323,-3.7774845320322346
7982452452.0,-0.0089585135,0.0066444118,0.011153617005154045,-3.7797520922052237
7982466466.0,-0.0089436744,0.00667023,0.011157117908587118,-3.782403042748243
7982480480.0,-0.0089144993,0.0066740307,0.01113602189088379,-3.784242918047815
7982494494.0,-0.008901642,0.0066847405,0.01113215998126618,-3.7857052520163275
7982508509.0,-0.008867369,0.0067058596,0.011117499087343032,-3.789075448967213
7982522523.0,-0.0088458205,0.0067237106,0.011111112660340216,-3.79152666205397
7982536537.0,-0.0088382718,0.0067305489,0.011109245559711356,-3.792427903121456
7982550551.0,-0.0088513781,0.0067597558,0.01113737818091822,-3.793801287971916
7982564565.0,-0.0087798885,0.0067594727,0.011080474414684486,-3.797696901174038
7982578579.0,-0.0087651173,0.0067614019,0.011069951984362123,-3.7986489914827604
7982592593.0,-0.0087563876,0.0067839176,0.01107681641109139,-3.8007398275026323
7982606607.0,-0.0087303679,0.0068174581,0.011076870434134635,-3.8045721326012254
7982620621.0,-0.0087167077,0.0068375911,0.011078521795710766,-3.806763354417266
7982634635.0,-0.0086994407,0.0068307346,0.011060705387472069,-3.807239120355127
7982648649.0,-0.0086847655,0.0068572398,0.01106557226105791,-3.8099420782123494
7982662663.0,-0.0086543866,0.0068538219,0.011039623275238117,-3.8114043586046487
7982676677.0,-0.0086447968,0.0068797693,0.011048245894010177,-3.8137843661604522
7982690691.0,-0.0086396591,0.0068788343,0.011043643904575578,-3.8140078122667322
7982704705.0,-0.00862862,0.0069096274,0.011054231493470306,-3.816809100646501
7982718719.0,-0.008596241,0.0069337985,0.011044135139008543,-3.8203500188316504
7982732733.0,-0.0085722649,0.006944489,0.011032209796178326,-3.8224687087339886
7982746747.0,-0.008548025,0.0069533252,0.011018959240217747,-3.8244765498220317
7982760761.0,-0.0085529591,0.0069831255,0.011041609987453056,-3.8262882599555508
7982774775.0,-0.0085246312,0.006995218,0.011027348365021278,-3.828762348639779
7982788789.0,-0.0085142511,0.0069944867,0.011018861828261941,-3.829308621729377
7982802803.0,-0.0085269714,0.007037355,0.011055930836091684,-3.8315743513793
7982816817.0,-0.0084868232,0.0070410339,0.011027344485822843,-3.83414910240966
7982830831.0,-0.0084748775,0.0070680051,0.011035408679955276,-3.8367212694458224
7982844845.0,-0.0084546456,0.0070799249,0.01102752777422208,-3.838726459784331
7982858859.0,-0.0084600087,0.0071004435,0.011044819831068678,-3.8398390250364884
7982872873.0,-0.0084437746,0.0071369413,0.011055915186688565,-3.8433116301813497
7982886887.0,-0.0084359366,0.0071577963,0.011063411507826746,-3.8452086358069084
7982900901.0,-0.008411976,0.0071739878,0.011055652001538617,-3.847727544786631
7982914915.0,-0.0083881879,0.0071653152,0.011031928125267017,-3.848528608368817
7982928929.0,-0.0083913397,0.0071914627,0.011051321989983251,-3.8501423780554345
7982942943.0,-0.0083769012,0.0072299171,0.011065449606203712,-3.85363020406845
7982956957.0,-0.0083489269,0.0072410961,0.011051608620964588,-3.8560498219714914
7982970971.0,-0.0083564944,0.0072404223,0.011056885354364884,-3.855555351436976
7982984985.0,-0.0083512493,0.0072923172,0.011086985839991244,-3.8594027031093368
7982998999.0,-0.0083272132,0.0073078887,0.011079156869087193,-3.8618883302691582
7983013013.0,-0.0083328233,0.007324923,0.011094613157066446,-3.862708791759275
7983027027.0,-0.0082991463,0.0073494506,0.011085587644804584,-3.866376288918376
7983041041.0,-0.0083003154,0.007376634,0.011104502010870777,-3.868139140308417
7983055055.0,-0.0083000155,0.0073993625,0.011119389493432025,-3.869684923743734
7983069069.0,-0.0082681004,0.0073944739,0.011092327460107793,-3.8712705907126113
7983083083.0,-0.0082547638,0.0074435457,0.011115192215242115,-3.8753612339541013
7983097097.0,-0.0082691454,0.0074538295,0.011132759759440218,-3.8751821547403744
7983111111.0,-0.0082624816,0.0074988101,0.011157990639277332,-3.8785763374519866
7983125125.0,-0.0082485654,0.0075043321,0.01115140490813456,-3.879781703437454
7983139139.0,-0.0082287757,0.0075305769,0.011154476140443534,-3.8827159954853205
7983153153.0,-0.0082522092,0.0075663504,0.011195919571707577,-3.883660101760165
7983167167.0,-0.008211017,0.007580112,0.01117492273381937,-3.887058926962406
7983181181.0,-0.0082134514,0.0076078738,0.011195558389686885,-3.8887334575541
7983195195.0,-0.0081946413,0.0076352135,0.0112003853159723,-3.891665472054054
7983209209.0,-0.0081918917,0.0076620464,0.011216685992764612,-3.893582829457421
7983223223.0,-0.0081725356,0.007704338,0.011231525370648074,-3.8975100788447574
7983237237.0,-0.0081879388,0.0077290634,0.011259696391722336,-3.8981695396011635
7983251251.0,-0.0081729162,0.0077562653,0.011267484662346186,-3.9008403258054654
7983265265.0,-0.0081727217,0.0077737339,0.01127937581312282,-3.901975567038558
7983279279.0,-0.0081625186,0.0077878983,0.011281758277258419,-3.9035085818402417
7983293293.0,-0.0081380738,0.0078436368,0.011302693635791455,-3.908569528960797
7983307307.0,-0.0081532112,0.0078513292,0.01131893206440334,-3.908130781124365
7983321321.0,-0.0081448921,0.0078837634,0.011335474964368365,-3.9107008916256154
7983335335.0,-0.0081420358,0.0079209538,0.011359324630901967,-3.9132282455688316
7983349349.0,-0.0081032063,0.0079805883,0.011373290726718305,-3.9193672662281656
7983363363.0,-0.0081267707,0.0079856595,0.011393645582530585,-3.9182331317327073
7983377377.0,-0.0080996878,0.0080276586,0.011403869740382988,-3.9225245694545166
7983391391.0,-0.0081219674,0.0080515574,0.011436517433736438,-3.922637433536948
7983405405.0,-0.0080846804,0.0080696012,0.011422807041055433,-3.9260573681348725
7983419419.0,-0.0080756186,0.0081234336,0.011454509558522135,-3.929942524318364
7983433433.0,-0.0080771528,0.0081524284,0.011476170361739774,-3.9316289563998916
7983447447.0,-0.0080369732,0.008197964,0.011480398597732321,-3.936906809972362
7983461461.0,-0.0080387481,0.0082192807,0.011496871150041044,-3.9380945727172625
7983475475.0,-0.0080373185,0.0082642457,0.01152806339592261,-3.9409104961509613
