frequency,Re(S21),Im(S21),Amplitude,phase
7796000000.0,-0.0050255671,0.0155949821,0.016384742639905053,1.8825438242966384
7796016517.0,-0.0049106515,0.0156129089,0.01636696130850658,1.8755250473919844
7796033033.0,-0.0048402024,0.0156595248,0.016390493471362625,1.8705715600617596
7796049550.0,-0.0047411064,0.0157033635,0.016403466557689973,1.8640105575856154
7796066066.0,-0.0046290612,0.015728991,0.01639601675625597,1.8570167149966132
7796082583.0,-0.0045250989,0.0157414435,0.016378936580818473,1.8507129318178412
7796099099.0,-0.0044357997,0.0157934039,0.01640450931076743,1.8446061019314737
7796115616.0,-0.004341105,0.0158195369,0.01640435735868634,1.8386178094956904
7796132132.0,-0.0042275475,0.0157980464,0.016353911700914534,1.8322693112349024
7796148649.0,-0.0041250461,0.015841695,0.016369951307201563,1.8255312603501492
7796165165.0,-0.0040367346,0.0158698639,0.016375219279000826,1.819878789969682
7796181682.0,-0.0039305025,0.0158854154,0.01636445148280453,1.8133531751969512
7796198198.0,-0.0038360436,0.0159380157,0.016393156345089477,1.8069890355368636
7796214715.0,-0.0037432112,0.0159404154,0.016374018236595518,1.8014426268305617
7796231231.0,-0.0036304302,0.0159504453,0.016358384049329693,1.7945905924816008
7796247748.0,-0.0035099439,0.015977535,0.016358524715186642,1.7870413252327508
7796264264.0,-0.0034506222,0.016002849,0.01637064353298104,1.7831702666626532
7796280781.0,-0.0033331374,0.0160083957,0.016351713604850632,1.7760752661936223
7796297297.0,-0.0032348485,0.016037129,0.01636012687544303,1.7698355280423994
7796313814.0,-0.0031204316,0.016066011,0.016366239727634433,1.7626335221353364
7796330330.0,-0.003045104,0.0160560224,0.016342230988458026,1.7582252170037813
7796346847.0,-0.0029503375,0.0160917515,0.016359980369843312,1.7521271071617353
7796363363.0,-0.0028377587,0.0160802614,0.016328737891574956,1.7454724768071403
7796379880.0,-0.0027434797,0.0160983423,0.016330441074027403,1.7395946709188133
7796396396.0,-0.0026394196,0.0161261729,0.016340746256690925,1.733030871364069
7796412913.0,-0.0025297868,0.016142241,0.016339270661676893,1.7262503103812692
7796429429.0,-0.0024462802,0.0161442888,0.016328574575715956,1.7211784019126
7796445946.0,-0.0023498766,0.016161609,0.016331550003110807,1.7151831958124946
7796462462.0,-0.0022291065,0.0161615039,0.016314506553924864,1.7078584661389153
7796478979.0,-0.0021222746,0.0161764581,0.01631508032891229,1.701246544939211
7796495495.0,-0.0020378603,0.0161940204,0.0163217392246639,1.6959786027135255
7796512012.0,-0.0019399916,0.0161959511,0.01631172582658444,1.6900108401569895
7796528529.0,-0.0018302519,0.0161886709,0.016291804305415665,1.6833758630086808
7796545045.0,-0.0017184054,0.0162244437,0.016315192015211432,1.6763175208110817
7796561562.0,-0.0016241283,0.0162324817,0.016313529810427163,1.6705186624614852
7796578078.0,-0.0015275612,0.0162246554,0.016296407152145365,1.6646702126584192
7796594595.0,-0.0014424062,0.0162395231,0.016303455037544407,1.659384577783135
7796611111.0,-0.0013426305,0.0162247586,0.0162802164693165,1.6533601625336662
7796627628.0,-0.0012088152,0.0162567866,0.016301666931503988,1.6450173106447576
7796644144.0,-0.0011196522,0.0162370245,0.016275582498410466,1.6396440756895907
7796660661.0,-0.0010273804,0.0162565229,0.016288954763413417,1.6339104313039376
7796677177.0,-0.0009342081,0.0162533125,0.016280138574249356,1.6282111674047226
7796693694.0,-0.0008146104,0.0162768093,0.0162971810780992,1.6208019070194006
7796710210.0,-0.0007350005,0.016267421,0.01628401706355779,1.6159479803463206
7796726727.0,-0.0006073667,0.0162724849,0.016283815865115795,1.608103774961095
7796743243.0,-0.0005399965,0.0162571492,0.016266114973498523,1.604000059641339
7796759760.0,-0.0004157092,0.0162579355,0.016263249394297713,1.5963603744495571
7796776276.0,-0.0003350529,0.0162543486,0.0162578014767102,1.5914065318287616
7796792793.0,-0.0002431568,0.0162743605,0.016276176913309418,1.5857363122160377
7796809309.0,-0.0001206575,0.0162876773,0.016288124203272813,1.5782040922327352
7796825826.0,-1.6064e-05,0.0162499072,0.016249915140107898,1.5717848859644625
7796842342.0,7.4847e-05,0.0162645024,0.01626467461688105,1.5661944970052353
7796858859.0,0.0001728348,0.0162627672,0.016263685586898405,1.5601690890513937
7796875375.0,0.0002748998,0.0162278488,0.01623017703463833,1.5538579443577505
7796891892.0,0.0003750234,0.0162346725,0.01623900347105092,1.5477002825069643
7796908408.0,0.0004841798,0.0162281764,0.016235397726826556,1.5409694259159086
7796924925.0,0.0005812381,0.0162238577,0.016234266118267893,1.5349855087552244
7796941441.0,0.0006944237,0.0162171876,0.016232048482206902,1.5280022395503885
7796957958.0,0.0007773978,0.0162031744,0.01622181272164921,1.522854972461726
7796974474.0,0.0008889426,0.0161823332,0.016206730908542816,1.5159185758808056
7796990991.0,0.0009671351,0.0161733234,0.016202214049402,1.5110692827120877
7797007508.0,0.0010749277,0.0162047607,0.016240373730443885,1.5045592971972102
7797024024.0,0.0011587224,0.016192787,0.016234191954872,1.4993601562663361
7797040541.0,0.001267171,0.0161765039,0.01622605931118077,1.4926219185524756
7797057057.0,0.00138135,0.0161574792,0.016216419516062498,1.4855107931773286
7797073574.0,0.0014769118,0.0161440556,0.016211471237394543,1.4795669471256436
7797090090.0,0.001589696,0.0161156406,0.016193857024217065,1.4724713652782215
7797106607.0,0.0016817324,0.0161177047,0.016205203752548494,1.4668318359158525
7797123123.0,0.0017615579,0.0161171424,0.016213123245597382,1.4619312897558157
7797139640.0,0.0018901751,0.0160863458,0.01619701463559991,1.4538308289492117
7797156156.0,0.0019719145,0.0160595549,0.016180165338507024,1.4486202669920811
7797172673.0,0.0020779285,0.0160503962,0.01618434444233336,1.4420496761049388
7797189189.0,0.0021464791,0.0160344734,0.016177506289352644,1.4377209610875803
7797205706.0,0.0022551717,0.0160197581,0.016177714578363547,1.4309409609193282
7797222222.0,0.0023441278,0.0160085387,0.016179253581427376,1.42539979122683
7797238739.0,0.0024628164,0.0159832143,0.01617184602881914,1.4179110658713936
7797255255.0,0.0025809265,0.0159611826,0.016168504308962686,1.4104837394399758
7797271772.0,0.0026662701,0.0159460546,0.016167425693422412,1.4051232988294393
7797288288.0,0.0027488315,0.0159125815,0.016148260730169502,1.3997387182523833
7797304805.0,0.0028584511,0.0159128744,0.01616756983474222,1.393060492750765
7797321321.0,0.0029692213,0.0159112254,0.016185900310392957,1.386306616911601
7797337838.0,0.0030398817,0.0158579431,0.016146678918986173,1.3813993552845145
7797354354.0,0.0031404559,0.0158261336,0.016134713136120325,1.3749062040967597
7797370871.0,0.0032539591,0.0158236323,0.016154738901946887,1.3679843853624667
7797387387.0,0.0033372598,0.0158037386,0.01615225856373733,1.3626847641854392
7797403904.0,0.0034282829,0.0157757429,0.016143952046798606,1.3568098775066664
7797420420.0,0.0035392995,0.0157546494,0.016147309951432178,1.3498139862853815
7797436937.0,0.0036336383,0.0157332112,0.01614736083572273,1.3438226477774566
7797453453.0,0.0037308945,0.0156789082,0.016116691227238845,1.3371846635500386
7797469970.0,0.0038176652,0.0156575474,0.016116245163267335,1.3316400070586045
7797486486.0,0.0039197417,0.0156488669,0.016132309513787368,1.325365137121666
7797503003.0,0.0040212918,0.0156125251,0.016122088194116705,1.3187073246301306
7797519520.0,0.0041098145,0.015593594,0.016126089081399935,1.3130985737513556
7797536036.0,0.0041996645,0.0155454203,0.01610271015128237,1.3069405405657164
7797552553.0,0.0043187302,0.0155236026,0.01611315202631437,1.2994537180740142
7797569069.0,0.0044088671,0.015491861,0.0161070129555043,1.2935341184690246
7797585586.0,0.0044995129,0.0154721598,0.016113142003160105,1.2877886788058561
7797602102.0,0.0045932567,0.0154197443,0.016089329426345816,1.2812842335188739
7797618619.0,0.0046729497,0.0154007376,0.01609407274504449,1.2762014360534932
7797635135.0,0.0047774957,0.0153591095,0.016084983984962768,1.2692303466487476
7797651652.0,0.0048679918,0.0153127671,0.016067923961225035,1.2629957317218177
7797668168.0,0.0049586634,0.0152970909,0.016080713066197107,1.2573268265444646
7797684685.0,0.0050449267,0.0152582432,0.016070633807000866,1.2514752035689891
7797701201.0,0.0051557507,0.0152257044,0.016074944471342036,1.2442940062478902
7797717718.0,0.0052381021,0.0151662872,0.01604537257413826,1.2382450119686133
7797734234.0,0.0053523742,0.0151786325,0.01609468216980012,1.2317843717165127
7797750751.0,0.0054203011,0.0151329014,0.01607433882922664,1.226852958921001
7797767267.0,0.0055333136,0.0150732964,0.016056831062142927,1.2189750747162909
7797783784.0,0.0056141395,0.01503259,0.0160467231680976,1.2133724811876399
7797800300.0,0.0057051262,0.0150071446,0.016054994674656094,1.207508924476668
7797816817.0,0.0057972887,0.0149831426,0.016065588020457964,1.201615767674703
7797833333.0,0.0059012437,0.0149273572,0.016051500558613874,1.1943216125841736
7797849850.0,0.0059918987,0.0148866641,0.016047293169170012,1.1881356888539356
7797866366.0,0.0060621403,0.0148730846,0.01606107687970023,1.1837628804520257
7797882883.0,0.0061621055,0.0148062707,0.016037368744117868,1.1764181249296286
7797899399.0,0.0062670002,0.0147664548,0.016041305397854724,1.1694272929194047
7797915916.0,0.006340271,0.0147099239,0.016018142760546,1.1638377779743485
7797932432.0,0.006443555,0.0146742144,0.01602660192602263,1.1570375846170535
7797948949.0,0.0065295496,0.0146427366,0.016032615292454307,1.1513370611249876
7797965465.0,0.006596269,0.0145790621,0.01600186915444622,1.1459084218358202
7797981982.0,0.0066952123,0.0145485866,0.016015219005676158,1.1394952079515541
7797998498.0,0.0067728334,0.0144947365,0.015999020547164376,1.1336807590997657
7798015015.0,0.0068803927,0.0144586173,0.016012227138473667,1.1266400522424822
7798031532.0,0.0069757338,0.0144061369,0.016006175134303764,1.119852549913697
7798048048.0,0.0070418013,0.0143603845,0.015993986636749512,1.11488799300776
7798064565.0,0.0071415388,0.0142975627,0.01598192340090318,1.107554046593826
7798081081.0,0.0072104725,0.0142775592,0.015994987039155764,1.1031396960440418
7798097598.0,0.0073098222,0.0142198481,0.01598867038195129,1.0959659200320695
7798114114.0,0.0073993152,0.0141511359,0.015968860719826568,1.0890144112829558
7798130631.0,0.0074952809,0.0141170845,0.01598346991582382,1.0827066020572496
7798147147.0,0.0075432771,0.014051929,0.015948596741670578,1.0781327864405548
7798163664.0,0.007648659,0.0140158328,0.015967014547993524,1.0712484106271487
7798180180.0,0.0077411241,0.0139644312,0.015966538168029232,1.0646227157504815
7798196697.0,0.0078222869,0.0139140688,0.015962126516133275,1.0586458516747188
7798213213.0,0.0078948623,0.0138526445,0.015944422547691763,1.0527901904657402
7798229730.0,0.0079830211,0.0138074008,0.01594907341305086,1.0465831786929514
7798246246.0,0.00806623,0.0137227075,0.01591781290075544,1.0393944940811963
7798262763.0,0.0081530016,0.0136908496,0.015934578684716542,1.033686792192345
7798279279.0,0.0082313187,0.0136371635,0.01592880522408074,1.0277379050289053
7798295796.0,0.0083139274,0.0135817974,0.015924402953552685,1.0214999679134056
7798312312.0,0.0083952204,0.0135318696,0.015924547730971208,1.015509129361244
7798328829.0,0.0084741671,0.0134759376,0.015918932195276674,1.0094426344610903
7798345345.0,0.0085569111,0.0134078565,0.01590570160344697,1.0027602321678246
7798361862.0,0.0086395427,0.0133732025,0.015921188497443575,0.9972142523254629
7798378378.0,0.008720659,0.0133060912,0.01590917837026785,0.9906423871404598
7798394895.0,0.0088004477,0.0132873895,0.015937459002147915,0.9858119294059745
7798411411.0,0.0088902488,0.0131770279,0.01589561537038689,0.9772680097774705
7798427928.0,0.0089543575,0.0131319373,0.015894284994580208,0.972337724464982
7798444444.0,0.0090494083,0.0130601647,0.015888980224395617,0.9648503302579078
7798460961.0,0.0091248261,0.0130038532,0.015885926142419002,0.9589291842175885
7798477477.0,0.0092230938,0.0129391238,0.015889820136028125,0.9515268906200707
7798493994.0,0.0092647641,0.0128806834,0.015866564173748657,0.9472503746158654
7798510511.0,0.0093517037,0.0128248504,0.01587233914314377,0.9407496761642427
7798527027.0,0.0094372984,0.0127441951,0.015858029822065117,0.9333917470138596
7798543544.0,0.0095189323,0.0126817987,0.015856799500507817,0.9269126300684165
7798560060.0,0.0095664331,0.0126367944,0.015849454721366504,0.9228111471351019
7798576577.0,0.009653161,0.0125774243,0.015854813758418972,0.9161895789134618
7798593093.0,0.0097377058,0.0125032982,0.015847882512357192,0.909109721938423
7798609610.0,0.009805718,0.0124315477,0.015833366152303158,0.9029362840530905
7798626126.0,0.0098887709,0.0123688892,0.015835946765336246,0.8963680319681525
7798642643.0,0.0099763339,0.0123041087,0.01584040179369529,0.8894966525486814
7798659159.0,0.0099999148,0.0122280176,0.015796287868773753,0.8853033140738459
7798675676.0,0.0100871737,0.0121876429,0.015820547168536623,0.8794180776176711
7798692192.0,0.0101631161,0.0120885162,0.015793072936567527,0.8717116649957566
7798708709.0,0.0102404366,0.0120338227,0.01580124775242939,0.8657386983450259
7798725225.0,0.0103282058,0.0119791046,0.01581678798191639,0.8592705675436872
7798741742.0,0.0103774583,0.0118985869,0.015788223807163698,0.8535777209071246
7798758258.0,0.0104560329,0.0118335634,0.015791195228598183,0.8471211617837445
7798774775.0,0.0105183345,0.0117683642,0.015783844797695266,0.8414280559289999
7798791291.0,0.0105943139,0.0117099206,0.01579119145188347,0.8353742234636625
7798807808.0,0.0106413443,0.0116403961,0.015771399109655353,0.8302053955876826
7798824324.0,0.0107351898,0.0115698219,0.015783063037311345,0.8227997524149228
7798840841.0,0.0107928969,0.0114755463,0.015753564243607646,0.816044027267558
7798857357.0,0.0108534866,0.0114142506,0.01575065992699925,0.8105756432418127
7798873874.0,0.0109464158,0.0113308735,0.0157547679494016,0.8026542816626564
7798890390.0,0.011005225,0.011265389,0.015748776670647977,0.7970795730929321
7798906907.0,0.0110742336,0.0111876267,0.01574171658383932,0.7904917233171216
7798923423.0,0.0111290051,0.0111265178,0.015737031259724397,0.7852864023752149
7798939940.0,0.0111939469,0.0110533021,0.01573149498661472,0.7790763513676798
7798956456.0,0.0112557481,0.0109782341,0.015723024176190037,0.7729172867064863
7798972973.0,0.0113072077,0.0109016912,0.015706680648408713,0.7671410023960435
7798989489.0,0.0113884396,0.0108140017,0.015704750532576157,0.7595311982404771
7799006006.0,0.0114490301,0.0107367279,0.015695783390112912,0.7533029065637009
7799022523.0,0.0115302751,0.0106771931,0.015714633192549152,0.7470028476170524
7799039039.0,0.0115644394,0.0106170364,0.015698971958545478,0.7427126571377999
7799055556.0,0.0116458251,0.0105400791,0.015707275692940736,0.7355993459053802
7799072072.0,0.0117022459,0.0104567992,0.01569354034669002,0.7292523446851296
7799088589.0,0.0117438128,0.0103667182,0.015664800838812318,0.7231962148826163
7799105105.0,0.0117932037,0.0103020508,0.015659243410697538,0.7180128694893403
7799121622.0,0.011888538,0.0102184698,0.015676557684356475,0.7099966428093752
7799138138.0,0.0119578324,0.0101461254,0.015682270764752627,0.7036179539892383
7799154655.0,0.0119873864,0.0100590316,0.01564869162047433,0.6981522654494676
7799171171.0,0.0120459162,0.0099743254,0.01563941380878796,0.6915975772965676
7799187688.0,0.0121161676,0.009932315,0.01566692051969738,0.6866724209693332
7799204204.0,0.0121616454,0.0098371748,0.015642110691370784,0.6801253645368995
7799220721.0,0.0122253102,0.0097553674,0.015640505189897378,0.673498743573322
7799237237.0,0.0122586564,0.0096656403,0.015610869903443724,0.667673698165169
7799253754.0,0.0123451663,0.0095988875,0.015637831442124956,0.6608963556744761
7799270270.0,0.0123919776,0.0095142396,0.015623119535006762,0.6547798329617605
7799286787.0,0.0124353718,0.0094216769,0.015601489269048285,0.6483800495582455
7799303303.0,0.01250876,0.0093452644,0.015614193653324124,0.6416409745209464
7799319820.0,0.0125404069,0.0092751611,0.015597769669043098,0.6368260497700866
7799336336.0,0.0126037004,0.0091861062,0.015596083190680878,0.6298219092935836
7799352853.0,0.0126620883,0.0091097849,0.015598610868960895,0.6236631014823713
7799369369.0,0.0127043777,0.0090347016,0.015589324736668355,0.6181691857564027
7799385886.0,0.0127606697,0.008935335,0.015578026279176803,0.6108766953412382
7799402402.0,0.0128058579,0.0088761749,0.015581286128249569,0.6061029994613272
7799418919.0,0.0128528559,0.0087683242,0.015558901441376588,0.598685118856001
7799435435.0,0.0128968142,0.0086955081,0.015554410230750867,0.5932252429591748
7799451952.0,0.0129533157,0.008596955,0.015546575921915782,0.5859373355821643
7799468468.0,0.0130095084,0.0085067718,0.015543888679057946,0.5791041412356127
7799484985.0,0.0130565082,0.0084217335,0.01553698817408604,0.5728677010948404
7799501502.0,0.0130892961,0.0083584318,0.01553039131988394,0.5682980595982929
7799518018.0,0.0131312017,0.0082672203,0.015516938795226812,0.5618902932948743
7799534535.0,0.0131811967,0.0081537302,0.015499266518725425,0.5539751511359032
7799551051.0,0.013223739,0.0080714013,0.015492410789988842,0.5480111566166315
7799567568.0,0.0132787577,0.0079908223,0.01549769812215629,0.5417235084170557
7799584084.0,0.0133141645,0.0079172046,0.01549029066903915,0.5364728767756353
7799600601.0,0.0133437783,0.0078371357,0.015475048151775339,0.5310475747186049
7799617117.0,0.0134161994,0.0077266426,0.015482099735135901,0.5225245721039464
7799633634.0,0.0134488569,0.0076589888,0.015476816899970196,0.5176834690857889
7799650150.0,0.0134908935,0.0075706545,0.015469939139722319,0.5113768570047709
7799666667.0,0.0135211997,0.0074846518,0.015454541529742101,0.5055641829495751
7799683183.0,0.0135790017,0.0073896604,0.015459507365887538,0.4983774962028422
7799699700.0,0.0135885021,0.0073133089,0.015431522166932322,0.49373728602645356
7799716216.0,0.013659667,0.0072101858,0.015445817615827615,0.48567460422247316
7799732733.0,0.0136766999,0.0071415781,0.015429007029393033,0.4812268006679473
7799749249.0,0.0137408941,0.0070378908,0.015438396211399015,0.4733486550180768
7799765766.0,0.0137729605,0.0069605906,0.015431923484626556,0.4679430240265432
7799782282.0,0.0137997105,0.0068434079,0.01540338409472388,0.46036987893884734
7799798799.0,0.0138330912,0.00676685,0.0153995022994257,0.45495294475785847
7799815315.0,0.0138719372,0.0066870615,0.01539959198113788,0.4491902757031372
7799831832.0,0.0138842041,0.0065968489,0.015371712295638636,0.4435571614486947
7799848348.0,0.0139558169,0.0065218546,0.015404525723626376,0.4371648301537886
7799864865.0,0.0139640232,0.0064259933,0.015371640570276913,0.43128901441669015
7799881381.0,0.0140013984,0.0063312589,0.015366326705310927,0.42467165558063386
7799897898.0,0.0140336873,0.0062506627,0.01536278501520322,0.4190254558072178
7799914414.0,0.0140598663,0.0061497365,0.015345979909843098,0.4123235775028314
7799930931.0,0.0140899901,0.0060635994,0.015339330451547693,0.40639173728041955
7799947447.0,0.0141301946,0.0059774477,0.015342499158875793,0.40019794444959705
7799963964.0,0.0141483537,0.0058830482,0.015322733716404097,0.39406223734584295
7799980480.0,0.0141697991,0.0057799148,0.015303287935264757,0.3873013675871422
7799996997.0,0.0142050205,0.0056900785,0.01530227436499498,0.38099604848795066
7800013514.0,0.014243843,0.0055983351,0.015304522838054804,0.37448806510529675
7800030030.0,0.014265973,0.005500022,0.015289480947279178,0.3679740909416056
7800046547.0,0.014273927,0.0054217491,0.015268934321185609,0.36300355871008283
7800063063.0,0.0143254036,0.0053113914,0.015278352885926116,0.3550546673772965
7800079580.0,0.0143374734,0.005224393,0.015259666631815931,0.3494340657244121
7800096096.0,0.0143631221,0.005133071,0.015252793001629223,0.34323290930635536
7800112613.0,0.0143878744,0.0050430476,0.015246089952707256,0.3371262269339752
7800129129.0,0.014414582,0.0049544535,0.01524226963802918,0.33106139040562893
7800145646.0,0.0144332556,0.0048556534,0.01522813964855402,0.32452706960233724
7800162162.0,0.0144442353,0.0047767741,0.015213596031320041,0.31938277184901276
