frequency	Re(S21)	Im(S21)	Amplitude	phase
7808998498.0	-0.0154869305	-0.0070121998	0.017000469474310123	-2.7164278151738093
7809015015.0	-0.0155298103	-0.0069088785	0.016997282432252174	-2.7230059350151152
7809031532.0	-0.0155776961	-0.0068275984	0.017008254340044358	-2.7285166312090645
7809048048.0	-0.0156188403	-0.006715541	0.017001372392827147	-2.735524872650697
7809064565.0	-0.0156988277	-0.006608372	0.01703302003887365	-2.743160067174298
7809081081.0	-0.0157197749	-0.0065137839	0.01701589561564625	-2.7487610951921946
7809097598.0	-0.0157436884	-0.006435976	0.01700839532433529	-2.753525549045753
7809114114.0	-0.0157916265	-0.0063012211	0.01700237791800275	-2.761928860548093
7809130631.0	-0.0158331302	-0.0062129006	0.017008472764937846	-2.767656198969752
7809147147.0	-0.0158808705	-0.0060922303	0.017009330317975732	-2.7752856316802115
7809163664.0	-0.015922202	-0.0059796293	0.017008012320498315	-2.7823373281520825
7809180180.0	-0.0159562647	-0.0059008393	0.01701241569033894	-2.7873769411213436
7809196697.0	-0.0160040107	-0.0057817	0.017016357229904248	-2.7949170472356206
7809213213.0	-0.016033531	-0.0057115913	0.017020469779245127	-2.79938039112416
7809229730.0	-0.0160908033	-0.0055950331	0.017035796025703834	-2.8069538401932177
7809246246.0	-0.016102566	-0.0054947945	0.017014270433421064	-2.812745567551267
7809262763.0	-0.0161431081	-0.0054014387	0.0170227929306017	-2.8187050546815957
7809279279.0	-0.0161711859	-0.0052827439	0.017012190820859786	-2.8258453059339774
7809295796.0	-0.0162129152	-0.0052096344	0.01702935435840286	-2.830687162750336
7809312312.0	-0.0162648676	-0.0050671219	0.017035892767770917	-2.839584573655069
7809328829.0	-0.0162847585	-0.004983504	0.01703022816997289	-2.8446197452213946
7809345345.0	-0.0162956214	-0.0048840804	0.017011805258872505	-2.8503951947326067
7809361862.0	-0.0163219822	-0.0047623146	0.017002551081719768	-2.857700500270634
7809378378.0	-0.0163850985	-0.0046536148	0.01703313193636101	-2.864864677259091
7809394895.0	-0.0163998455	-0.004549623	0.01701922447898256	-2.8709792363442177
7809411411.0	-0.0164316215	-0.0044383769	0.01702049865972545	-2.8777765028065247
7809427928.0	-0.0164572572	-0.0043579792	0.017024491101192554	-2.882728273083442
7809444444.0	-0.0164684932	-0.0042486421	0.017007710838685453	-2.8891119124052818
7809460961.0	-0.0165143724	-0.0041277181	0.017022413238990217	-2.896663858520769
7809477477.0	-0.0165508617	-0.0040358575	0.017035820167307272	-2.902414548063893
7809493994.0	-0.0165686102	-0.0039250637	0.017027183237652718	-2.908983181962289
7809510511.0	-0.0165935287	-0.0038097932	0.017025267074101652	-2.9159088382826814
7809527027.0	-0.0166110222	-0.003719791	0.01702242355284857	-2.9212920245218945
7809543544.0	-0.016638015	-0.0036209931	0.01702748173308292	-2.9273005052374637
7809560060.0	-0.0166479553	-0.0035139325	0.01701476233408373	-2.9335730808559277
7809576577.0	-0.0166850359	-0.0034063838	0.017029206487009053	-2.9402022185872685
7809593093.0	-0.0166960205	-0.0033014412	0.017019301235170547	-2.9463728351937952
7809609610.0	-0.0167368233	-0.0031922025	0.01703852725373966	-2.9531269170487042
7809626126.0	-0.0167564561	-0.0030716092	0.017035656844065387	-2.9602964219971786
7809642643.0	-0.0167831748	-0.0029784444	0.01704541250340532	-2.965955183611829
7809659159.0	-0.0168044067	-0.0028793706	0.017049306718783297	-2.971894437040516
7809675676.0	-0.0168261512	-0.0027727523	0.017053079473292113	-2.9782721629217646
7809692192.0	-0.0168273131	-0.0026623149	0.01703661899533454	-2.984679388260193
7809708709.0	-0.0168518956	-0.0025492839	0.017043627363800776	-2.991455219074164
7809725225.0	-0.016851794	-0.0024315392	0.017026313279731836	-2.9982920394011705
7809741742.0	-0.0168703983	-0.0023312068	0.01703070356576642	-3.004278961590989
7809758258.0	-0.016890061	-0.0022090574	0.017033910155340604	-3.0115404892698208
7809774775.0	-0.016883194	-0.0020993354	0.017013213945734334	-3.0178829465462154
7809791291.0	-0.0169025087	-0.0020131819	0.01702197702137044	-3.023045613959992
7809807808.0	-0.0169245614	-0.0019066148	0.017031616440548118	-3.0294118950236886
7809824324.0	-0.0169462567	-0.0017750248	0.017038965026752943	-3.0372288556944746
7809840841.0	-0.0169496743	-0.0016855701	0.017033279350673915	-3.0424729672205286
7809857357.0	-0.0169439226	-0.0016112376	0.01702035838866046	-3.0467853737711
7809873874.0	-0.0169774787	-0.0014748036	0.01704141510167294	-3.054941940306369
7809890390.0	-0.0169572264	-0.0013720632	0.017012644844516422	-3.0608553560182434
7809906907.0	-0.0169876734	-0.0012605832	0.01703438045686399	-3.0675226507852043
7809923423.0	-0.0169970987	-0.0011492784	0.017035909281815524	-3.0740792661339347
7809939940.0	-0.0169965001	-0.0010452693	0.017028611322090315	-3.080170920178208
7809956456.0	-0.0170112694	-0.0009530533	0.017037945803177603	-3.0856263403405557
7809972973.0	-0.0170065451	-0.0008263548	0.01702660971813875	-3.0930404422925086
7809989489.0	-0.0170383898	-0.0007104375	0.01705319466898066	-3.0999205108679404
7810006006.0	-0.0170215298	-0.0006132859	0.0170325745654445	-3.105578221731984
7810022523.0	-0.0170065114	-0.0005096597	0.017014146555385436	-3.111633116730562
7810039039.0	-0.017043516	-0.0003969234	0.017048137312554813	-3.1183080412089192
7810055556.0	-0.0170045125	-0.0002615399	0.017006523703624682	-3.1262132488971672
7810072072.0	-0.0170158914	-0.000168424	0.017016724913459992	-3.1316949352670247
7810088589.0	-0.0170388151	-6.56788e-05	0.017038941684176204	-3.1377380149706298
7810105105.0	-0.0170425987	3.71602e-05	0.017042639212566397	-3.1437730805167163
7810121622.0	-0.0170214651	0.0001345261	0.017021996693164385	-3.1494958098909716
7810138138.0	-0.0170469496	0.0002419573	0.017048666634079144	-3.1557852839182865
7810154655.0	-0.017023811	0.0003405896	0.01702721768931581	-3.161596644982428
7810171171.0	-0.0169944589	0.0004779537	0.017001178578061372	-3.1697093325487486
7810187688.0	-0.0170348935	0.000557759	0.017044022167857657	-3.174323108479671
7810204204.0	-0.0170115027	0.0006870953	0.017025372949318596	-3.181960753056355
7810220721.0	-0.0170154099	0.0007983666	0.017034129367038797	-3.188478476952919
7810237237.0	-0.0170242413	0.0008926851	0.017047629704108065	-3.193980790699934
7810253754.0	-0.0169878827	0.0010099193	0.017017875767012518	-3.20097215790831
7810270270.0	-0.0169878001	0.0011026928	0.01702355085311909	-3.2064125828445675
7810286787.0	-0.0169752903	0.0012425271	0.017020703697659168	-3.2146585723769583
7810303303.0	-0.0170081352	0.0013208999	0.01705935050133208	-3.219099903976846
7810319820.0	-0.0169749635	0.0014033839	0.01703287621622113	-3.2240788159949947
7810336336.0	-0.0169620025	0.0015490988	0.01703259334048012	-3.232667593297011
7810352853.0	-0.0169687414	0.0016388568	0.017047698856765985	-3.237874953365761
7810369369.0	-0.0169450741	0.0017515459	0.017035358795584484	-3.2445929367498416
7810385886.0	-0.0169285868	0.0018588404	0.017030335835731672	-3.250959328175931
7810402402.0	-0.0169087659	0.0019575122	0.017021698454447832	-3.2568486514223247
7810418919.0	-0.0168992905	0.0020651116	0.017025002358996746	-3.263190848651368
7810435435.0	-0.0168826924	0.0021984106	0.01702522575002194	-3.271080873176678
7810451952.0	-0.0168993002	0.0022930888	0.0170541667487569	-3.2764602914947027
7810468468.0	-0.0168753831	0.0023962798	0.017044668129701252	-3.2826481786358874
7810484985.0	-0.0168377038	0.0024935922	0.017021347517644874	-3.2886197257427283
7810501502.0	-0.0168173694	0.002616882	0.017019752787216985	-3.2959605898951527
7810518018.0	-0.0168022276	0.0027088894	0.017019193109652234	-3.301439224163218
7810534535.0	-0.0167714149	0.0028100669	0.017005200196716815	-3.3076016144541365
7810551051.0	-0.0167840634	0.0029098145	0.0170344299769505	-3.3132540878667207
7810567568.0	-0.0167803173	0.0030062349	0.017047477730229105	-3.3188645162552666
7810584084.0	-0.0167311586	0.0031517373	0.017025425577839905	-3.3277860583000374
7810600601.0	-0.0167152176	0.0032382953	0.017026011155445418	-3.3329554026742487
7810617117.0	-0.0166876601	0.0033410045	0.017018822247210654	-3.339188288789072
7810633634.0	-0.0166657484	0.0034482009	0.01701873259613839	-3.3456172516884464
7810650150.0	-0.0166359501	0.0035434327	0.017009137280565387	-3.3514549765980086
7810666667.0	-0.0166298866	0.0036569496	0.017027225514034863	-3.358049726189141
7810683183.0	-0.0166028723	0.0037648147	0.017024370717751758	-3.3645786420429102
7810699700.0	-0.016587961	0.003879769	0.01703564080482099	-3.371353063328383
7810716216.0	-0.0165597067	0.0039633647	0.017027393979562197	-3.3765114587481406
7810732733.0	-0.0165388777	0.004088574	0.01703675183035291	-3.3839436039962556
7810749249.0	-0.0164965847	0.0041901387	0.01702041624313318	-3.3903328172142837
7810765766.0	-0.0164795466	0.0042794986	0.017026143556571272	-3.3956660638861003
7810782282.0	-0.0164382229	0.0043710174	0.0170094375339453	-3.4014844780168745
7810798799.0	-0.0164022916	0.0044946025	0.017006958027949524	-3.4090501783430365
7810815315.0	-0.0163774349	0.004569028	0.017002834786250264	-3.4136581618617616
7810831832.0	-0.0163602443	0.0046961609	0.017020914216174503	-3.421124115163659
7810848348.0	-0.0163304147	0.0047994044	0.017021067148352227	-3.427437875820314
7810864865.0	-0.0163064343	0.004894627	0.017025192305796296	-3.433201163225125
7810881381.0	-0.0162678329	0.0049994264	0.01701871474557757	-3.4397512164365245
7810897898.0	-0.0162391298	0.0050933827	0.017019162258757256	-3.4455237239439622
7810914414.0	-0.016221472	0.0052063633	0.017036501185935183	-3.452161691715806
7810930931.0	-0.0161830603	0.0052989007	0.017028499326185397	-3.4580253676449075
7810947447.0	-0.0161484679	0.0054128368	0.017031494876867524	-3.4650150490134153
7810963964.0	-0.0160942437	0.0055165057	0.01701342162567901	-3.471805456890015
7810980480.0	-0.0160753937	0.0056352724	0.017034511370514902	-3.4787597564843113
7810996997.0	-0.0160289083	0.0057282373	0.017021709780598426	-3.484817271827354
7811013514.0	-0.0160084554	0.0058015165	0.01702727923050425	-3.489274138751975
7811030030.0	-0.0159441129	0.0058940504	0.016998663661761376	-3.4956817369297073
7811046547.0	-0.0159299739	0.0060156717	0.017027987974416185	-3.5026690401935068
7811063063.0	-0.015889208	0.0061139769	0.017024912463827754	-3.5089168680499094
7811079580.0	-0.0158426248	0.0062084151	0.017015674497576728	-3.5150798900415
7811096096.0	-0.0158144339	0.0063074173	0.017025857763232035	-3.5210980025821517
7811112613.0	-0.0157694451	0.0064157869	0.017024621003362328	-3.5279895752758637
7811129129.0	-0.0157207695	0.0064910152	0.017008111946914074	-3.5331650995223436
7811145646.0	-0.0156704056	0.0066006438	0.017003826341238308	-3.5402548465046055
7811162162.0	-0.0156403901	0.0067059258	0.01701738062438763	-3.5466411545369683
7811178679.0	-0.0156017789	0.0068014788	0.017019859538531294	-3.5526950853985486
7811195195.0	-0.0155559883	0.0069157431	0.017023991148227682	-3.559922756600832
7811211712.0	-0.0155174829	0.0069895467	0.01701899052891426	-3.5648044789801405
7811228228.0	-0.0154515863	0.007077296	0.016995282811944134	-3.5711045466370988
7811244745.0	-0.0154282785	0.0072002559	0.01702572942634315	-3.5782407092775665
7811261261.0	-0.0153698307	0.0072868244	0.01700968857983878	-3.5843057594399688
7811277778.0	-0.0153027116	0.0073786525	0.016988746128791577	-3.590882426803503
7811294294.0	-0.0152751174	0.007479967	0.017008207368940202	-3.596952739276731
7811310811.0	-0.0152116117	0.0075620912	0.016987594115374146	-3.6029386061075233
7811327327.0	-0.0151817882	0.0076533607	0.017001782934562004	-3.608526501824914
7811343844.0	-0.0151629012	0.0077649494	0.017035492713318327	-3.614874786121567
7811360360.0	-0.0150798407	0.0078366263	0.016994537572503354	-3.6208566131414814
7811376877.0	-0.0150351129	0.0079512571	0.017008148323261023	-3.628049758699374
7811393393.0	-0.0149821361	0.0080357927	0.017001128387148203	-3.6339020809073634
7811409910.0	-0.0149456776	0.0081144998	0.017006421902544398	-3.638993867070039
7811426426.0	-0.0148720868	0.0082149065	0.016990104607990986	-3.646254234926208
7811442943.0	-0.0148362942	0.0083031363	0.01700169691546498	-3.6518147105766943
7811459459.0	-0.01478613	0.0083893044	0.017000296135443033	-3.657678885298296
7811475976.0	-0.0147401507	0.0084903067	0.01701050706236517	-3.6641771111096175
7811492492.0	-0.0146959843	0.0085794336	0.017017010179307512	-3.6700110546298004
7811509009.0	-0.0146028902	0.0086823502	0.016989043739678113	-3.678005375550926
7811525526.0	-0.0145540451	0.0087669821	0.01699059162932693	-3.683756102394587
7811542042.0	-0.0145054926	0.0088651463	0.017000003955560082	-3.6901761170354805
7811558559.0	-0.0144563805	0.0089408461	0.01699781356953492	-3.695482874577051
7811575075.0	-0.0143834407	0.0090281059	0.01698205118682756	-3.702112242677816
7811591592.0	-0.014330043	0.0091304283	0.01699161126330549	-3.708883432626734
7811608108.0	-0.0142886788	0.0092286986	0.01700985654552123	-3.715062492065458
7811624625.0	-0.0142235613	0.0093124133	0.01700090402081238	-3.7212770143222795
7811641141.0	-0.014143196	0.0094117942	0.016988580374992186	-3.728762493986022
7811657658.0	-0.0141230049	0.0094628924	0.017000164704478654	-3.731922814181827
7811674174.0	-0.0140203023	0.0095691573	0.01697461775756758	-3.7404914890098526
7811690691.0	-0.0139763607	0.0096426093	0.016979946187457455	-3.74552330050493
7811707207.0	-0.0139404413	0.0097527831	0.017013308961938922	-3.7520525368773034
7811723724.0	-0.0138548009	0.0098278968	0.016986555374474573	-3.7585659620278036
7811740240.0	-0.0138064708	0.0099215204	0.017001623540087833	-3.7647021694685097
7811756757.0	-0.0137318992	0.0100010483	0.01698781983474906	-3.7710655528543904
7811773273.0	-0.0136598109	0.010075178	0.016973498329909565	-3.7770962603710743
7811789790.0	-0.0136126373	0.0101542475	0.01698271581793111	-3.7824920330530323
7811806306.0	-0.0135274086	0.0102427922	0.016967780511420307	-3.7896782672591103
7811822823.0	-0.0134749563	0.0103521628	0.016992401888038477	-3.796673105801119
7811839339.0	-0.0133888499	0.0104323691	0.016973379942821193	-3.8035110141615474
7811855856.0	-0.0133522538	0.0105090869	0.01699186832021029	-3.808396266013583
7811872372.0	-0.0132737702	0.0105866196	0.016978500813602835	-3.8148436248862843
7811888889.0	-0.0132224826	0.0106701528	0.016990768284060924	-3.8205694450070697
7811905405.0	-0.0131401679	0.010751611	0.016978255255929903	-3.8273478990037058
7811921922.0	-0.0130949518	0.0108296552	0.016992916006242434	-3.832587462218888
7811938438.0	-0.0130003876	0.0109125632	0.016973335362981196	-3.8399022999175867
7811954955.0	-0.0129494247	0.0109962933	0.016988409766679015	-3.845606023426655
7811971471.0	-0.0128950742	0.0110722305	0.01699638864196262	-3.8510815243981478
7811987988.0	-0.01277709	0.0111764505	0.016975484518771483	-3.860267343104457
7812004505.0	-0.012722866	0.0112332013	0.016972216434522562	-3.86488758983984
7812021021.0	-0.0126640914	0.0113091951	0.016978725063956306	-3.8705339572967787
7812037538.0	-0.0126047518	0.0113696501	0.016974943632779262	-3.875518802543356
7812054054.0	-0.0125229531	0.0114521472	0.01696985650603055	-3.8823572296005806
7812070571.0	-0.0124342716	0.0115351102	0.016960833633660542	-3.889495482690878
7812087087.0	-0.0123704711	0.0115999402	0.01695839520354185	-3.894856797399764
7812103604.0	-0.012305877	0.0116976253	0.016978487753575966	-3.9016561157436414
7812120120.0	-0.0122446042	0.0117572729	0.016975388009106952	-3.906689723557468
7812136637.0	-0.0121734406	0.0118305083	0.016975087118424378	-3.9127052936757654
7812153153.0	-0.0120471551	0.0119136934	0.016943141279959262	-3.9214208840268796
7812169670.0	-0.012015858	0.0120058993	0.01698594894252024	-3.926576247007823
7812186186.0	-0.0119351271	0.012062367	0.016969029333931962	-3.9322929834177773
7812202703.0	-0.0118587442	0.0121620361	0.016986610494702493	-3.9396163762176943
7812219219.0	-0.0117901127	0.0122109476	0.016973921137104622	-3.944523033285526
7812235736.0	-0.0116947145	0.0122971609	0.016970165392152164	-3.9520959751661144
7812252252.0	-0.0116090885	0.012346837	0.016947428114773084	-3.9577771627768437
7812268769.0	-0.011555499	0.0124136176	0.016959583103898244	-3.962776543912022
7812285285.0	-0.0114988248	0.0125178946	0.016997666222096613	-3.9693970611098117
7812301802.0	-0.0114032371	0.0125892951	0.01698599916029965	-3.9763850724469485
7812318318.0	-0.0113094875	0.0126652712	0.016979799824562294	-3.983481113248777
7812334835.0	-0.011232956	0.0126977588	0.016953240959796254	-3.988124699935535
7812351351.0	-0.0111619226	0.0127957699	0.016979995390521658	-3.995082575611438
7812367868.0	-0.0110594897	0.0128741066	0.016972181155425183	-4.002664849304429
7812384384.0	-0.0109933083	0.0129014421	0.016949927304814653	-4.006677492744217
7812400901.0	-0.0109217071	0.0129851416	0.016967545148024243	-4.01308887796135
7812417417.0	-0.0108431899	0.0130392791	0.01695870179745958	-4.018686977255994
7812433934.0	-0.0107606635	0.013128163	0.016974703022874987	-4.025773142702132
7812450450.0	-0.010675905	0.0131996847	0.01697664936754126	-4.032305170126012
7812466967.0	-0.0105942149	0.0132537792	0.016967617759418515	-4.038053413385824
7812483483.0	-0.0104981525	0.0133361677	0.016972465196187017	-4.045505437909119
7812500000.0	-0.0104454258	0.0133884955	0.01698112869914205	-4.049851276909385