frequency,Re(S21),Im(S21),Amplitude,phase
7989000000.0,0.0157255565,-0.0011376411,0.01576665324370082,-0.07221764554441489
7989005005.0,0.0156886703,-0.0012309092,0.015736883847850776,-0.07829808060269865
7989010010.0,0.0157130785,-0.0012836179,0.01576542136640701,-0.08151005557122745
7989015015.0,0.0157000131,-0.001351513,0.01575807725356557,-0.08587186193579001
7989020020.0,0.0156966459,-0.0013756733,0.015756813432236852,-0.0874178647676907
7989025025.0,0.015710937,-0.0014252344,0.015775450374328856,-0.09046844127148673
7989030030.0,0.0156692788,-0.0014726918,0.015738332797660515,-0.09371065425662485
7989035035.0,0.0156754063,-0.0015008722,0.015747094336124763,-0.09545595381412898
7989040040.0,0.0156785441,-0.0015490041,0.015754877301885333,-0.09847811551848452
7989045045.0,0.0156684464,-0.0015860111,0.01574851243130589,-0.10087964592620745
7989050050.0,0.0156759851,-0.0016214907,0.015759623756473648,-0.10307132489122102
7989055055.0,0.0156218219,-0.0016518842,0.015708915967867713,-0.10535060511227
7989060060.0,0.0156465767,-0.0016845426,0.015736996098372705,-0.1072489496187644
7989065065.0,0.0156340942,-0.0017328288,0.015729831439166255,-0.11038598355264606
7989070070.0,0.0156238748,-0.0017558994,0.015722234143689482,-0.11191604489214153
7989075075.0,0.0156413262,-0.0018011041,0.015744683587606428,-0.11464540635738836
7989080080.0,0.0156116768,-0.0018356855,0.015719230062651558,-0.11704667853335068
7989085085.0,0.0155888995,-0.0018554537,0.01569893295908814,-0.11846670337036834
7989090090.0,0.0155975679,-0.0019373813,0.015717428883144344,-0.12357753957707547
7989095095.0,0.015605094,-0.0019450662,0.015725846281558854,-0.12400350099016802
7989100100.0,0.015577764,-0.0019881092,0.015704117594784517,-0.12693858431611402
7989105105.0,0.0155559752,-0.0020367137,0.015688740138034753,-0.13018753485958567
7989110110.0,0.0155694831,-0.0020575527,0.015704850432731374,-0.13139156154823078
7989115115.0,0.015558476,-0.0021025139,0.015699896182531564,-0.13432252405084288
7989120120.0,0.0155320782,-0.0021326042,0.015677801309009275,-0.13645001921520483
7989125125.0,0.015540887,-0.0021257434,0.01568559701603393,-0.1359402990754888
7989130130.0,0.0155233776,-0.0021627755,0.015673316495738294,-0.1384326499212611
7989135135.0,0.0155073845,-0.0022512546,0.015669943245106583,-0.1441659226935956
7989140140.0,0.0155305319,-0.0022785959,0.015696796500318605,-0.1456778333421936
7989145145.0,0.0154905276,-0.0022947995,0.015659583330074972,-0.1470724504712995
7989150150.0,0.0154976114,-0.002315533,0.015669641099256195,-0.1483150821811305
7989155155.0,0.0154865572,-0.002369125,0.01566672292390776,-0.15180255366944134
7989160160.0,0.0154602692,-0.0023998302,0.0156454181383976,-0.1539966399645803
7989165165.0,0.0154646259,-0.002419814,0.01565280019745818,-0.15521553028021245
7989170170.0,0.0154583531,-0.0024909431,0.01565776095397159,-0.15976560483392852
7989175175.0,0.0154276504,-0.0024933626,0.015627835868081637,-0.1602309975694276
7989180180.0,0.015412131,-0.0025246691,0.015617545774725804,-0.16236843746814503
7989185185.0,0.0154234609,-0.0025583262,0.01563419902263737,-0.16437576061672388
7989190190.0,0.0153888855,-0.0026062681,0.0156080245496087,-0.1677684754808714
7989195195.0,0.0154067616,-0.0026482976,0.01563271515692013,-0.17022834509521528
7989200200.0,0.015382211,-0.0026597763,0.015610471652533842,-0.17121946466351357
7989205205.0,0.0154061142,-0.0027080354,0.015642308348549287,-0.17399915495161983
7989210210.0,0.0153742543,-0.0027463049,0.015617614602903751,-0.176765733815455
7989215215.0,0.0153547911,-0.0027896503,0.015606144896191668,-0.17971922290720277
7989220220.0,0.0153616107,-0.0028074907,0.015616052232524743,-0.18076520032015322
7989225225.0,0.0153489811,-0.0028473376,0.015610847261328612,-0.1834215762585394
7989230230.0,0.0153441251,-0.0028778743,0.015611673054834657,-0.185401517006403
7989235235.0,0.0153345047,-0.0029029082,0.01560685459700158,-0.18709169264048842
7989240240.0,0.0153233689,-0.0029455844,0.015603913031769005,-0.18991167843124365
7989245245.0,0.0152987254,-0.0029754619,0.015585389709049843,-0.1920927187611423
7989250250.0,0.0152715626,-0.0030044493,0.015564296959451437,-0.1942540758168697
7989255255.0,0.0152773444,-0.0030539084,0.01557958948213341,-0.19729734310694172
7989260260.0,0.0152785357,-0.0030889346,0.015587660828336356,-0.19948581760332856
7989265265.0,0.0152587941,-0.0030949205,0.015569500001204762,-0.2001139234106924
7989270270.0,0.0152458726,-0.0031387368,0.015565612742038297,-0.2030377088904314
7989275275.0,0.0152318859,-0.0031715135,0.015558561821431345,-0.20528237681471317
7989280280.0,0.0152100103,-0.0032269263,0.015548551915588082,-0.20905820522039742
7989285285.0,0.0152241761,-0.0032258891,0.01556219452420866,-0.20880409140362585
7989290290.0,0.0151881142,-0.0032793983,0.015538122993537042,-0.21265413026699742
7989295295.0,0.0151895503,-0.0033152673,0.015547135928738753,-0.2148897802800606
7989300300.0,0.0151710656,-0.0033772914,0.01554243638043976,-0.2190422436593351
7989305305.0,0.0151567152,-0.003386289,0.015530388560671368,-0.2198085400471246
7989310310.0,0.0151659778,-0.0034084803,0.015544279352404244,-0.22107188083342758
7989315315.0,0.015139232,-0.0034445466,0.015526147198496978,-0.2237160204649078
7989320320.0,0.015122978,-0.0035049571,0.015523826456815486,-0.22774281434004776
7989325325.0,0.015121456,-0.0034947291,0.015520037469101768,-0.2271229535690227
7989330330.0,0.0151129146,-0.0035531267,0.015524976555639175,-0.2309117709769216
7989335335.0,0.0151115814,-0.0035914306,0.015532490661946084,-0.23333201402361628
7989340340.0,0.0150974484,-0.0036236422,0.015526227197367794,-0.23556092498380315
7989345345.0,0.0150886508,-0.0036440836,0.015522458833835882,-0.23697372610926778
7989350350.0,0.0150526676,-0.0036901499,0.015498387276118755,-0.24040804940376154
7989355355.0,0.0150325639,-0.0037176099,0.015485431888590038,-0.2424394403934199
7989360360.0,0.0150480746,-0.0037643527,0.01551176651504149,-0.2451246401249263
7989365365.0,0.0149962897,-0.0037863508,0.015466905222021203,-0.24731690522246455
7989370370.0,0.0149895317,-0.0038053052,0.015465005924682083,-0.24861222037258437
7989375375.0,0.0149729489,-0.0038420966,0.015458036907891725,-0.25118309239083386
7989380380.0,0.0149629923,-0.003866844,0.015454566350764918,-0.25289427141051984
7989385385.0,0.0149751192,-0.0039315127,0.01548260272578451,-0.2567423096424243
7989390390.0,0.01494432,-0.0039449123,0.015456229595767892,-0.25808683354701106
7989395395.0,0.0149353178,-0.0039660887,0.015452947206383141,-0.2595605129064308
7989400400.0,0.014940011,-0.0039864119,0.015462710257797066,-0.26075292342850503
7989405405.0,0.0149330043,-0.0040273076,0.015466538847746004,-0.263424477880574
7989410410.0,0.0148948098,-0.0040985042,0.015448401071165706,-0.2685179722585432
7989415415.0,0.014862179,-0.0041108007,0.015420215531021656,-0.2698482328875157
7989420420.0,0.014870666,-0.0041307836,0.015433731902348988,-0.27094953757527257
7989425425.0,0.0148400891,-0.004162534,0.015412817192100048,-0.27346535901476837
7989430430.0,0.0148631617,-0.0042098949,0.015447873341965,-0.27601391954381926
7989435435.0,0.0148307179,-0.0042345722,0.015423417103430525,-0.2781266123516252
7989440440.0,0.0148285141,-0.0042490442,0.015425278183146405,-0.27906798456238846
7989445445.0,0.0148015577,-0.0043163734,0.015418079960703825,-0.2837475604809838
7989450450.0,0.0147784397,-0.0043254159,0.015398425331004106,-0.28473161741480923
7989455455.0,0.01476777,-0.004358729,0.015397582578714783,-0.28700268591292993
7989460460.0,0.014744796,-0.0044098525,0.015390120472347583,-0.2906112314536539
7989465465.0,0.0147508519,-0.0044167604,0.015397902591156427,-0.290928352538846
7989470470.0,0.0147171956,-0.0044595444,0.015378016210949667,-0.29422138146206694
7989475475.0,0.0147254426,-0.0045089885,0.015400312888348307,-0.2971387167469128
7989480480.0,0.0146987838,-0.0045381283,0.015383395388093078,-0.2994573324599723
7989485485.0,0.0146844984,-0.0045596832,0.015376124483886205,-0.3010708641889033
7989490490.0,0.0146719778,-0.0046023022,0.015376869580763754,-0.3039592891647596
7989495495.0,0.0146378143,-0.0046275168,0.015351857191088208,-0.30619249856720854
7989500501.0,0.0146465676,-0.0046672256,0.01537221315434655,-0.308483866166985
7989505506.0,0.0146168047,-0.0046985874,0.015353426431692074,-0.3110186653705206
7989510511.0,0.0146135019,-0.0047269485,0.015358986942599955,-0.3128424293440219
7989515516.0,0.0145981133,-0.0047444239,0.01534973843629031,-0.31423419631994465
7989520521.0,0.0145609859,-0.0048065706,0.015333800289321079,-0.3188370655420063
7989525526.0,0.0145429712,-0.0048287174,0.015323658931635491,-0.3205780048355551
7989530531.0,0.0145590355,-0.0048495676,0.015345482090740258,-0.321537626145624
7989535536.0,0.014516402,-0.0048658784,0.015310215531768014,-0.323428401802636
7989540541.0,0.0144949459,-0.0049016217,0.015301285956867734,-0.32608891445878607
7989545546.0,0.0144950102,-0.0049346967,0.01531197414506356,-0.3281338142640459
7989550551.0,0.0144995293,-0.0049558867,0.015323092471978212,-0.3293478654867144
7989555556.0,0.014456232,-0.0050264919,0.015305171167242448,-0.33462805887182634
7989560561.0,0.0144537015,-0.0050371467,0.015306284131964333,-0.33533984936560324
7989565566.0,0.0144194823,-0.005063876,0.015282810930695612,-0.3377282629638058
7989570571.0,0.0143960089,-0.005113571,0.01527722751748236,-0.34130650518372757
7989575576.0,0.0143994916,-0.0051216988,0.015283231233492216,-0.3417313662246266
7989580581.0,0.0143742387,-0.0051605524,0.015272525635196146,-0.3446823982506631
7989585586.0,0.0143422432,-0.0051929021,0.015253398710717906,-0.34738725380857893
7989590591.0,0.0143550944,-0.0052262918,0.015276873410867114,-0.34915594700157004
7989595596.0,0.0143102072,-0.0052769118,0.015252141759500895,-0.3532813994594933
7989600601.0,0.0143074392,-0.005308527,0.015260513601167742,-0.35528791201996646
7989605606.0,0.0142999017,-0.0053190735,0.015257120682752204,-0.3561078459767852
7989610611.0,0.0142612281,-0.005336011,0.015226806635416062,-0.3580358673736507
7989615616.0,0.0142413425,-0.0053983159,0.015230155966322179,-0.3623249089504716
7989620621.0,0.0142254974,-0.0053892564,0.015212128740657822,-0.3621372276365372
7989625626.0,0.0142151908,-0.0054487268,0.015223674760761374,-0.3660301617763376
7989630631.0,0.0142037062,-0.0054587562,0.015216546555212745,-0.36691574241256975
7989635636.0,0.0141841905,-0.0055197049,0.015220328587891074,-0.3711136189747992
7989640641.0,0.0141647397,-0.005539563,0.015209425005559055,-0.3727941659598709
7989645646.0,0.0141598838,-0.0055508016,0.015209000875536335,-0.3735986415795652
7989650651.0,0.0141272623,-0.0055863462,0.015191668899737637,-0.376560699870413
7989655656.0,0.0140995047,-0.0056397033,0.015185594690276472,-0.3805003497401049
7989660661.0,0.0140811771,-0.0056761187,0.015182156369174114,-0.3831756994245694
7989665666.0,0.0140650861,-0.0056812895,0.015169169304323275,-0.3838884431990578
7989670671.0,0.0140705878,-0.0057088383,0.015184606539948796,-0.38543495241826625
7989675676.0,0.014060423,-0.0057467624,0.015189495482766463,-0.3880001081663491
7989680681.0,0.014023448,-0.0058100448,0.01517938451936412,-0.3927807885334167
7989685686.0,0.0140030316,-0.0058202544,0.015164440486589603,-0.39391809947643924
7989690691.0,0.0139714867,-0.0058390682,0.015142561145741765,-0.39586493937210887
7989695696.0,0.0139648099,-0.0058733785,0.015149669651428055,-0.3981244938101351
7989700701.0,0.0139300334,-0.005898138,0.015127255613367535,-0.4005245058773807
7989705706.0,0.0139408034,-0.0059253126,0.015147782967984797,-0.4018992733136197
7989710711.0,0.0139139041,-0.0059457102,0.015131034237169013,-0.4038353240475952
7989715716.0,0.0138802907,-0.0060110952,0.015125995353032788,-0.4086835393248882
7989720721.0,0.013902137,-0.0060375826,0.015156576685339991,-0.40971439690301575
7989725726.0,0.0138377525,-0.0060580084,0.01510572275747595,-0.41265253581228956
7989730731.0,0.0138514944,-0.0061025855,0.015136229613019275,-0.4149862928474055
7989735736.0,0.0138170995,-0.0061018717,0.015104472080683957,-0.41586113531384156
7989740741.0,0.0138045093,-0.0061502176,0.015112566080620997,-0.41912408673808355
7989745746.0,0.0137634087,-0.0061693034,0.01508282876268531,-0.42138892669804834
7989750751.0,0.0137478271,-0.0062249377,0.015091474392529568,-0.42517523389200457
7989755756.0,0.0137358567,-0.0062453823,0.015089021153013478,-0.42673676064567123
7989760761.0,0.0137166794,-0.0062565629,0.015076202210239845,-0.42793835457096896
7989765766.0,0.0136897678,-0.0063126598,0.015075125743039522,-0.43206479749106663
7989770771.0,0.0136693124,-0.0063478953,0.015071359468493738,-0.4347562034326486
7989775776.0,0.0136426876,-0.0063671136,0.015055333292441544,-0.436658823055545
7989780781.0,0.013636954,-0.0063862507,0.015058244001256138,-0.4379714785952887
7989785786.0,0.0136173306,-0.0064209159,0.015055226788878643,-0.4406094779724275
7989790791.0,0.0135888509,-0.0064222802,0.015030054948327463,-0.44149971626411977
7989795796.0,0.0135902865,-0.0064948356,0.01506249569703207,-0.4458140725603134
7989800801.0,0.0135531463,-0.006522676,0.015041046400772112,-0.4485488494243792
7989805806.0,0.0135204587,-0.0065302386,0.01501488660068186,-0.4499467784969439
7989810811.0,0.0134905109,-0.0065714987,0.015005948137559337,-0.45329067994528277
7989815816.0,0.0134821047,-0.0065945512,0.015008506010632222,-0.45491680816550556
7989820821.0,0.0134922855,-0.0066082098,0.015023654840761161,-0.45543573453231045
7989825826.0,0.0134360382,-0.0066551273,0.014993926833590476,-0.45989593883502056
7989830831.0,0.0134273618,-0.0066939983,0.015003454873744985,-0.4624742354800126
7989835836.0,0.0133956078,-0.0067072755,0.014980983043990174,-0.4642131030681123
7989840841.0,0.0133936901,-0.0067348112,0.014991618204666346,-0.4659127404544424
7989845846.0,0.0133508461,-0.0067885625,0.014977639079717853,-0.47040406573211263
7989850851.0,0.0133417392,-0.0068078387,0.014978273353295242,-0.4718268063252869
7989855856.0,0.0133104811,-0.0068357405,0.014963163278424702,-0.474437252390295
7989860861.0,0.0132855187,-0.0068619471,0.014952970445073719,-0.4767589236617992
7989865866.0,0.0132651412,-0.0068908179,0.014948155149947363,-0.4791005259606358
7989870871.0,0.0132516372,-0.0069133038,0.014946560069511589,-0.4808520536445589
7989875876.0,0.0132338715,-0.0069325815,0.014939747023716782,-0.4825461182709408
7989880881.0,0.0132142317,-0.006968592,0.014939116235030402,-0.4852914155509321
7989885886.0,0.0131766152,-0.0070049663,0.014922893184399825,-0.4886233032778073
7989890891.0,0.0131505663,-0.0070169105,0.01490551666248795,-0.49015120275565066
7989895896.0,0.0131181817,-0.0070350869,0.014885534548841924,-0.49225268696566277
7989900901.0,0.0131044377,-0.0070708619,0.014890378619835458,-0.49480622010178144
7989905906.0,0.013068772,-0.0071067514,0.014876112296207835,-0.4980679110257187
7989910911.0,0.0130806264,-0.0071346026,0.014899843666169914,-0.49932995739463093
7989915916.0,0.013033762,-0.0071687009,0.014875120989971975,-0.5028509745794535
7989920921.0,0.0130335893,-0.0071960253,0.014888157379585782,-0.5044646874183925
7989925926.0,0.0130067111,-0.0072239972,0.014878194419501011,-0.5069837331713382
7989930931.0,0.0129686246,-0.0072562124,0.014860613796530711,-0.510123283287943
7989935936.0,0.0129454407,-0.0072731744,0.01484868683655332,-0.51188255210421
7989940941.0,0.0129304456,-0.0073045817,0.014851038254160355,-0.5142208773826717
7989945946.0,0.0128906237,-0.0073422871,0.014835004524226748,-0.5177541401607476
7989950951.0,0.0128817963,-0.0073555306,0.014833897206136695,-0.5188244361136382
7989955956.0,0.0128531416,-0.0073810626,0.014821718324633257,-0.5212789965037454
7989960961.0,0.0128324143,-0.0074330078,0.01482971549699135,-0.5250125881773052
7989965966.0,0.0127980079,-0.0074387708,0.014802848280766612,-0.5265144710147904
7989970971.0,0.0127934475,-0.0074813905,0.014820374581931,-0.5291553762058471
7989975976.0,0.0127638916,-0.0074890333,0.014798734694056093,-0.5306093842467343
7989980981.0,0.012718791,-0.0075155554,0.014773327907825987,-0.5337027237860693
7989985986.0,0.0127041335,-0.0075414581,0.014773916145013069,-0.5357168847137285
7989990991.0,0.0126734324,-0.0075786592,0.014766582680739453,-0.53894451215181
7989995996.0,0.0126777185,-0.0076100885,0.0147864124568157,-0.5406200016477695
7990001001.0,0.0126358128,-0.007610636,0.014750781180708357,-0.5421139522355861
7990006006.0,0.0125984082,-0.0076766306,0.01475298432666027,-0.54725402754334
7990011011.0,0.012583969,-0.0076818479,0.014743373526832164,-0.5480658297908538
7990016016.0,0.0125531893,-0.0077190607,0.014736568789644317,-0.5513094506833202
7990021021.0,0.0125595294,-0.0077338899,0.014749740056515788,-0.5519407250404794
7990026026.0,0.0124984542,-0.0077692094,0.01471638447753204,-0.556160460973264
7990031031.0,0.0124699806,-0.0078075297,0.014712509513361697,-0.5593942473998695
7990036036.0,0.0124597145,-0.0078353902,0.014718621708834232,-0.5613687441656378
7990041041.0,0.01243172,-0.007867069,0.01471184681843721,-0.5642045381210672
7990046046.0,0.012396765,-0.007900947,0.014700501554778122,-0.567423438078928
7990051051.0,0.0124102215,-0.0079264761,0.014725577103901004,-0.568394269705618
7990056056.0,0.0123597551,-0.007940248,0.014690510012708205,-0.5710334951241841
7990061061.0,0.0123466573,-0.0079511484,0.014685390950276598,-0.572140061636776
7990066066.0,0.0122649646,-0.0079750994,0.014629817739094822,-0.576539840129289
7990071071.0,0.0122822063,-0.0080253711,0.014671713358993723,-0.5787717946604642
7990076076.0,0.0122480192,-0.0080276718,0.014644367137301764,-0.5801802690809724
7990081081.0,0.0122256024,-0.0080779445,0.014653277496449933,-0.5838882938660211
7990086086.0,0.0121970633,-0.0080912138,0.014636806137320988,-0.5857195500755634
7990091091.0,0.0121690767,-0.0081202395,0.014629583632757397,-0.5884303965078399
7990096096.0,0.0121617013,-0.0081451161,0.01463727757449796,-0.5901237749199841
7990101101.0,0.0121280589,-0.0081564616,0.014615665517318866,-0.5920496163070095
7990106106.0,0.0121040289,-0.0081850236,0.014611711978566788,-0.594589428259568
7990111111.0,0.0120688348,-0.008203449,0.014592921192321024,-0.5969863351098209
7990116116.0,0.012031997,-0.0082114433,0.014566974733180664,-0.5988618127961584
7990121121.0,0.0120165864,-0.0082697062,0.014587199503091173,-0.6027563917216893
7990126126.0,0.0119740665,-0.0082950962,0.014566636177020304,-0.6058470797297286
7990131131.0,0.0119221328,-0.008310339,0.014532686771404551,-0.6087442754236919
7990136136.0,0.0119241657,-0.0083294315,0.014545279535101714,-0.6097411875341054
7990141141.0,0.0119167275,-0.0083595193,0.014556440404038645,-0.6117283086096519
7990146146.0,0.0118646088,-0.0083747857,0.014522602297727564,-0.6146498852273694
7990151151.0,0.0118581068,-0.0084260237,0.01454690937186205,-0.617785244345459
7990156156.0,0.011822893,-0.0084288531,0.01451986100039627,-0.6193488518605639
7990161161.0,0.0117892569,-0.0084628623,0.014512291912822002,-0.6226025230905361
7990166166.0,0.0117494116,-0.0085036111,0.014503795182167246,-0.6264869423193355
7990171171.0,0.0117192598,-0.0085137436,0.01448533328392678,-0.6282740153408757
7990176176.0,0.011702861,-0.0085482494,0.01449239536411843,-0.6308653816906088
7990181181.0,0.0116697176,-0.0085448833,0.014463655812911501,-0.6320290742208116
7990186186.0,0.0116465651,-0.0085891091,0.01447118771076655,-0.6354400535646626
7990191191.0,0.011607427,-0.0085995451,0.014445917675497912,-0.6376295117595208
7990196196.0,0.0115915289,-0.0086264346,0.014449183926700233,-0.6397798063049105
7990201201.0,0.0115764019,-0.0086804651,0.014469400654575904,-0.6433995800542858
7990206206.0,0.0115266953,-0.0086995173,0.014441132427619427,-0.6465200359059144
7990211211.0,0.0114962284,-0.0087132472,0.014425115049568043,-0.6485520931050011
7990216216.0,0.0114832879,-0.0087195162,0.014418594375193057,-0.6494407115952013
7990221221.0,0.0114436469,-0.0087580376,0.014410422512018631,-0.6532332421661838
7990226226.0,0.0114381993,-0.0087925424,0.014427099676730533,-0.6553620064086371
