frequency,Re(S21),Im(S21),Amplitude,phase
7811500000.0,-0.0070582935,0.0087281252,0.011224957756669611,2.2508098883619425
7811501001.0,-0.0070322892,0.0087767912,0.011246561926243685,2.246291037153296
7811502002.0,-0.0070322862,0.0087663546,0.01123841724495276,2.2468715007926154
7811503003.0,-0.0070123455,0.0087591637,0.011220335918980676,2.2458862512581486
7811504004.0,-0.0070087812,0.0087901772,0.011242340909120008,2.24391469407371
7811505005.0,-0.0070117192,0.0087658973,0.011225202074519458,2.2454677997275345
7811506006.0,-0.0069808712,0.0087882458,0.011223449868565685,2.242077626658485
7811507007.0,-0.0069895783,0.0087900547,0.01123028345327147,2.2425845384381837
7811508008.0,-0.0069688033,0.0087978009,0.011223436198871168,2.2407061526433165
7811509009.0,-0.0069642141,0.0088132301,0.011232689029176622,2.239533005166951
7811510010.0,-0.0069703692,0.0088154354,0.01123823598594912,2.2398410650862424
7811511011.0,-0.0069336673,0.0087927565,0.011197692132550419,2.2385262213385895
7811512012.0,-0.0069133836,0.0088105642,0.011199147928439493,2.2361194310935946
7811513013.0,-0.006906985,0.0088035617,0.011189689021413056,2.236055876782133
7811514014.0,-0.0068728128,0.0088089207,0.011172852799653826,2.233353509219016
7811515015.0,-0.0068779499,0.0087992829,0.011168418615951966,2.234246988536862
7811516016.0,-0.0068802063,0.0088246547,0.011189806490944863,2.2330095052729946
7811517017.0,-0.0068585874,0.0087851869,0.01114539052664241,2.233657121339035
7811518018.0,-0.0068487001,0.0088284239,0.011173440008244159,2.2305783460640485
7811519019.0,-0.006820236,0.0087906886,0.011126177472872971,2.230635816669644
7811520020.0,-0.0068307016,0.008808423,0.011146604868531564,2.2304023610000057
7811521021.0,-0.0068229759,0.0088212757,0.011152035917597796,2.229148660007433
7811522022.0,-0.0067952492,0.0087924454,0.01111226834638553,2.2287623243223114
7811523023.0,-0.0067939465,0.0088127291,0.01112752907139986,2.2275550115125893
7811524024.0,-0.0067894295,0.0088230062,0.01113291477290241,2.226670061905658
7811525025.0,-0.0067903191,0.0088167912,0.011128532721981917,2.2270740011875985
7811526026.0,-0.0067522849,0.0088216427,0.011109218302708399,2.224095068366161
7811527027.0,-0.0067274549,0.008827756,0.011099005605326543,2.2219838142663813
7811528028.0,-0.0067439332,0.008808094,0.011093383384653136,2.2242395761558025
7811529029.0,-0.0067134704,0.0088094444,0.011075964763774192,2.2219816887805783
7811530030.0,-0.0067138208,0.0088355157,0.011096924232392466,2.220582751930901
7811531031.0,-0.0066873085,0.0088003854,0.011052912655164945,2.2205958677256454
7811532032.0,-0.0066757672,0.0088371311,0.011075231545533621,2.2177587787114055
7811533033.0,-0.0066817813,0.0088122341,0.011059008598162518,2.219549700883179
7811534034.0,-0.006694973,0.008813975,0.01106837019490015,2.2204043708421564
7811535035.0,-0.0066497441,0.0088264044,0.011050995938277425,2.216464901659868
7811536036.0,-0.0066316934,0.0088174659,0.011032998787694412,2.215645680502627
7811537037.0,-0.0066380987,0.0088173173,0.011036731342196428,2.216117593248027
7811538038.0,-0.0066357928,0.008798917,0.011020648186809196,2.216954636323082
7811539039.0,-0.0066043097,0.0088124879,0.011012576882871716,2.2139301300852114
7811540040.0,-0.0065836201,0.0088093369,0.01099765748870302,2.2125965216400068
7811541041.0,-0.0065884319,0.0088395427,0.011024742629470355,2.2113059690027383
7811542042.0,-0.0065616682,0.0088064704,0.010982231579827818,2.2111516508057925
7811543043.0,-0.006557981,0.0088289084,0.010998033384744364,2.20966384151076
7811544044.0,-0.0065619886,0.0088239411,0.010996437192236364,2.2102257619241206
7811545045.0,-0.0065448936,0.0088149863,0.010979053497661291,2.209463038273444
7811546046.0,-0.0065128187,0.0088202495,0.010964196671955495,2.206828078374193
7811547047.0,-0.0064982503,0.0088362933,0.010968470095919256,2.204890721550629
7811548048.0,-0.0065021726,0.0088196602,0.010957401816290884,2.206078420218063
7811549049.0,-0.0064865037,0.0088294009,0.01095595958841737,2.2043996854488195
7811550050.0,-0.0065014788,0.0088081749,0.010947747332480754,2.206649952181026
7811551051.0,-0.0064492569,0.008831343,0.010935517077205203,2.2015496108008277
7811552052.0,-0.0064668557,0.0088067479,0.010926071170314465,2.204177963974886
7811553053.0,-0.006452793,0.0088114366,0.010921536176594781,2.20288601297591
7811554054.0,-0.0064420097,0.0088015774,0.010907211087307555,2.202622446275962
7811555055.0,-0.0064108106,0.0088124241,0.01089758280846414,2.199724332175284
7811556056.0,-0.0064415285,0.0088305489,0.010930319450574327,2.2010214464193276
7811557057.0,-0.0063864772,0.0087976128,0.010871296243081764,2.1987157817955247
7811558058.0,-0.0063718283,0.0088141651,0.010876106945720004,2.1967317528068993
7811559059.0,-0.006385715,0.0087978779,0.010871063039304548,2.198644717194042
7811560060.0,-0.006360049,0.0087915644,0.010850890649239275,2.197072242858343
7811561061.0,-0.0063866381,0.0087953463,0.010869556695527895,2.198850257563035
7811562062.0,-0.0063609267,0.0088068725,0.01086381110448949,2.196311788347551
7811563063.0,-0.0063334678,0.0088205186,0.010858838001673237,2.1935260474537515
7811564064.0,-0.0063278287,0.0088084049,0.010845709425339023,2.1937551510448206
7811565065.0,-0.006311564,0.0088217136,0.010847048951974032,2.1918215080818806
7811566066.0,-0.0062983048,0.0088156229,0.010834382791313378,2.191153312830284
7811567067.0,-0.0062823883,0.0088097765,0.01082037729157025,2.1902705217027667
7811568068.0,-0.0062923754,0.0088178004,0.01083270935956307,2.190591088045436
7811569069.0,-0.0062791843,0.0088025268,0.01081261455606759,2.190418550886554
7811570070.0,-0.0062496492,0.008811908,0.010803140178833406,2.187688564854457
7811571071.0,-0.0062259602,0.0087916152,0.010772886253778747,2.1869846491477762
7811572072.0,-0.0062586976,0.008812494,0.010808854987845926,2.188340030605718
7811573073.0,-0.0062230541,0.00881282,0.010788521617159916,2.1856289028481846
7811574074.0,-0.0062188979,0.0087958159,0.010772235999889588,2.186224253725724
7811575075.0,-0.0062016646,0.0087659887,0.010737932841074247,2.1865174232971722
7811576076.0,-0.0061820195,0.0087990278,0.010753615918543543,2.183251626393312
7811577077.0,-0.0061567006,0.008805219,0.010744153941376742,2.180992154137329
7811578078.0,-0.0061778577,0.0087981982,0.010750544978182851,2.182979228287488
7811579079.0,-0.0061399079,0.0088059706,0.010735156600094234,2.179670057811663
7811580080.0,-0.0061261967,0.0087996059,0.01072209634364501,2.178960593356601
7811581081.0,-0.0061230143,0.0087864274,0.010709463598774461,2.1794198042192994
7811582082.0,-0.0061158573,0.0087997783,0.010716333731417392,2.178159570209324
7811583083.0,-0.0061313348,0.0087828919,0.010711323753709279,2.180245829026695
7811584084.0,-0.0060856402,0.0088008891,0.010700031102494742,2.1757813616510706
7811585085.0,-0.0060848537,0.0088013543,0.01069996645156106,2.1756961756842657
7811586086.0,-0.0060617498,0.0087694433,0.010660579085102035,2.1756157687675013
7811587087.0,-0.0060578667,0.0087752547,0.010663153567535309,2.1750063151188725
7811588088.0,-0.0060345888,0.0087970261,0.010667892490514079,2.1720511656372814
7811589089.0,-0.0060404571,0.0087865779,0.010662601613570154,2.173059312724518
7811590090.0,-0.0060253599,0.0087734861,0.010643261730852118,2.172587247378188
7811591091.0,-0.0060150482,0.0087647034,0.010630184877898165,2.1722553516556444
7811592092.0,-0.0059923166,0.0087728381,0.010624055090380845,2.1700579365729107
7811593093.0,-0.0059618225,0.0087798399,0.010612677145336055,2.167313119648165
7811594094.0,-0.0059706506,0.0087830867,0.010620323938891753,2.1678290670018554
7811595095.0,-0.0059517718,0.0087764047,0.010604191011928131,2.166710985496665
7811596096.0,-0.0059127254,0.0087664919,0.010574105252387587,2.1641809844891258
7811597097.0,-0.0059441658,0.008759959,0.01058631138497119,2.1669882696825145
7811598098.0,-0.0059149705,0.0087824219,0.010588569801699843,2.163515523835952
7811599099.0,-0.005926693,0.0087972642,0.010607428874182973,2.163650499899119
7811600100.0,-0.0058989122,0.0087755612,0.010573913160143424,2.1626183499118303
7811601101.0,-0.0058940669,0.0087797297,0.010574671542262564,2.1620181670119893
7811602102.0,-0.0058816774,0.0087652001,0.010555702810836934,2.161810879910116
7811603103.0,-0.0058715851,0.0087757522,0.010558851180992507,2.160460347014649
7811604104.0,-0.0058741577,0.0087514281,0.010540076967173384,2.1619465177685067
7811605105.0,-0.005829759,0.0087507191,0.01051480740504484,2.158478153181164
7811606106.0,-0.0058334323,0.0087408994,0.010508675212394932,2.1592871412682
7811607107.0,-0.0058294958,0.0087632153,0.010525063594884913,2.1577990739614306
7811608108.0,-0.0058195333,0.008765394,0.010521363970752312,2.156896003235621
7811609109.0,-0.0057998194,0.008731165,0.010481943871717754,2.1571353545634935
7811610110.0,-0.0058018594,0.0087502622,0.010498983811117968,2.1562907480298135
7811611111.0,-0.0057931579,0.008733838,0.0104804868524595,2.1564647888930866
7811612112.0,-0.0057755233,0.008744792,0.010479888191775087,2.1544847510258225
7811613113.0,-0.0057607099,0.0087541457,0.010479544145085057,2.152813331792684
7811614114.0,-0.0057564365,0.0087580167,0.010480430224757527,2.152269677000085
7811615115.0,-0.005745236,0.0087276731,0.010448924080313705,2.152968950056275
7811616116.0,-0.0057080965,0.0087278861,0.010428727699383345,2.1499830946144476
7811617117.0,-0.0057221623,0.0087312989,0.010439287421499731,2.150931800047567
7811618118.0,-0.0057228472,0.0087437976,0.010450118494271422,2.150331025901921
7811619119.0,-0.0056666582,0.0087075862,0.010389084299689636,2.1477144588551424
7811620120.0,-0.0056717395,0.0087289622,0.010409774735549713,2.1470035384958583
7811621121.0,-0.0056638476,0.0087450291,0.01041895885373738,2.1455281846331062
7811622122.0,-0.0056448921,0.0087186876,0.010386545156452947,2.145375046404697
7811623123.0,-0.0056161881,0.0087182335,0.010370591310774129,2.1430754691208427
7811624124.0,-0.0056218377,0.0087175023,0.010373037427660551,2.1435715074489576
7811625125.0,-0.0055828242,0.008721749,0.010355521795984337,2.1401831134970046
7811626126.0,-0.005606223,0.008724414,0.01037039709794784,2.1419449050373935
7811627127.0,-0.0055825853,0.0087079014,0.010343732663980545,2.1408853986389103
7811628128.0,-0.005565181,0.0087053495,0.010332199643827604,2.139600620348503
7811629129.0,-0.0055740949,0.0087005435,0.01033295655413291,2.1405779786335453
7811630130.0,-0.0055629657,0.0086822492,0.010311548794932656,2.140626257697233
7811631131.0,-0.0055501221,0.0087249464,0.010340625948547863,2.137352863777027
7811632132.0,-0.0055236227,0.0086816379,0.010289861240982393,2.137438966294395
7811633133.0,-0.005511812,0.0086823443,0.010284122425714626,2.1364331458421275
7811634134.0,-0.0054738074,0.0086955538,0.010274980454530763,2.132621453860486
7811635135.0,-0.0054759038,0.0087014366,0.010281075883907967,2.132489191089803
7811636136.0,-0.0054637861,0.008713772,0.010285075644570495,2.1308532325970657
7811637137.0,-0.0054649178,0.0086893506,0.010264995879710678,2.132210495364593
7811638138.0,-0.0054393699,0.0086820407,0.010245222087660301,2.1304794726372833
7811639139.0,-0.005442197,0.0086997263,0.010261712619330201,2.1297979247796
7811640140.0,-0.0054178755,0.0086791466,0.010231371395751001,2.1288493553423598
7811641141.0,-0.0054136838,0.0086865921,0.010235470414112135,2.128116763155985
7811642142.0,-0.0054082326,0.0086588112,0.010209015195059129,2.1291028925237097
7811643143.0,-0.0054092798,0.0086708724,0.010219801178681012,2.1285645999838265
7811644144.0,-0.0054086155,0.0086408292,0.010193971301235494,2.13006922209895
7811645145.0,-0.0053477529,0.0086556635,0.010174427340380916,2.124225098064481
7811646146.0,-0.0053472009,0.0086871305,0.010200921222565688,2.1225577101173783
7811647147.0,-0.0053453091,0.0086548127,0.010172419193418256,2.1240646818656463
7811648148.0,-0.0053164668,0.0086668916,0.010167587188790309,2.1210269384283222
7811649149.0,-0.0053018343,0.0086473547,0.01014328301154358,2.1208043998145087
7811650150.0,-0.0053007293,0.0086407457,0.010137071439224791,2.1210522475769173
7811651151.0,-0.005281706,0.0086558243,0.01014000555142385,2.1186755241798867
7811652152.0,-0.0052780693,0.0086327509,0.010118419028536687,2.1195564945870333
7811653153.0,-0.005266397,0.0086422122,0.010120413483224776,2.1180848372970367
7811654154.0,-0.0052613639,0.0086306817,0.010107948194116256,2.1182532404493193
7811655155.0,-0.0052167706,0.0086246162,0.01007961805279976,2.1147889321097915
7811656156.0,-0.0051988216,0.0086048919,0.010053452672555443,2.1142767091954577
7811657157.0,-0.0051975748,0.0086142757,0.010060841398074295,2.1136883204176606
7811658158.0,-0.0052071033,0.0086406648,0.010088360271264599,2.113145664134487
7811659159.0,-0.0051690008,0.0086185198,0.010049748893051642,2.1110356995623296
7811660160.0,-0.0051848451,0.0085970228,0.010039493001875835,2.113490471207362
7811661161.0,-0.0051445895,0.0086000477,0.010021358269505464,2.1098947546445546
7811662162.0,-0.0051695551,0.0086051402,0.010038562536219618,2.1117685775050945
7811663163.0,-0.0051211026,0.0085991271,0.010008530297785043,2.1079281114585178
7811664164.0,-0.0050925056,0.0086162324,0.010008649961750143,2.104598755334208
7811665165.0,-0.0051068306,0.0085861863,0.009990110807964246,2.107363478450102
7811666166.0,-0.0050931368,0.0085651896,0.009965064743766716,2.1072595034680504
7811667167.0,-0.0050998418,0.0085702202,0.009972816084813521,2.1075795692790065
7811668168.0,-0.0050640293,0.0085753536,0.00995896993249259,2.1042257170921586
7811669169.0,-0.0050403491,0.008574521,0.009946231921150432,2.1022182316790095
7811670170.0,-0.0050378256,0.0085595894,0.009932082232473093,2.102761043867725
7811671171.0,-0.0050147573,0.0085792268,0.009937349911507673,2.0997581087842603
7811672172.0,-0.0049990228,0.0085578482,0.009910953272474,2.0994760319647896
7811673173.0,-0.005002515,0.0085757893,0.009928208219171246,2.098868273174461
7811674174.0,-0.0049687784,0.0085976291,0.009930155332595426,2.0948254854198645
7811675175.0,-0.0049821677,0.0085364487,0.009883974473796206,2.099095601703714
7811676176.0,-0.0049547802,0.0085618826,0.009892203014824089,2.095408448466736
7811677177.0,-0.0049540243,0.0085463957,0.00987842276003457,2.096127469365209
7811678178.0,-0.0049273674,0.0085414534,0.009860799951269386,2.0940400239095434
7811679179.0,-0.0049333504,0.008533804,0.009857167791997667,2.094953556157239
7811680180.0,-0.0049110324,0.0085309268,0.00984352331743101,2.0931369567415334
7811681181.0,-0.0049071925,0.008531015,0.009841684569334725,2.092794345901086
7811682182.0,-0.0048554868,0.0085294716,0.009814664428302212,2.08830612674081
7811683183.0,-0.0048765699,0.0084956082,0.009795728287243028,2.0918867938413603
7811684184.0,-0.0048747899,0.0085141635,0.00981094066203003,2.090787911558472
7811685185.0,-0.0048430074,0.0085207785,0.009800938063395616,2.0876383700953487
7811686186.0,-0.0048529293,0.008514256,0.009800177448614616,2.0888474250583613
7811687187.0,-0.0048242294,0.0084937055,0.009768122768708153,2.0873366214474443
7811688188.0,-0.0047829839,0.0085196388,0.00977042375079631,2.08235502287782
7811689189.0,-0.004781025,0.0085103566,0.009761371292486961,2.082645540848347
7811690190.0,-0.0047596815,0.0084804875,0.009724877182725676,2.0822364326050598
7811691191.0,-0.0047633421,0.0084733906,0.009720482303970353,2.0829221653962438
7811692192.0,-0.004763708,0.008475928,0.009722873514061982,2.082827085577578
7811693193.0,-0.0047491525,0.0084713806,0.009711783499353381,2.081749962462969
7811694194.0,-0.0047042207,0.0084611508,0.009680948572048563,2.078218216624249
7811695195.0,-0.0047177359,0.0084636693,0.009689722908417521,2.0793109708583417
7811696196.0,-0.0047069262,0.0084587228,0.009680141820215564,2.0785843718913357
7811697197.0,-0.0046927092,0.0084541772,0.009669262214086682,2.0775281533363255
7811698198.0,-0.0046815339,0.0084631249,0.009671672178576424,2.0760688934631975
7811699199.0,-0.004677931,0.0084336837,0.009644172291721393,2.0772196615454335
7811700200.0,-0.0046350576,0.0084436519,0.0096321864788682,2.0728252925572868
7811701201.0,-0.004656948,0.0084382674,0.0096380247659262,2.0750851298455966
7811702202.0,-0.0045937508,0.0083997841,0.009573866478028272,2.0712480334909755
7811703203.0,-0.004586822,0.008429593,0.009596716845115991,2.069124174716085
7811704204.0,-0.0045946695,0.0084159105,0.009588458549643967,2.0705251055682385
7811705205.0,-0.0045783025,0.0084129036,0.009577985214250398,2.069175692700801
7811706206.0,-0.0045681236,0.0083817378,0.009545746789687322,2.0697996998081503
7811707207.0,-0.0045546835,0.0084122775,0.009566167180338137,2.0670382969866323
7811708208.0,-0.0045359441,0.0083973815,0.009544150299260121,2.0660547968754304
7811709209.0,-0.0045243041,0.0083908639,0.009532886476697392,2.065305405978565
7811710210.0,-0.00446713,0.008361308,0.009479806005808557,2.061476465122998
7811711211.0,-0.0044883412,0.0083884714,0.009513761567131867,2.062097507384298
7811712212.0,-0.0044880391,0.008348647,0.009478523181051877,2.0640515821926644
7811713213.0,-0.0044652284,0.00837516,0.009491131106973845,2.0606120099788456
7811714214.0,-0.0044528923,0.0083670831,0.00947820285907117,2.059864428142044
7811715215.0,-0.0044346377,0.008362607,0.00946568578427946,2.058384160289186
7811716216.0,-0.0044252795,0.0083624842,0.00946119657592896,2.0575163930201557
7811717217.0,-0.0044141269,0.0083170373,0.009415817847584718,2.0587270562822013
7811718218.0,-0.0043999044,0.0083494553,0.00943782615520319,2.055785661568712
7811719219.0,-0.0044012706,0.0083583645,0.009446345325536464,2.0554739209226813
7811720220.0,-0.0043640893,0.0083452377,0.00941744485982667,2.0526299533024193
7811721221.0,-0.0043540026,0.0083288312,0.009398232163492249,2.052487857979934
7811722222.0,-0.0043349605,0.008300514,0.00936431605621875,2.0520866982153976
7811723223.0,-0.004314514,0.0082895979,0.009345184021723725,2.050688070866293
7811724224.0,-0.0042983876,0.0082912483,0.00933921486700497,2.0490747864923238
7811725225.0,-0.0042980803,0.008284277,0.009332884852926082,2.0493893445210385
7811726226.0,-0.0042985013,0.0082893414,0.009337574324837027,2.04917958835029
7811727227.0,-0.0043094464,0.0083029764,0.009354717813671877,2.0495472754591013
7811728228.0,-0.004247077,0.0082875762,0.009312442338867686,2.044364632510874
7811729229.0,-0.0042280399,0.0082613864,0.009280454010774309,2.0438261074794264
7811730230.0,-0.0042326075,0.008266127,0.009286755183011192,2.0440313775405015
7811731231.0,-0.0042497112,0.0082390913,0.009270526993280431,2.047002732921951
7811732232.0,-0.0042070182,0.0082351401,0.00924751505009639,2.0430955416794814
7811733233.0,-0.0041770899,0.0082272058,0.009226862701278026,2.04059823323902
7811734234.0,-0.0041669139,0.0082165301,0.00921273783053763,2.040137944524202
7811735235.0,-0.0041561706,0.0082089008,0.009201076371846122,2.039471624538358
7811736236.0,-0.0041523955,0.0082271023,0.009215617214440147,2.0382140061395893
7811737237.0,-0.0041448941,0.0082349092,0.00921921236508084,2.03710605734406
7811738238.0,-0.0041275269,0.0082203143,0.009198371894036906,2.036132928615999
7811739239.0,-0.0040975134,0.0082134389,0.00917879047735663,2.033546852180336
7811740240.0,-0.0040738123,0.0081643479,0.00912428206972284,2.033624267146495
7811741241.0,-0.0040794269,0.0081563852,0.009119667941499989,2.034564991901213
7811742242.0,-0.004059622,0.0081648038,0.00911836344282122,2.0322094362551484
7811743243.0,-0.0040444679,0.0081621423,0.009109241874029896,2.0308498921843774
7811744244.0,-0.00404487,0.008143206,0.009092457163788896,2.0318142011458256
7811745245.0,-0.0040352419,0.0081336907,0.009079653164894686,2.031330707772826
7811746246.0,-0.0040131188,0.0081376096,0.009073357289610368,2.0289545319165057
7811747247.0,-0.0040118098,0.0081383856,0.009073474419739299,2.028787316639909
7811748248.0,-0.0039740625,0.0081200798,0.00904040202160691,2.0259375163239555
7811749249.0,-0.0039470106,0.0081094376,0.009018972827589965,2.023762123501896
7811750250.0,-0.0039406294,0.0081059777,0.009013070206152931,2.023293525616104
7811751251.0,-0.0039018232,0.0080957817,0.00898698534649485,2.0199060818902588
