frequency,Re(S21),Im(S21),Amplitude,phase
7490000000.0,0.0055538091,0.0061609318,0.008294689636357351,0.8371773726301299
7490003003.0,0.0055880552,0.0061415446,0.00830330843652313,0.8325505938370317
7490006006.0,0.005600662,0.0061333571,0.00830575006572943,0.8307645121073767
7490009009.0,0.0056185797,0.0061210215,0.008308750931921977,0.8281709413262424
7490012012.0,0.005629622,0.0060914966,0.008294514735094245,0.8247831210077786
7490015015.0,0.0056442971,0.0061008831,0.008311369583464208,0.8242529277275843
7490018018.0,0.0056746168,0.0060515699,0.008295949257404378,0.8175333616961123
7490021021.0,0.0056760412,0.0060205885,0.008274353726450766,0.8148466203121675
7490024024.0,0.0056746612,0.0060137394,0.008268424354488454,0.8143998326937129
7490027027.0,0.0056790974,0.0059918841,0.008255593397601384,0.8121921262569816
7490030030.0,0.0056742258,0.0059521634,0.008223447426091152,0.809299365020499
7490033033.0,0.0056990427,0.0059541922,0.008242056324180522,0.8072898304900606
7490036036.0,0.0057085924,0.0059186718,0.008223059227894021,0.8034640248913348
7490039039.0,0.0057014971,0.005904793,0.008208145317558493,0.8029123829250476
7490042042.0,0.0057114341,0.0058904209,0.008204726555943204,0.8008243691270518
7490045045.0,0.0057376131,0.005853083,0.008196266509221173,0.7953601259238917
7490048048.0,0.0057469971,0.0058610112,0.00820849730181681,0.7952198684542241
7490051051.0,0.0057452482,0.0058282565,0.0081839141435743,0.7925703103693147
7490054054.0,0.0057343454,0.0058091587,0.008162661451284553,0.7918790596584531
7490057057.0,0.0057324646,0.0057851445,0.008144264686031109,0.7899719887625685
7490060060.0,0.0057576355,0.0057554603,0.008140988257928907,0.7852092307235694
7490063063.0,0.0057581299,0.0057411325,0.00813121530448126,0.7839200348853973
7490066066.0,0.0057777013,0.005735529,0.008141137833365964,0.7817352373296128
7490069069.0,0.005770783,0.0057064391,0.008115749111147891,0.7797919962127885
7490072072.0,0.0057710343,0.0056925431,0.008106163324109262,0.778551262931705
7490075075.0,0.0057643241,0.0056688379,0.008084748324240974,0.7770466697321959
7490078078.0,0.0057729697,0.0056396221,0.008070471893757298,0.7737144429462749
7490081081.0,0.0057903463,0.0056206927,0.00806971478441196,0.7705317606589186
7490084084.0,0.0058021307,0.0055985027,0.00806275096612749,0.7675389495062075
7490087087.0,0.0057954553,0.0055954107,0.00805580058318058,0.7678381255567934
7490090090.0,0.0057926259,0.005565919,0.00803330374951127,0.7654416632509561
7490093093.0,0.0058015164,0.0055550132,0.00803217057784776,0.7636957149585358
7490096096.0,0.0057997404,0.0055273189,0.008011756544584301,0.7613522936170818
7490099099.0,0.0058059898,0.0054952476,0.007994201882802924,0.7579087909805874
7490102102.0,0.0057991352,0.0055065225,0.007996984376056095,0.7595219697343077
7490105105.0,0.0058091101,0.0054861416,0.007990213376948864,0.7568126537909964
7490108108.0,0.0058203295,0.0054277506,0.007958436533916105,0.7505104663328142
7490111111.0,0.0058147734,0.0054231149,0.007951211537366464,0.7505606538039757
7490114114.0,0.0058265526,0.0054009856,0.007944769389477213,0.7475124431660388
7490117117.0,0.0058039893,0.0053945158,0.007923830671522716,0.7488494317702908
7490120120.0,0.0058205621,0.0053928539,0.007934848224553613,0.747274101713802
7490123123.0,0.005821518,0.0053529915,0.007908513755655752,0.743494557925122
7490126126.0,0.0058375729,0.0053290127,0.007904152941307228,0.7398865771315454
7490129129.0,0.0058336506,0.0053192693,0.007894688417461632,0.7393100491215286
7490132132.0,0.0058259466,0.0053216334,0.007890591602031316,0.7401892862916235
7490135135.0,0.0058195011,0.0053177072,0.007883184820732865,0.7403729873684685
7490138138.0,0.0058419452,0.0052690119,0.007867071254421473,0.7338790810253097
7490141141.0,0.0058354784,0.0052512439,0.007850373918110765,0.7327500870032433
7490144144.0,0.0058292837,0.0052261363,0.00782898774307786,0.7308954799445799
7490147147.0,0.0058397618,0.0052228772,0.007834619590447203,0.7296929749997547
7490150150.0,0.0058491568,0.0051974534,0.007824714507006489,0.7264706844522936
7490153153.0,0.0058498425,0.0051903843,0.00782053364269298,0.7257367467961101
7490156156.0,0.0058453547,0.005166832,0.007801559106040029,0.7238603415142641
7490159159.0,0.005846343,0.0051389007,0.007783831118293195,0.7210876428328092
7490162162.0,0.0058278106,0.0051254281,0.00776101730430631,0.7213602897569664
7490165165.0,0.0058467563,0.0051082007,0.0077639083986784764,0.7180825453535814
7490168168.0,0.0058599027,0.005082191,0.007756747063940418,0.7144422667371977
7490171171.0,0.0058390989,0.0050728065,0.007734884727675226,0.7152879119180301
7490174174.0,0.0058546408,0.0050580439,0.007736964972865771,0.7125300736346479
7490177177.0,0.0058555231,0.0050306081,0.007719725942701543,0.7097660140376016
7490180180.0,0.0058491874,0.0050054038,0.007698510274161696,0.7078189965059326
7490183183.0,0.0058439805,0.0049783668,0.007676994469173629,0.7055841610170988
7490186186.0,0.0058571773,0.0049795218,0.007687793134593994,0.7045853542242163
7490189189.0,0.0058450802,0.00494667,0.007657317195554331,0.7023399671589323
7490192192.0,0.0058599774,0.0049219937,0.007652800605748881,0.6986210716216814
7490195195.0,0.0058471491,0.0049219662,0.007642964337976022,0.6996978298052112
7490198198.0,0.0058568077,0.0048946446,0.0076328069669741065,0.6961444718459985
7490201201.0,0.0058431611,0.0048866987,0.007617240696284639,0.696492895062688
7490204204.0,0.0058440835,0.0048752251,0.007610593388865434,0.695258679480265
7490207207.0,0.0058591233,0.0048346704,0.0075962730151857396,0.689890794360787
7490210210.0,0.005846869,0.0048189867,0.007576840365082129,0.6893235663514319
7490213213.0,0.0058557159,0.0047987553,0.007570829619717438,0.686518208519927
7490216216.0,0.0058526807,0.0047841813,0.007559250100864647,0.6852815093492017
7490219219.0,0.0058400612,0.0047729546,0.007542374323341861,0.6851879840814911
7490222222.0,0.0058469231,0.0047585613,0.007538595053666917,0.6831336115847133
7490225225.0,0.0058507087,0.0047563264,0.007540121558409563,0.6825868091903566
7490228228.0,0.0058413106,0.0047104548,0.007503951888739386,0.6786334914776674
7490231231.0,0.0058593299,0.0047019943,0.00751268908409409,0.6762512303131816
7490234234.0,0.0058376337,0.0046612059,0.007470261552152676,0.6738105114642936
7490237237.0,0.0058405808,0.0046677863,0.007476671252890308,0.6742523330808253
7490240240.0,0.0058438901,0.004638566,0.007461055289785353,0.6709160458175158
7490243243.0,0.0058392554,0.0046391569,0.00745779326404579,0.6713644672506103
7490246246.0,0.0058384914,0.0045972997,0.0074312277827754715,0.6670182224380025
7490249249.0,0.005831776,0.0045785973,0.007414389020664028,0.6655967352319236
7490252252.0,0.005839086,0.004556364,0.007406441670322666,0.6626261139119334
7490255255.0,0.0058528365,0.0045441981,0.00740981993490907,0.6601900865892466
7490258258.0,0.0058195795,0.0045246404,0.007371558607657706,0.6608612160050087
7490261261.0,0.0058368421,0.0045042259,0.007372704840054511,0.6572380815129452
7490264264.0,0.0058407942,0.0044890942,0.007366603262238796,0.6552841308269217
7490267267.0,0.0058306003,0.0044949727,0.0073621110717039156,0.6567610066296075
7490270270.0,0.0058346259,0.0044627907,0.007345703521444172,0.6529567116249471
7490273273.0,0.0058229549,0.0044465977,0.007326597769297786,0.6521689812791468
7490276276.0,0.0058287354,0.0044285609,0.007320266935585202,0.6497314519572143
7490279279.0,0.0058426728,0.0044089565,0.007319543897453727,0.6464468594418582
7490282282.0,0.0058221177,0.0043962368,0.007295474797045599,0.6467522833151741
7490285285.0,0.0058184363,0.0043776569,0.007281351585473352,0.6450205717841034
7490288288.0,0.0058192709,0.0043715189,0.007278330254985963,0.6442777402966927
7490291291.0,0.0058254324,0.0043421984,0.007265696772638694,0.6405418948248304
7490294294.0,0.0058121341,0.0043127182,0.007237433320521444,0.6383741444515515
7490297297.0,0.0058139562,0.0043116657,0.007238269669200985,0.6381073681501046
7490300300.0,0.005831213,0.0042734932,0.00722950822544765,0.6324443582933409
7490303303.0,0.0058165946,0.0042654579,0.007212967755190755,0.6327438256466621
7490306306.0,0.0058073108,0.0042451576,0.007193484675498684,0.6312313093023173
7490309309.0,0.0058074088,0.0042161659,0.0071764930061026504,0.6279618965623257
7490312312.0,0.0058046186,0.0042147478,0.007173401989925756,0.6280304371342378
7490315315.0,0.0057964522,0.0042159153,0.007167482118823802,0.6288316824590496
7490318318.0,0.005799913,0.0041905129,0.007155374845012343,0.6256761538832516
7490321321.0,0.0057984505,0.0041544134,0.0071331044362920835,0.6216940667395016
7490324324.0,0.0058084796,0.0041509246,0.007139230371580772,0.6204786552974918
7490327327.0,0.005786775,0.0041293617,0.007109036007086466,0.6197860168761307
7490330330.0,0.0058026797,0.0041178443,0.007115316815141444,0.6171700214092634
7490333333.0,0.0057990018,0.0040804452,0.00709073020968971,0.6131688450643645
7490336336.0,0.0057926237,0.0040658575,0.007077124171590317,0.6120017204018728
7490339339.0,0.005777751,0.0040441253,0.007052471627741659,0.6106910692089138
7490342342.0,0.0057720544,0.0040348028,0.007042460197363361,0.6100704262025051
7490345345.0,0.0057788424,0.0040175432,0.007038158342059662,0.6075079467067579
7490348348.0,0.0057789026,0.0039829952,0.007018544437667243,0.6034613991161858
7490351351.0,0.0057746559,0.0039847963,0.007016071002769178,0.6040162635059635
7490354354.0,0.0057723046,0.0039726341,0.007007233554525207,0.6027782841965903
7490357357.0,0.0057554708,0.0039470782,0.006978887479145074,0.601129255476209
7490360360.0,0.0057601092,0.0039224618,0.006968828062765208,0.5978396804132157
7490363363.0,0.0057572108,0.0038959277,0.006951527086853933,0.5949193877049247
7490366366.0,0.0057462803,0.0038901578,0.006939240952371443,0.595113546765785
7490369369.0,0.0057481464,0.0038639158,0.006926112354367535,0.5918250086414129
7490372372.0,0.0057465948,0.0038628602,0.006924235749895514,0.5918234970785453
7490375375.0,0.0057481342,0.0038507123,0.0069187449727953505,0.5902421928040948
7490378378.0,0.0057266816,0.0038176504,0.006882538537807015,0.5879860009176222
7490381381.0,0.0057280865,0.0038061117,0.006877314972019178,0.5864766665514105
7490384384.0,0.0057341624,0.003800695,0.006879382306035823,0.5853320677278246
7490387387.0,0.0057328179,0.0037730881,0.006863045598342038,0.5820873890780222
7490390390.0,0.0057186002,0.0037631107,0.006845684070119986,0.5820117438449754
7490393393.0,0.0057240713,0.0037197834,0.0068265496988155925,0.5762692328287349
7490396396.0,0.0057096044,0.00371378,0.006811148529646036,0.5766875392643098
7490399399.0,0.0056941912,0.0036727975,0.006775932031695986,0.5728577264278965
7490402402.0,0.0056944835,0.0036868748,0.006783818108016111,0.5745782183182766
7490405405.0,0.005699435,0.0036435392,0.006764535255371329,0.568802788102502
7490408408.0,0.0056988131,0.0036488962,0.006766898420037503,0.5695192894318118
7490411411.0,0.0057072223,0.0036440684,0.006771382494402148,0.5682492011228621
7490414414.0,0.0057034049,0.003613932,0.006751987259612389,0.5647915548968638
7490417417.0,0.0057052087,0.0036014657,0.006746848264103186,0.5630876842123065
7490420420.0,0.0056848567,0.0035783045,0.0067172806100575504,0.5617893203069286
7490423423.0,0.0056848976,0.0035504699,0.0067025291669109335,0.5582714915638898
7490426426.0,0.0056611402,0.0035421711,0.006677985060310577,0.559101978976004
7490429429.0,0.0056818016,0.0035335264,0.006690940011781567,0.5563687702631163
7490432432.0,0.0056572973,0.0035053511,0.006655261007267746,0.5547181979300793
7490435435.0,0.005664158,0.0034808616,0.00664823911478209,0.5510434077037217
7490438438.0,0.0056509139,0.0034715967,0.006632104609598985,0.5508987781839281
7490441441.0,0.0056572231,0.0034522639,0.0066273900774299396,0.5479149191367672
7490444444.0,0.005641709,0.0034238656,0.006599373916330576,0.5454662423607143
7490447447.0,0.0056352166,0.0034262808,0.006595078941859923,0.5462900514218064
7490450450.0,0.0056162104,0.0033950757,0.006562648723328002,0.543731733376873
7490453453.0,0.0056257959,0.0033811997,0.00656369491366996,0.5411670536290719
7490456456.0,0.0056210728,0.003387023,0.006562650701159466,0.5422983405429626
7490459459.0,0.0056054385,0.0033379284,0.006524010023046318,0.5370895902771903
7490462462.0,0.0056249433,0.0033302543,0.006536863225652147,0.5345542759580529
7490465465.0,0.0055997032,0.0033172981,0.006508543816580929,0.534817008129982
7490468468.0,0.0055976009,0.0032986967,0.006497271408389194,0.5325187446868458
7490471471.0,0.0055845182,0.0032736365,0.006473294328258487,0.5302095646777446
7490474474.0,0.005598452,0.0032623438,0.006479625904765062,0.5276185565560118
7490477477.0,0.0055755192,0.0032448194,0.006450989636341466,0.5270612638339132
7490480480.0,0.00559136,0.0032206558,0.006452590985927564,0.5225898380299594
7490483483.0,0.0055781493,0.0032109212,0.00643628499724025,0.5223037236260036
7490486486.0,0.0055788288,0.0031955466,0.006429218370259405,0.5201784674004064
7490489489.0,0.0055442654,0.0031774008,0.006390207717240325,0.520402803751044
7490492492.0,0.0055626378,0.003155474,0.006395307299783556,0.5159996532301437
7490495495.0,0.0055519546,0.0031263189,0.006371661458752996,0.5128469438149995
7490498498.0,0.0055619931,0.0031296214,0.006382029250307896,0.5125260658692933
7490501502.0,0.005531811,0.003100155,0.006341284882714701,0.5108104012832546
7490504505.0,0.0055338058,0.0031058094,0.006345790625386407,0.5114340243906558
7490507508.0,0.0055194051,0.0030695634,0.0063155405251273285,0.5075451976852815
7490510511.0,0.0055138455,0.0030568562,0.006304511243970359,0.5062123132327134
7490513514.0,0.005507805,0.0030446318,0.006293305865409391,0.5049788658822463
7490516517.0,0.005519067,0.0030192574,0.006290947130436224,0.5005827382049566
7490519520.0,0.0055020453,0.0030015712,0.006267529988115058,0.49941053521788925
7490522523.0,0.0054850015,0.0030007306,0.006252169670504681,0.5005980402849578
7490525526.0,0.0054795531,0.0029643697,0.006230007214602379,0.49589749877082406
7490528529.0,0.005474199,0.0029533445,0.006220056143418743,0.49474806642104463
7490531532.0,0.0054695235,0.0029300804,0.006204922116152338,0.49180612521996975
7490534535.0,0.0054731449,0.0029275899,0.006206939480853509,0.49117692259802853
7490537538.0,0.0054491292,0.0028963817,0.006171064413080415,0.4885531624627844
7490540541.0,0.0054411066,0.0028944728,0.006163084765156439,0.4888906256966006
7490543544.0,0.0054477898,0.0028506258,0.006148534878864206,0.48208419379679607
7490546547.0,0.0054487361,0.0028548612,0.0061513378673837,0.4826229325208005
7490549550.0,0.0054320572,0.0028307325,0.006125380960448753,0.48039743813747154
7490552553.0,0.0054237758,0.0028214126,0.0061137315109599305,0.4796715482168537
7490555556.0,0.0054228414,0.0028219441,0.006113147908653836,0.47981921888038737
7490558559.0,0.0054149598,0.002782646,0.006088095629745975,0.47469079463281694
7490561562.0,0.0054046131,0.0027641682,0.00607045868107039,0.47276248992012565
7490564565.0,0.0053846175,0.0027516033,0.006046935285074344,0.4724182234097165
7490567568.0,0.0054028412,0.0027261369,0.006051653941688921,0.46730065660772535
7490570571.0,0.0053848372,0.0027195498,0.006032613263353112,0.4676702352476844
7490573574.0,0.0053660578,0.0027039885,0.006008837668058032,0.4667674913475609
7490576577.0,0.0053717641,0.0026933758,0.006009169888268632,0.464763006847261
7490579580.0,0.0053465984,0.0026749577,0.0059784206231806615,0.4638957359903564
7490582583.0,0.0053432168,0.0026656479,0.005971234754937763,0.46275478964282923
7490585586.0,0.0053396411,0.0026407709,0.0059569655046085345,0.45928584474076867
7490588589.0,0.0053320752,0.0026299734,0.005945400408985303,0.4582220771379819
7490591592.0,0.0053306217,0.0025952439,0.005928812580019552,0.45307703495598156
7490594595.0,0.0053095802,0.0025929388,0.005908889364404911,0.45428505550924675
7490597598.0,0.0053179737,0.0025643617,0.005903964363232436,0.44931178294251806
7490600601.0,0.0053038937,0.0025575341,0.0058883163173833065,0.4493059498361921
7490603604.0,0.0052776969,0.0025567432,0.005864385761443039,0.4511247139211368
7490606607.0,0.0052735053,0.0025320301,0.005849874748781729,0.4476351808668955
7490609610.0,0.005295115,0.0025117862,0.005860658049889572,0.4429253226934868
7490612613.0,0.0052759006,0.0024863158,0.005832400311913612,0.4403916185396954
7490615616.0,0.0052444983,0.002483855,0.0058029559777520185,0.44231488125267443
7490618619.0,0.0052396945,0.0024676983,0.005791712471553913,0.4401487416404429
7490621622.0,0.0052286038,0.0024633598,0.005779830378274996,0.44028723517115864
7490624625.0,0.0052264264,0.0024236956,0.005761061818456414,0.4342200194613858
7490627628.0,0.0052334028,0.0024077152,0.00576069417269819,0.43119392360159264
7490630631.0,0.0052223741,0.00238843,0.00574262911089083,0.4289457411995205
7490633634.0,0.0052035048,0.0023724537,0.005718828443157456,0.42777750355327593
7490636637.0,0.005197177,0.0023524696,0.005704801660728719,0.42505028048565313
7490639640.0,0.0051684156,0.0023578636,0.005680848578384071,0.4280030604516661
7490642643.0,0.0051826073,0.0023174843,0.005677160549672678,0.42049443433726846
7490645646.0,0.0051690276,0.0023181399,0.005665034768254628,0.42157860857229884
7490648649.0,0.0051580476,0.0022999116,0.005647570133400764,0.41942913842204765
7490651652.0,0.0051501695,0.0022597239,0.005624108638972176,0.4134733109966355
7490654655.0,0.0051405395,0.0022582676,0.005614705593730628,0.4139249253754596
7490657658.0,0.0051297738,0.002250038,0.005601539988307719,0.41335283690299846
7490660661.0,0.0051162894,0.0022166661,0.005575843059434292,0.40884321647221467
7490663664.0,0.0051030243,0.0022189167,0.005564570812554134,0.4101620291642685
7490666667.0,0.0050978313,0.0022058908,0.005554623136161834,0.40838427795797877
7490669670.0,0.005098883,0.0022004891,0.005553445788598986,0.40741638459819735
7490672673.0,0.0051104177,0.0021752752,0.005554114804737865,0.40242536612644025
7490675676.0,0.0050776117,0.0021660612,0.005520322608156368,0.4032170912348115
7490678679.0,0.0050567232,0.0021615687,0.0054993480310158525,0.4039560882482866
7490681682.0,0.0050534705,0.0021500097,0.005491821720018261,0.40225352851715324
7490684685.0,0.0050405061,0.0021057773,0.005462691624220839,0.3957317254620241
7490687688.0,0.0050419776,0.0021033885,0.0054631292590267356,0.3952244301215124
7490690691.0,0.0050179101,0.0020732166,0.005429332264855188,0.3918023456767201
7490693694.0,0.0050120804,0.0020719203,0.005423449425007691,0.39199189838857007
7490696697.0,0.0050059276,0.0020506309,0.0054096578657505286,0.38878946425193095
7490699700.0,0.0049927759,0.0020481723,0.005396556398121686,0.38929168897627414
7490702703.0,0.0049979897,0.0020214899,0.005391319175963161,0.38434579527631385
7490705706.0,0.0049938509,0.00198448,0.005373705209799921,0.37824978698457
7490708709.0,0.0049777918,0.0019913118,0.005361318297673295,0.38054016119732975
7490711712.0,0.0049636388,0.0019842228,0.005345544898034744,0.3802922638990321
7490714715.0,0.0049487817,0.0019620688,0.005323547152997551,0.3774639956890823
7490717718.0,0.0049367202,0.0019439448,0.0053056693940100605,0.37512636670033983
7490720721.0,0.004943312,0.0019201452,0.0053031397415518895,0.3704951733335114
7490723724.0,0.0049097634,0.0019210158,0.0052721986256048054,0.37295310793082637
7490726727.0,0.0049116252,0.0019080311,0.005269216714450285,0.37052950993104905
7490729730.0,0.0048897964,0.0018890588,0.0052420083921442175,0.3686637444525927
7490732733.0,0.0048926105,0.0018879674,0.005244240498696929,0.3682762367133826
7490735736.0,0.004865098,0.0018559491,0.0052070841755626355,0.3644416942588493
7490738739.0,0.00485805,0.0018494145,0.0051981711971913975,0.3637504272589244
7490741742.0,0.0048569474,0.0018297793,0.005190185963245946,0.360290396826058
7490744745.0,0.0048459463,0.0018025349,0.005170331479528338,0.3561094601630187
7490747748.0,0.0048313748,0.0017979495,0.005155075640824807,0.35626122419984435
7490750751.0,0.0048229364,0.0017939268,0.00514576416892605,0.35610050546257943
7490753754.0,0.0048096549,0.0017761234,0.005127123422458403,0.35374903824746234
7490756757.0,0.0047940687,0.0017618081,0.005107549557424314,0.35217693769777236
