frequency,Re(S21),Im(S21),Amplitude,phase
7989000000.0,0.0154978308,-0.0008935238,0.015523567382744054,-0.057591009711151636
7989005005.0,0.0154443723,-0.0010027593,0.015476891223845433,-0.06483616022752198
7989010010.0,0.0154715909,-0.0010774478,0.015509062471300052,-0.0695281474904199
7989015015.0,0.015469482,-0.0011301054,0.015510706352820723,-0.07292431678228628
7989020020.0,0.0154606595,-0.0011767712,0.01550537915151028,-0.07596743160752384
7989025025.0,0.0154251102,-0.0012240262,0.015473598961470807,-0.07918690165278812
7989030030.0,0.0154215325,-0.0012775337,0.015474358048177376,-0.08265217915547707
7989035035.0,0.0154359563,-0.0013334013,0.01549344073865942,-0.08616890560387538
7989040040.0,0.0154294065,-0.0013667922,0.015489825882179021,-0.08835296691612086
7989045045.0,0.0154131988,-0.0014253591,0.015478964623393718,-0.09221425485265525
7989050050.0,0.015418186,-0.0014521851,0.015486423121407281,-0.09390946857055633
7989055055.0,0.0153849948,-0.0015158586,0.015459491980373125,-0.09821139078933365
7989060060.0,0.0153902792,-0.0015503624,0.015468171107965105,-0.10039777748287992
7989065065.0,0.0153562963,-0.0015943135,0.015438836471369077,-0.10345085281708169
7989070070.0,0.0153787892,-0.0016235537,0.015464251804559454,-0.10518136821977771
7989075075.0,0.0153531156,-0.0016932202,0.015446201904437589,-0.1098412295671946
7989080080.0,0.0153354214,-0.0017505443,0.015435010685511055,-0.11365842336789815
7989085085.0,0.0153399548,-0.0017821674,0.015443132257015277,-0.11565963219737684
7989090090.0,0.0153518829,-0.0018016527,0.015457239760925291,-0.11682275024392645
7989095095.0,0.0153061444,-0.0018502294,0.015417568071076441,-0.12029780283573156
7989100100.0,0.0153173904,-0.0019144979,0.015436571862791187,-0.12434368752341006
7989105105.0,0.0153182427,-0.0019268381,0.015438952829765202,-0.1251299598116306
7989110110.0,0.0153179459,-0.0019447576,0.01544090504854183,-0.12628380676764941
7989115115.0,0.0153156712,-0.0020043148,0.015446263694628823,-0.1301274271937643
7989120120.0,0.015285669,-0.0020551042,0.015423201031252191,-0.1336450631439547
7989125125.0,0.0152672105,-0.0020673937,0.015406551631111678,-0.1345952734735658
7989130130.0,0.0152689834,-0.002114757,0.015414734874091236,-0.13762465418213105
7989135135.0,0.0152601597,-0.0021714401,0.015413877713845796,-0.14134583353900548
7989140140.0,0.0152592078,-0.0021957095,0.015416373208117761,-0.14291309437257455
7989145145.0,0.0152358439,-0.0022193773,0.015396641677486767,-0.14465075772274777
7989150150.0,0.0152522016,-0.0022610321,0.015418881924584316,-0.1471711674791716
7989155155.0,0.0152118494,-0.0022755617,0.015381109947555385,-0.1484903053364447
7989160160.0,0.0152138474,-0.0023179842,0.015389418555031129,-0.15119736799772854
7989165165.0,0.0152055658,-0.0023681947,0.015388878368329438,-0.15450398674978966
7989170170.0,0.0152101897,-0.0024231138,0.015401991793197933,-0.15798103305560668
7989175175.0,0.0151827822,-0.0024556452,0.015380086757912644,-0.160350213129912
7989180180.0,0.0151961558,-0.0024777079,0.015396823943125285,-0.16162608605219927
7989185185.0,0.0151777484,-0.0025072176,0.015383438711401697,-0.16371192012067445
7989190190.0,0.0151659599,-0.0025375304,0.015376781204768838,-0.16578184761758286
7989195195.0,0.0151493576,-0.0025572933,0.01536368395648982,-0.16722887822778162
7989200200.0,0.0151414063,-0.002618171,0.015366099183817625,-0.17122157049726228
7989205205.0,0.015134802,-0.0026331109,0.01536214518193676,-0.17225311416309758
7989210210.0,0.015116611,-0.0026945679,0.015354889263457142,-0.1763993940769599
7989215215.0,0.0151145534,-0.0027275319,0.015358683366323076,-0.17853587716289473
7989220220.0,0.0151268328,-0.0027705407,0.0153784578657781,-0.18114631609064177
7989225225.0,0.0151021999,-0.0028159904,0.015362494711226174,-0.18434527070156978
7989230230.0,0.01509117,-0.0028333278,0.015354841529340276,-0.18558692866717252
7989235235.0,0.0150761546,-0.0028701495,0.015346927890475391,-0.1881255564056795
7989240240.0,0.0150619015,-0.0029168492,0.015341736735169292,-0.19128956713887793
7989245245.0,0.0150614387,-0.002931547,0.015344083665278507,-0.19223571046232932
7989250250.0,0.0150265118,-0.0029494566,0.015313241038748877,-0.1938194788847444
7989255255.0,0.0150419548,-0.0030071973,0.015339610158226654,-0.1973192554380732
7989260260.0,0.0150330164,-0.0030441429,0.015338135091277863,-0.19979550358895246
7989265265.0,0.0150267362,-0.0030521697,0.015333575600687158,-0.20038985610981486
7989270270.0,0.0150226889,-0.0030877642,0.015336735948075287,-0.20271680972849013
7989275275.0,0.0150010487,-0.0031390165,0.015325954674572281,-0.2062767694536854
7989280280.0,0.0149675895,-0.0031485732,0.015295170761919217,-0.20733639264027587
7989285285.0,0.0149790571,-0.0032210238,0.015321460306551293,-0.21180975737223603
7989290290.0,0.0149865886,-0.0032182868,0.015328248686418949,-0.21153189277667725
7989295295.0,0.0149395585,-0.0032648092,0.015292134817850871,-0.21515204770962018
7989300300.0,0.0149366955,-0.0033127603,0.01529964879547816,-0.2182538739315078
7989305305.0,0.0149301892,-0.0033200851,0.015294885243735522,-0.2188135258970578
7989310310.0,0.0149120508,-0.0033673124,0.015287512939028846,-0.2220866952061063
7989315315.0,0.014900716,-0.0033797692,0.01527920734717363,-0.22304535282203278
7989320320.0,0.0148968717,-0.0034394784,0.015288780138072737,-0.22690966454240163
7989325325.0,0.0148798599,-0.0034713039,0.015279403830312989,-0.2291896504756294
7989330330.0,0.0148567763,-0.0034966801,0.015262718425954717,-0.23115240563744888
7989335335.0,0.0148726566,-0.0035272402,0.015285199958457188,-0.23286053761437897
7989340340.0,0.0148333424,-0.0035753296,0.015258146299740146,-0.2365217831808088
7989345345.0,0.0148337568,-0.003599044,0.015264123247520058,-0.23802577194478572
7989350350.0,0.0147944704,-0.0036275291,0.015232705662088498,-0.24045115420844376
7989355355.0,0.0148137629,-0.0036503176,0.015256880082057608,-0.24160070518019836
7989360360.0,0.0147915531,-0.0036958788,0.015246296704918512,-0.24485079751178906
7989365365.0,0.0147826018,-0.0037106783,0.015241208922636489,-0.24593522492377665
7989370370.0,0.0147824132,-0.0037783225,0.015257636151433829,-0.2502383102114131
7989375375.0,0.0147483639,-0.0037941606,0.015228587997099915,-0.2517996237547933
7989380380.0,0.0147418373,-0.0038085388,0.015225857439591923,-0.2528209704654531
7989385385.0,0.014730694,-0.003878271,0.015232673162353251,-0.2574362504368362
7989390390.0,0.0147171102,-0.0038834314,0.015220853198078286,-0.25799133156976134
7989395395.0,0.0147142093,-0.0039315527,0.0152303992710987,-0.2610949209749659
7989400400.0,0.0147228637,-0.003967325,0.015248028829471785,-0.2632149256515041
7989405405.0,0.0146641931,-0.0039663367,0.015191128532530246,-0.2641569896092109
7989410410.0,0.0146675868,-0.0040340772,0.01521222802192677,-0.2683973214659342
7989415415.0,0.0146330748,-0.0040488648,0.015182891169703946,-0.2699392074270256
7989420420.0,0.0146285302,-0.0040852339,0.015188253086843835,-0.272326843809065
7989425425.0,0.0146503302,-0.0041213869,0.015219001443870214,-0.2742295361378313
7989430430.0,0.014619346,-0.0041837953,0.015206229663529946,-0.27873212327045493
7989435435.0,0.0146105891,-0.0041824502,0.015197440689949044,-0.2788055672565624
7989440440.0,0.0145641747,-0.0042206668,0.015163416927880811,-0.2820709619088305
7989445445.0,0.0145654758,-0.0042404573,0.015170186663106981,-0.2833000997098787
7989450450.0,0.0145625189,-0.0042956694,0.015182876285702704,-0.28684606083213543
7989455455.0,0.0145469695,-0.0042955105,0.015167917856104723,-0.2871260572048712
7989460460.0,0.0145303054,-0.0043247367,0.015160248102903727,-0.28928624482606563
7989465465.0,0.0145190277,-0.0043715925,0.015162881861289546,-0.29246018534996976
7989470470.0,0.0145108957,-0.0044044811,0.015164614989393423,-0.29469147329075646
7989475475.0,0.0144779075,-0.0044181176,0.015137026415580637,-0.29618647690589095
7989480480.0,0.014464318,-0.0044560567,0.01513515564897629,-0.29884608485479003
7989485485.0,0.0144397408,-0.004490028,0.015121721655022242,-0.30147155256407204
7989490490.0,0.0144361105,-0.0045294524,0.01513001075386518,-0.30403099252808935
7989495495.0,0.0143898032,-0.0045566624,0.0150940255850553,-0.3066694593578647
7989500501.0,0.0144157124,-0.0045997572,0.015131772212747112,-0.3088676556425744
7989505506.0,0.0144007072,-0.0046238319,0.015124820306357012,-0.3106856437450251
7989510511.0,0.0143637418,-0.0046473781,0.015096860657150773,-0.31291919972250937
7989515516.0,0.0143607302,-0.0046830106,0.015105004473912095,-0.3152250092752379
7989520521.0,0.0143689707,-0.0047465711,0.015132655291944429,-0.3190494535152715
7989525526.0,0.0143302557,-0.0047425453,0.01509463362754905,-0.31960070062069823
7989530531.0,0.0143196987,-0.0047660596,0.015092020904091468,-0.32129964128329835
7989535536.0,0.0143194995,-0.0047981161,0.015101986095861015,-0.3233178501386104
7989540541.0,0.0142941359,-0.0048496351,0.015094412268479379,-0.3270879957826907
7989545546.0,0.0142399442,-0.0048845253,0.01505438800567641,-0.330439281842872
7989550551.0,0.0142452956,-0.0049298451,0.015074210408554518,-0.333167898258681
7989555556.0,0.0142201363,-0.0049419782,0.015054415462576185,-0.33447608426475167
7989560561.0,0.01421387,-0.0049583158,0.015053869799803294,-0.33563786389265343
7989565566.0,0.0142168493,-0.0050196795,0.015077001900299368,-0.33941570181268815
7989570571.0,0.0141865103,-0.0050426156,0.015056063449035059,-0.34152306243505387
7989575576.0,0.0141581931,-0.0050835548,0.015043169920648063,-0.3447177969755487
7989580581.0,0.0141502112,-0.0050884207,0.01503730368865356,-0.34520172520245307
7989585586.0,0.0141523307,-0.0051188013,0.015049604346661217,-0.3470536788318181
7989590591.0,0.01412266,-0.0051461736,0.015031055458514448,-0.3494375581613477
7989595596.0,0.0141214651,-0.0051645352,0.015036229593969263,-0.3506121229453412
7989600601.0,0.01409295,-0.0052022154,0.015022459344944061,-0.3536197572604403
7989605606.0,0.0140577204,-0.005226712,0.01499793389689127,-0.35596546557682507
7989610611.0,0.0140571798,-0.005284105,0.015017525414679779,-0.35956017049380895
7989615616.0,0.0140365087,-0.0052953111,0.015002129719841743,-0.36074419432199983
7989620621.0,0.0140116664,-0.0053277444,0.014990385441896426,-0.3633534906609625
7989625626.0,0.0140111394,-0.0053475186,0.014996932435120802,-0.36459844212771475
7989630631.0,0.0139812423,-0.0053995358,0.014987665699060376,-0.3685522694582455
7989635636.0,0.013968253,-0.0054168206,0.014981790189579926,-0.36994087016584165
7989640641.0,0.0139384381,-0.0054538242,0.014967439830246095,-0.37296611784915307
7989645646.0,0.0139400318,-0.0054677212,0.014973992844460047,-0.37379160779453025
7989650651.0,0.0139292248,-0.0055183782,0.01498251652717828,-0.3772026077271083
7989655656.0,0.0138962479,-0.0055591708,0.01496696648228448,-0.3805480423412932
7989660661.0,0.0138881228,-0.0055795577,0.014967011025435543,-0.38201435745888795
7989665666.0,0.013844281,-0.0056120744,0.014938523872126602,-0.385128227978689
7989670671.0,0.0138484105,-0.0056319157,0.014949814307489467,-0.3862544340374531
7989675676.0,0.0138157534,-0.0056710277,0.014934376357376924,-0.38950419819530313
7989680681.0,0.0138004435,-0.0057028515,0.0149323392684383,-0.39186509914857365
7989685686.0,0.0137777145,-0.0057269592,0.014920572325550214,-0.39394014120705956
7989690691.0,0.01377112,-0.0057922971,0.01493969383049962,-0.3981480334351471
7989695696.0,0.0137381031,-0.0057940828,0.014909958828899743,-0.3991169878853256
7989700701.0,0.0137306766,-0.0058128835,0.014910435757494138,-0.40047234933715126
7989705706.0,0.01371145,-0.0058307846,0.01489972852618789,-0.40208179311421555
7989710711.0,0.0136694781,-0.0058661914,0.014875040607266037,-0.4053764535758813
7989715716.0,0.0136878462,-0.0058855725,0.014899567015440773,-0.4060856426051698
7989720721.0,0.0136622427,-0.0059550727,0.014903682982940446,-0.4110483177902522
7989725726.0,0.0136261912,-0.0059417566,0.014865313925800592,-0.41119619330463447
7989730731.0,0.0136353531,-0.0059770606,0.014887851006030118,-0.41312388101538167
7989735736.0,0.0136097957,-0.0060254888,0.014883986504786407,-0.4167932408960663
7989740741.0,0.0136238362,-0.0060524802,0.014907764063595267,-0.4180675232683971
7989745746.0,0.0135752963,-0.0060639183,0.014868079054870153,-0.42009602888028996
7989750751.0,0.0135776948,-0.0060936111,0.014882402101811059,-0.4218519815812447
7989755756.0,0.0135213726,-0.0061431053,0.01485143965125667,-0.42644524411203044
7989760761.0,0.0135175057,-0.0061671194,0.014857870710279749,-0.42802440343495984
7989765766.0,0.0135109047,-0.0061774367,0.014856152597324415,-0.4288406617060291
7989770771.0,0.0135175344,-0.0062387774,0.01488778290081952,-0.43240261420422477
7989775776.0,0.0134660336,-0.0062655262,0.014852302160918198,-0.4354909263252737
7989780781.0,0.0134405677,-0.00627719,0.01483414892720116,-0.43692802092172756
7989785786.0,0.0134072603,-0.0063200316,0.014822193770726202,-0.4404977550515727
7989790791.0,0.0133950458,-0.0063415024,0.01482032066702011,-0.4421596176442575
7989795796.0,0.0133603607,-0.0063797987,0.014805440536729267,-0.44549993804728616
7989800801.0,0.0133463133,-0.0063899722,0.014797155923302618,-0.44652943817686275
7989805806.0,0.0133062501,-0.0064108449,0.014770078674658642,-0.44897539675259
7989810811.0,0.0133000734,-0.0064538477,0.014783237215853057,-0.45177734712572565
7989815816.0,0.0133029551,-0.0065009528,0.014806451354070084,-0.45455459397438114
7989820821.0,0.0132655066,-0.0064989609,0.014771938198299245,-0.45554651435559446
7989825826.0,0.013232076,-0.0065269737,0.01475429500010989,-0.4582483731367015
7989830831.0,0.0132236058,-0.0065558491,0.014759502287535458,-0.4602567970962041
7989835836.0,0.0132020813,-0.0066169308,0.014767488746019018,-0.4646100329218665
7989840841.0,0.0131783762,-0.006621856,0.014748510980891002,-0.4656287633820676
7989845846.0,0.0131761584,-0.0066493561,0.014758898560749639,-0.4673611551902522
7989850851.0,0.0131448846,-0.0066626423,0.014736987262160012,-0.4691221157083637
7989855856.0,0.0131198448,-0.0066916736,0.014727824793397836,-0.47164900192928794
7989860861.0,0.0131109446,-0.0067330142,0.014738736327164239,-0.47442203170929664
7989865866.0,0.0130688758,-0.0067679053,0.014717338646154533,-0.4778367639134206
7989870871.0,0.0130575416,-0.0067954446,0.014719968068830845,-0.479852177911225
7989875876.0,0.0130325509,-0.0068292656,0.01471347177237358,-0.48267532716085976
7989880881.0,0.0130143816,-0.0068606154,0.014711973766192479,-0.4851360174311867
7989885886.0,0.0129809157,-0.0068822246,0.014692487463168095,-0.48749925844344816
7989890891.0,0.0129780526,-0.0068738116,0.014686018357630544,-0.4870844545709902
7989895896.0,0.0129418288,-0.0069208515,0.01467614111997979,-0.491072149507014
7989900901.0,0.0129184173,-0.0069537082,0.014671045063923924,-0.4937995761278227
7989905906.0,0.0128926753,-0.0069772346,0.014659566127777015,-0.49604500329559476
7989910911.0,0.0128844401,-0.0070253289,0.014675286806180764,-0.4991943256846084
7989915916.0,0.0128736088,-0.0070420759,0.014673807839712167,-0.5005496989685962
7989920921.0,0.0128377913,-0.0070899461,0.014665477188392504,-0.5045854825189384
7989925926.0,0.0128260792,-0.0070742629,0.01464764497190552,-0.5040347776788314
7989930931.0,0.012789037,-0.0071364116,0.014645403303152274,-0.5089721793874182
7989935936.0,0.0127686386,-0.0071589668,0.01463861118210714,-0.5109966874016637
7989940941.0,0.0127335357,-0.0071772768,0.014616984425215508,-0.5132637778936654
7989945946.0,0.0127392524,-0.0072227428,0.01464433560342898,-0.5157767329058589
7989950951.0,0.0127182187,-0.0072208183,0.014625091583393405,-0.5163715944470647
7989955956.0,0.0126691114,-0.0072589612,0.014601332177877312,-0.520303803455769
7989960961.0,0.0126625622,-0.007291802,0.014612010740348942,-0.5224767307021235
7989965966.0,0.012629592,-0.0073072694,0.014591188442708852,-0.5245229590305966
7989970971.0,0.0125804813,-0.007320926,0.014555564820271514,-0.5270247740665405
7989975976.0,0.0125738316,-0.0073654113,0.014572251875510738,-0.5298927994367578
7989980981.0,0.0125471864,-0.0074098333,0.014571805519225607,-0.5334474518964096
7989985986.0,0.0125123764,-0.0074115638,0.014542724680634899,-0.5347670891393675
7989990991.0,0.0124975601,-0.0074596372,0.014554559272225862,-0.5381277423518137
7989995996.0,0.0124874579,-0.0074740546,0.014553284748401426,-0.5393341684630458
7990001001.0,0.0124620046,-0.0075301968,0.014560405986687026,-0.5435404357867987
7990006006.0,0.0124384401,-0.0075053254,0.014527377653285304,-0.542914020515703
7990011011.0,0.012411346,-0.0075410844,0.014522722315724396,-0.5459860947980686
7990016016.0,0.0124119801,-0.0075908253,0.014549153883917651,-0.5488852426347044
7990021021.0,0.0123738243,-0.007595318,0.014518966331264581,-0.5505203478930019
7990026026.0,0.0123255057,-0.0076477375,0.014505377610722126,-0.5553428258344155
7990031031.0,0.0123246035,-0.007652294,0.014507013989606828,-0.5556425028841218
7990036036.0,0.0123165021,-0.0076775536,0.0145134783308543,-0.5574155446815819
7990041041.0,0.0122988806,-0.0077131347,0.014517400280814758,-0.5601375709066835
7990046046.0,0.0122500533,-0.0077020092,0.01447013308749182,-0.5612790088350408
7990051051.0,0.0122397743,-0.0077800813,0.014503163101528927,-0.5662134757029003
7990056056.0,0.012194064,-0.0077860424,0.014467814385410595,-0.5682560557098942
7990061061.0,0.0121690764,-0.0078125231,0.01446104898052249,-0.5707293515418462
7990066066.0,0.0121339949,-0.0078424345,0.014447754535567674,-0.5737833461419178
7990071071.0,0.012114195,-0.0078604059,0.014440903760179964,-0.5755727774137757
7990076076.0,0.0120940801,-0.0078752069,0.014432105084949446,-0.5771917465188979
7990081081.0,0.0120832009,-0.0079229131,0.014449093258052992,-0.5803694045318074
7990086086.0,0.012043428,-0.007910526,0.014409045061622232,-0.5811640409804805
7990091091.0,0.0120050057,-0.0079713911,0.014410525248102225,-0.5861580683170374
7990096096.0,0.0119890371,-0.0079893238,0.014407161599927408,-0.5878081160651136
7990101101.0,0.0119707905,-0.0080307812,0.014415036312030702,-0.5909033302356835
7990106106.0,0.0119361753,-0.0080204003,0.014380511178834019,-0.5916448777609667
7990111111.0,0.011916805,-0.0080586817,0.014385846938916732,-0.5946045852673313
7990116116.0,0.0118904623,-0.0081032125,0.01438906343470198,-0.5981937541868977
7990121121.0,0.0118497435,-0.0080994808,0.014353327497321341,-0.599576508471472
7990126126.0,0.0118308671,-0.008111857,0.014344742602302469,-0.6010313483089483
7990131131.0,0.011820209,-0.0081599819,0.014363239377383106,-0.6042143565858475
7990136136.0,0.0117897642,-0.0081943456,0.014357779762339335,-0.6073886501193576
7990141141.0,0.0117571412,-0.008207846,0.01433872745945237,-0.6094602789540854
7990146146.0,0.0117150645,-0.0082273571,0.014315451131210664,-0.6122603354480595
7990151151.0,0.0117296322,-0.0082475683,0.01433899070403638,-0.6128299381604579
7990156156.0,0.0116658224,-0.0082860585,0.014309094231773163,-0.6175953390346393
7990161161.0,0.0116577991,-0.0083005455,0.014310951591474658,-0.6187452955046668
7990166166.0,0.011627806,-0.0083045695,0.01428886793815263,-0.6201921833156344
7990171171.0,0.0115996227,-0.0083660818,0.01430183804504325,-0.6248375163844424
7990176176.0,0.0115690469,-0.0083690131,0.014278768379743794,-0.6262566338560134
7990181181.0,0.0115492444,-0.0084037207,0.014283121781128238,-0.6290380743781907
7990186186.0,0.0115034022,-0.0084209933,0.014256275472002136,-0.6319096955359964
7990191191.0,0.0114916373,-0.008441964,0.014259189458452653,-0.6335837499912311
7990196196.0,0.0114641312,-0.0084859838,0.014263177248589314,-0.6372127293135071
7990201201.0,0.0114483053,-0.0084862939,0.014250644841521568,-0.637890943058964
7990206206.0,0.0114316656,-0.008508775,0.014250692277600003,-0.6398536035180492
7990211211.0,0.0113804741,-0.0085479866,0.014233174826950955,-0.64421105727433
7990216216.0,0.011331476,-0.0085673673,0.014205707683592722,-0.6473733817342466
7990221221.0,0.011322819,-0.0085941828,0.014214999405788832,-0.6492454135753006
7990226226.0,0.0113006032,-0.0086157518,0.01421037690432782,-0.6513996105571329
