frequency,Re(S21),Im(S21),Amplitude,phase
7811500000.0,-0.0075345739,0.0085523057,0.011397882989433332,2.2930139804418874
7811501001.0,-0.0075224033,0.0085681294,0.011401727624487233,2.291295611152868
7811502002.0,-0.0075131826,0.0086031388,0.011421992382811687,2.2886667376328886
7811503003.0,-0.007488573,0.0086320699,0.011427657517392399,2.28537939882006
7811504004.0,-0.007474522,0.0086357121,0.011421208456313649,2.284241130417633
7811505005.0,-0.0074559775,0.0086404282,0.011412650873476394,2.2827420799467557
7811506006.0,-0.0074577056,0.0086520426,0.011422574752151379,2.282192339509136
7811507007.0,-0.0074285892,0.0086554545,0.011406175086501474,2.280063503946724
7811508008.0,-0.0074073411,0.0086705149,0.011403794579124583,2.277789487036537
7811509009.0,-0.0073838972,0.0086617224,0.011381887927528965,2.2767251945613682
7811510010.0,-0.0073567265,0.0086936578,0.011388639547342918,2.2730904277514026
7811511011.0,-0.0073502355,0.0086812868,0.011375003402606722,2.2733573567258003
7811512012.0,-0.0073367458,0.0087054636,0.01138476769305121,2.271080836644321
7811513013.0,-0.0073176162,0.0087031417,0.011370672025029185,2.269925996634368
7811514014.0,-0.0073104355,0.0087089803,0.011370523517650732,2.2691121758175656
7811515015.0,-0.0073002153,0.008703581,0.011359818028908522,2.268728670298764
7811516016.0,-0.0072871228,0.0087099791,0.011356315186922062,2.2674833050501073
7811517017.0,-0.007264656,0.0087289457,0.011356483603293959,2.2648943048804533
7811518018.0,-0.0072573508,0.0087206694,0.011345449106067024,2.2648660365080238
7811519019.0,-0.0072403013,0.0087353872,0.011345878214078692,2.2628812062363988
7811520020.0,-0.007199406,0.0087388113,0.011322467473560862,2.2599073744199507
7811521021.0,-0.0072006422,0.0087346061,0.011320008472372186,2.260227868484544
7811522022.0,-0.0071929781,0.0087682075,0.01134109327667028,2.2578217943998036
7811523023.0,-0.0071908731,0.0087483848,0.01132443784693857,2.2587882799099037
7811524024.0,-0.0071562993,0.0087468518,0.011301328952045584,2.256511058287022
7811525025.0,-0.0071692452,0.0087498959,0.01131188556336033,2.2572264201306265
7811526026.0,-0.0071447207,0.0087654471,0.011308408232103532,2.254677334608412
7811527027.0,-0.0071364915,0.0087569892,0.01129665307861089,2.254585721740812
7811528028.0,-0.0071154408,0.0087689577,0.011292657655427881,2.252471151952393
7811529029.0,-0.0071150379,0.0087541075,0.011280875960668686,2.2532728778239925
7811530030.0,-0.0070734241,0.0087716282,0.011268309091318715,2.2494263769797254
7811531031.0,-0.0070754666,0.0087802217,0.011276281333350392,2.249088994165775
7811532032.0,-0.0070672823,0.0087727768,0.011265349168601545,2.2489379775634517
7811533033.0,-0.0070530676,0.0087536162,0.011241510536714903,2.249022556035188
7811534034.0,-0.0070331924,0.0087825527,0.01125162331682389,2.246033499603847
7811535035.0,-0.0070333504,0.0087856446,0.011254135634809512,2.245872726333316
7811536036.0,-0.0070247608,0.0087863465,0.011249317717767549,2.245237647097896
7811537037.0,-0.0069963445,0.0087821755,0.011228332150211824,2.243492944258802
7811538038.0,-0.0069727809,0.0087837875,0.011214927388287499,2.241760023799074
7811539039.0,-0.0069897579,0.0087820242,0.011224110857880817,2.2430423609601746
7811540040.0,-0.0069603916,0.0087908153,0.011212737616838478,2.240504928120513
7811541041.0,-0.0069910853,0.0087942598,0.011234512855561301,2.2424565707957496
7811542042.0,-0.006945112,0.0087953861,0.01120684600325253,2.239182824749123
7811543043.0,-0.0069485345,0.0087858105,0.011201455166164817,2.239952390090242
7811544044.0,-0.0069379641,0.0087935377,0.011200966526787325,2.2387842571536822
7811545045.0,-0.0069187699,0.0088103811,0.011202329760205383,2.2365077901265784
7811546046.0,-0.0069120025,0.0087994964,0.011189589601661859,2.2366329231757254
7811547047.0,-0.0069145713,0.0087912302,0.011184678121974531,2.237270069793964
7811548048.0,-0.0068888411,0.0088003699,0.011175985060739623,2.2349548861911055
7811549049.0,-0.0068816349,0.0087899321,0.011163324111549768,2.2350229131410737
7811550050.0,-0.0068603849,0.0087939809,0.011153429116003418,2.2332989579773064
7811551051.0,-0.0068414216,0.0087955784,0.011143035892408008,2.2318689769157625
7811552052.0,-0.006842689,0.0088057163,0.01115181744411227,2.231400541827027
7811553053.0,-0.0068344921,0.0088076703,0.011148333435023574,2.2307124198744277
7811554054.0,-0.0068137564,0.0087999522,0.011129529864321575,2.2296656078965937
7811555055.0,-0.0067972177,0.0088112217,0.011128333042632403,2.227870517666414
7811556056.0,-0.0068013288,0.0088162256,0.01113480611756688,2.227888362741149
7811557057.0,-0.0067759103,0.0088101198,0.011114457759333026,2.2264131552530535
7811558058.0,-0.006768053,0.0088169045,0.011115050444011905,2.2254806768685715
7811559059.0,-0.0067631251,0.0088068683,0.011104088903273194,2.22567899328858
7811560060.0,-0.006763135,0.0088162023,0.011111499359796152,2.225168065646835
7811561061.0,-0.0067410637,0.008806739,0.011090563178737979,2.224108416673418
7811562062.0,-0.0067284301,0.008814035,0.011088687234826809,2.2228037822382345
7811563063.0,-0.0067272418,0.0088196228,0.011092408600928253,2.222412963188182
7811564064.0,-0.0067004724,0.0088051377,0.011064663587254836,2.221283271902775
7811565065.0,-0.0066940419,0.0088214535,0.011073763534210844,2.219928922067597
7811566066.0,-0.0066918917,0.0088144606,0.011066893430113134,2.2201561141164445
7811567067.0,-0.00666598,0.0088113688,0.011048778642456977,2.218457429561814
7811568068.0,-0.0066646243,0.0088189655,0.011054020515194492,2.217944997970817
7811569069.0,-0.0066410938,0.0088179948,0.011039074198193681,2.216297437972659
7811570070.0,-0.0066371053,0.0087999615,0.011022272413834196,2.216992648957186
7811571071.0,-0.0066378225,0.0088048642,0.011026618752906437,2.216776845516476
7811572072.0,-0.0066202687,0.0088146979,0.011023922021153093,2.214968360195657
7811573073.0,-0.0065959883,0.008826173,0.011018547612079639,2.2125809508069527
7811574074.0,-0.0065987242,0.0088138323,0.011010304304613425,2.213450953887479
7811575075.0,-0.0065926319,0.008820798,0.011012232867393498,2.21262899207218
7811576076.0,-0.0065743457,0.0088149449,0.010996602883306486,2.2116156605289463
7811577077.0,-0.0065657893,0.0088105167,0.010987938553385408,2.2112323808857903
7811578078.0,-0.0065392049,0.0087988033,0.01096267030591885,2.209926400863083
7811579079.0,-0.0065334551,0.0088112845,0.010969264792302912,2.208826976042392
7811580080.0,-0.0065391552,0.0087955287,0.010960012584035235,2.2101009810094085
7811581081.0,-0.0065308077,0.0088153518,0.01097095604640464,2.2084123247168628
7811582082.0,-0.0065092489,0.0088064092,0.01095094353195175,2.2073165740136877
7811583083.0,-0.0064885265,0.0088105376,0.010941962755475636,2.2055693330813146
7811584084.0,-0.0064935582,0.0088195237,0.01095218226618097,2.2054527212989683
7811585085.0,-0.0064931841,0.0088167733,0.010949745713033053,2.2055741360778733
7811586086.0,-0.0064614426,0.0088228067,0.010935819975596693,2.202909845835642
7811587087.0,-0.0064436101,0.0088142292,0.010918367437989742,2.2020563401508055
7811588088.0,-0.0064424163,0.0088149861,0.01091827402686427,2.201927159456791
7811589089.0,-0.0064364577,0.0088085859,0.01090959088516009,2.2018323575644576
7811590090.0,-0.0064226541,0.0088066247,0.010899868086123653,2.200915999069526
7811591091.0,-0.0063927877,0.0088071143,0.010882692537719505,2.1986721352542133
7811592092.0,-0.0063987809,0.0088126063,0.010890657776507554,2.19882125485547
7811593093.0,-0.0063778676,0.0088072921,0.010874078777434536,2.197552137580167
7811594094.0,-0.0063687877,0.0088019162,0.010864399917137335,2.1971654571793273
7811595095.0,-0.0063581795,0.0088060605,0.010861544461257823,2.196150521162886
7811596096.0,-0.0063524442,0.008810647,0.010861908113804067,2.1954752443801295
7811597097.0,-0.0063467677,0.0088181103,0.01086464585252227,2.1946496940237794
7811598098.0,-0.0063285764,0.0088008789,0.010840034532375907,2.194216240350131
7811599099.0,-0.0063281771,0.008817745,0.010853499541345613,2.193279134995674
7811600100.0,-0.0063243667,0.008803518,0.01083972062981297,2.1937587981360376
7811601101.0,-0.0063060708,0.0088110144,0.01083515129989517,2.1919837589382567
7811602102.0,-0.006283564,0.0088046915,0.01081692049301779,2.190631957598244
7811603103.0,-0.0062771339,0.008807314,0.010815321996738018,2.1900071636072576
7811604104.0,-0.006259819,0.0087975035,0.010797286777022885,2.1892286145514026
7811605105.0,-0.0062447392,0.0088238324,0.01081003172517576,2.1866799375435497
7811606106.0,-0.0062477268,0.0088049717,0.010796370538530027,2.1879149934305784
7811607107.0,-0.0062355921,0.008807195,0.010791167342118619,2.1868786788904
7811608108.0,-0.0062188444,0.0088066966,0.010781091349017637,2.1856375599153917
7811609109.0,-0.006201195,0.0088014099,0.01076659814685414,2.1845817334837285
7811610110.0,-0.0062143827,0.0087981585,0.010771543312505481,2.1857564301208074
7811611111.0,-0.0061826656,0.0087994335,0.010754319310972016,2.1832790977850696
7811612112.0,-0.0061708233,0.008781303,0.010732676393967718,2.1833474490901654
7811613113.0,-0.0061641117,0.0088119869,0.010753947469457367,2.181196308566086
7811614114.0,-0.006129447,0.0087888735,0.010715148992189108,2.179781823224006
7811615115.0,-0.006127298,0.0087873001,0.010712629174402705,2.179701298568632
7811616116.0,-0.0061243619,0.0087974212,0.010719255032528196,2.178936565290391
7811617117.0,-0.0061271778,0.0087935657,0.010717700570226309,2.1793577239671578
7811618118.0,-0.0060981487,0.0087970679,0.010704009585408736,2.176945568697137
7811619119.0,-0.0060784855,0.0087932956,0.010689716248932411,2.1756348642823706
7811620120.0,-0.0060860509,0.0088112263,0.010708768578468886,2.1752638908331696
7811621121.0,-0.0060574227,0.008788051,0.010673434786659648,2.1742909761348193
7811622122.0,-0.0060636032,0.0087856692,0.010674983234594745,2.1748943014333917
7811623123.0,-0.0060463857,0.008784324,0.01066410465862655,2.1736371719427905
7811624124.0,-0.0060401984,0.0087880002,0.010663627160894298,2.172963760939398
7811625125.0,-0.0060269984,0.0087832953,0.01065227609671307,2.1721927281340823
7811626126.0,-0.0059971994,0.0087859393,0.010637628026333917,2.169742309398915
7811627127.0,-0.0059790288,0.0087853018,0.010626867511562978,2.1683638929544
7811628128.0,-0.0060033128,0.0087859536,0.010641087596481707,2.1702160561369017
7811629129.0,-0.005969596,0.0087809962,0.01061800219757137,2.167857612698822
7811630130.0,-0.0059716625,0.0087870107,0.010624138085314063,2.1677001917281773
7811631131.0,-0.0059408203,0.0088049476,0.01062169704311123,2.164349401253504
7811632132.0,-0.0059407109,0.0087920812,0.010610972520215678,2.165019049330121
7811633133.0,-0.0059227609,0.0087765239,0.010588034210647414,2.1644369681223634
7811634134.0,-0.0059263492,0.0087761829,0.010589759257631547,2.164735853673207
7811635135.0,-0.0058979758,0.0087806031,0.0105775757778952,2.1622789632832675
7811636136.0,-0.005890071,0.0087749937,0.010568512233047786,2.161954023182637
7811637137.0,-0.0058849668,0.008777264,0.010567554000940721,2.161433251130731
7811638138.0,-0.0058747347,0.0087587595,0.010546486418434546,2.161604524603529
7811639139.0,-0.0058676863,0.0087698508,0.010551778313131314,2.160464257358619
7811640140.0,-0.0058427286,0.0087662722,0.01053494213452313,2.158684182855022
7811641141.0,-0.0058403786,0.0087540189,0.01052344378484986,2.159144134035428
7811642142.0,-0.0058255816,0.0087521628,0.01051369367329876,2.158071351767452
7811643143.0,-0.0058078773,0.0087742147,0.010522275530205022,2.1555094649420057
7811644144.0,-0.0058060678,0.0087481757,0.01049957148536393,2.156734620299784
7811645145.0,-0.005788847,0.0087595304,0.010499529628413511,2.15477003596046
7811646146.0,-0.0057805855,0.0087610926,0.010496280877938862,2.1540313266735445
7811647147.0,-0.0057709852,0.008755995,0.010486740133074914,2.1535349050486206
7811648148.0,-0.0057568864,0.0087519212,0.010475584265973637,2.15262516546218
7811649149.0,-0.0057343871,0.0087410485,0.010454143881351482,2.1513986543598294
7811650150.0,-0.0057341093,0.0087505654,0.010461950309766514,2.1508774742190724
7811651151.0,-0.0057343017,0.0087537233,0.01046469720534645,2.1507274562825427
7811652152.0,-0.0057271259,0.008756517,0.010463104751733102,2.1500074583600473
7811653153.0,-0.0057039534,0.0087495904,0.010444635779056334,2.1485137176570452
7811654154.0,-0.0056929217,0.0087651222,0.010451637415413132,2.1468179536848258
7811655155.0,-0.0056599433,0.008733695,0.010407323695947959,2.145805325965127
7811656156.0,-0.0056643916,0.0087506286,0.010423954772220018,2.1452799733789547
7811657157.0,-0.0056467904,0.0087309758,0.010397893067430431,2.1448860115185227
7811658158.0,-0.0056448646,0.0087333084,0.01039880627581088,2.144608687777634
7811659159.0,-0.0056395824,0.0087250584,0.01038901023821809,2.1446127518143685
7811660160.0,-0.0056370798,0.0087193998,0.01038289947672653,2.1447061697442193
7811661161.0,-0.0055994722,0.008733346,0.010374267264452407,2.140932019394657
7811662162.0,-0.0056026819,0.0087112679,0.010357424047424051,2.142343431316783
7811663163.0,-0.0055957715,0.0087219591,0.010362684460229648,2.141224480781533
7811664164.0,-0.0055757958,0.0087259591,0.010355281793276822,2.1393922829413965
7811665165.0,-0.0055553066,0.0087322042,0.010349532434390511,2.1373991427776615
7811666166.0,-0.0055454066,0.008719507,0.010333505536959496,2.1372503588939633
7811667167.0,-0.0055346075,0.0087089692,0.010318818958854007,2.136915306974603
7811668168.0,-0.0055380842,0.0087189232,0.010329085069539695,2.1366825044935283
7811669169.0,-0.0055134031,0.008712058,0.010310071209184426,2.135018811678559
7811670170.0,-0.0055029475,0.0087101036,0.010302831451134644,2.1342627187206142
7811671171.0,-0.0054886291,0.0087008238,0.010287340968200347,2.1335678477272433
7811672172.0,-0.0054830767,0.0086898114,0.0102750645869334,2.1336826270088163
7811673173.0,-0.0054704979,0.0086930191,0.010271072404908321,2.1324802356286034
7811674174.0,-0.0054481686,0.0086851786,0.010252554238233704,2.1310442350899383
7811675175.0,-0.0054387771,0.0087034356,0.010263044752257089,2.1293237447880453
7811676176.0,-0.0054096062,0.0086921875,0.010238064405649864,2.127489687124451
7811677177.0,-0.0054088014,0.0086844347,0.010231057552531217,2.127823294590575
7811678178.0,-0.0054012144,0.008698132,0.010238682399810602,2.126487051944286
7811679179.0,-0.0053940943,0.0086705081,0.010211462384470606,2.1273217668570767
7811680180.0,-0.0053779168,0.0086928575,0.01022192548510448,2.1248230106835755
7811681181.0,-0.005365511,0.0086911313,0.010213935165496239,2.123879018702519
7811682182.0,-0.0053346892,0.008668885,0.010178824883247655,2.1224505344141247
7811683183.0,-0.0053426477,0.0086709751,0.010184777544509025,2.123008476064362
7811684184.0,-0.0053176936,0.0086792091,0.010178729578144993,2.120496922138156
7811685185.0,-0.0053185021,0.0086635203,0.010165778306466087,2.1213710041711784
7811686186.0,-0.0052899672,0.0086680179,0.010154717489511772,2.118744520605047
7811687187.0,-0.0052911282,0.0086684849,0.010155720953746379,2.118818148707715
7811688188.0,-0.0052845717,0.0086657351,0.010149958762271545,2.118407930265394
7811689189.0,-0.0052493318,0.0086578806,0.01012493855933692,2.1158402729454355
7811690190.0,-0.0052575459,0.0086675234,0.010137443009958396,2.1160399830316896
7811691191.0,-0.0052289242,0.0086278617,0.010088689003219027,2.1156532157511556
7811692192.0,-0.0052393367,0.0086589935,0.010120712301464217,2.114938770626095
7811693193.0,-0.0052151206,0.0086371978,0.010089532630844165,2.114003612368541
7811694194.0,-0.0051975604,0.008631814,0.010075854655672845,2.11278786401809
7811695195.0,-0.005192845,0.0086131565,0.010057440235344044,2.113343148468896
7811696196.0,-0.005183782,0.0086243048,0.010062317283152378,2.1119997599219746
7811697197.0,-0.0051704368,0.0086244167,0.010055544744966984,2.1108565420626464
7811698198.0,-0.0051467383,0.0086271395,0.010045718047065982,2.108693857184867
7811699199.0,-0.005133106,0.0086409352,0.01005059890443525,2.10682578588126
7811700200.0,-0.0051104933,0.0086067526,0.010009661936696546,2.106627661102721
7811701201.0,-0.0051177057,0.0085993149,0.010006954001152124,2.1076268569250396
7811702202.0,-0.0051041738,0.0086325527,0.010028636811595269,2.104772354646703
7811703203.0,-0.0050888419,0.0086049252,0.009997052044517457,2.1048587540387778
7811704204.0,-0.0050647063,0.0086014679,0.009981808450375619,2.1029538131643877
7811705205.0,-0.0050715741,0.0085984662,0.0099827092937906,2.103699214642587
7811706206.0,-0.0050426405,0.0085990801,0.00996857069887435,2.101167912995177
7811707207.0,-0.0050461704,0.0086135062,0.009982801448655312,2.1007419263707847
7811708208.0,-0.0050407094,0.0086082055,0.009975467567261127,2.1005381757384214
7811709209.0,-0.0050167358,0.0085965704,0.00995332410449684,2.0990503928017414
7811710210.0,-0.005003479,0.0085892301,0.009940305619757724,2.0982707345135516
7811711211.0,-0.0049794019,0.0085707858,0.009912255672207273,2.0971084781317493
7811712212.0,-0.0049742236,0.0085881793,0.009924702721580402,2.0957769428828676
7811713213.0,-0.0049724076,0.0085707178,0.009908685127087983,2.096501579159699
7811714214.0,-0.0049503484,0.0085578652,0.009886506261706084,2.095223997121538
7811715215.0,-0.0049188576,0.0085634787,0.009875643145356734,2.0921791729201296
7811716216.0,-0.0049177446,0.0085438419,0.009858065041529437,2.0930734230560555
7811717217.0,-0.0049023811,0.0085543191,0.009859498755731045,2.0911928065045826
7811718218.0,-0.0049052011,0.0085567374,0.009862999176923822,2.0913189605387963
7811719219.0,-0.0048734788,0.0085308913,0.009824810531835466,2.0898261226218953
7811720220.0,-0.0048695453,0.0085332555,0.00982491327478428,2.0893591266982865
7811721221.0,-0.0048491942,0.008541129,0.009821688703270668,2.0871621553436506
7811722222.0,-0.0048288022,0.0085346807,0.00980602393111894,2.085678413756972
7811723223.0,-0.0048171515,0.0085188087,0.009786472819210605,2.085440911263452
7811724224.0,-0.0048291264,0.0085292696,0.009801474465439428,2.085979059114352
7811725225.0,-0.0047890301,0.0085210562,0.009774620609633114,2.082823410488009
7811726226.0,-0.0047854217,0.0085237542,0.009775205701613063,2.082366386162976
7811727227.0,-0.0047800092,0.0085121286,0.009762418821942778,2.082465921042458
7811728228.0,-0.0047792901,0.0085136576,0.009763400001536134,2.0823250220198988
7811729229.0,-0.0047558493,0.0085050684,0.00974444924318399,2.0806588618373896
7811730230.0,-0.0047316219,0.0084986339,0.009727025443103807,2.0788077757267986
7811731231.0,-0.0047285973,0.0085007403,0.009727395235807547,2.078430771106043
7811732232.0,-0.0047168353,0.0084885615,0.00971103555686047,2.0779819495391276
7811733233.0,-0.0046969238,0.0084805032,0.009694329667811832,2.076590324245601
7811734234.0,-0.0047019019,0.0084750184,0.009691946056265593,2.0773138312148576
7811735235.0,-0.0046762848,0.0084782111,0.009682339747544198,2.0748403057957017
7811736236.0,-0.0046809547,0.0084680633,0.00967571356315693,2.075769459495938
7811737237.0,-0.0046489594,0.0084579802,0.009651437849690605,2.0733735609242685
7811738238.0,-0.0046468114,0.0084523547,0.009645473350840903,2.073459335435012
7811739239.0,-0.0046036116,0.0084670564,0.009637649290383809,2.06879647959643
7811740240.0,-0.0046116363,0.0084457532,0.00962278215895943,2.0705865976179303
7811741241.0,-0.0045664041,0.0084291932,0.009586623201494001,2.067273297845097
7811742242.0,-0.0045792081,0.008429298,0.009592820836224848,2.0684416931437672
7811743243.0,-0.004558771,0.0084304993,0.00958413853602615,2.0665081103674625
7811744244.0,-0.0045349265,0.0084305827,0.009572893137497228,2.0643129502697395
7811745245.0,-0.0045606534,0.0084214181,0.009577047679214046,2.0671320355179064
7811746246.0,-0.0045350914,0.0084016241,0.009547478280889397,2.065765026243609
7811747247.0,-0.0045133923,0.0083980616,0.00953405206043547,2.0639397100946058
7811748248.0,-0.0044899117,0.0084096724,0.009533199722502337,2.061193578808848
7811749249.0,-0.0044870925,0.00838817,0.00951290676147182,2.06199671685664
7811750250.0,-0.004470142,0.008387262,0.0095041219140333,2.0604691572883778
7811751251.0,-0.0044514781,0.0083882277,0.009496210887602849,2.058686882346558
