frequency,Re(S21),Im(S21),amplitude,phase
5000000000.0,-0.3174385787801603,-0.4349843960653307,0.5384966816223555,-2.201224049267836
5001101101.0,-0.3146109313255784,-0.4325557022556823,0.5348686508512667,-2.1996303625614155
5002202202.0,-0.31219859783335785,-0.4306919762948035,0.531943176414397,-2.1980237244360983
5003303303.0,-0.3097555811779581,-0.4294683588587069,0.5295201519599473,-2.19564446631097
5004404404.0,-0.30751814418342455,-0.4290540112241802,0.527877593339191,-2.1926659399027995
5005505506.0,-0.30550312926799755,-0.42908399420674825,0.526730705462436,-2.189523432927505
5006606607.0,-0.3036834908542235,-0.4295356609932529,0.5260461450123154,-2.1862076050914507
5007707708.0,-0.3022415421479231,-0.4303158864776938,0.525853317908177,-2.1831120164588906
5008808809.0,-0.30116564840562604,-0.4316110351934277,0.5262972862178974,-2.180024727216658
5009909910.0,-0.3004319197622408,-0.43325694632702055,0.5272294756106114,-2.1770970204751725
5011011011.0,-0.30034697269066074,-0.43533831801682943,0.5288929524376049,-2.1747225543401485
5012112112.0,-0.30057783988556924,-0.4374374720261067,0.5307528424444524,-2.17283460301738
5013213213.0,-0.3013955279187097,-0.4397371328952851,0.5331116302392618,-2.171655811065363
5014314314.0,-0.3028481832749326,-0.4420771313203033,0.5358630535400961,-2.1714231039671414
5015415415.0,-0.3048420974039232,-0.4443172243466684,0.538838102031353,-2.172126343348461
5016516517.0,-0.3074788993517838,-0.44670842001802524,0.5423022091616305,-2.173641126903946
5017617618.0,-0.3106544075372761,-0.44878450430719063,0.5458147050314666,-2.1762768843600417
5018718719.0,-0.3143735358988548,-0.45058179055383785,0.549413023191343,-2.1799809103590486
5019819820.0,-0.3186561336877048,-0.4521081234619252,0.5531215841359473,-2.1847517712048465
5020920921.0,-0.3233889213721843,-0.4531013745527165,0.5566697854992902,-2.190673177170621
5022022022.0,-0.32858255970692535,-0.4535424146699231,0.5600600150414058,-2.197763809439706
5023123123.0,-0.3340272903895831,-0.4534596644196527,0.5632050230427557,-2.205678857567634
5024224224.0,-0.33977739694571185,-0.4526635569024594,0.5659973279290195,-2.2146928145235254
5025325325.0,-0.34545545739098754,-0.451204037347528,0.5682645126698709,-2.2242259742753663
5026426426.0,-0.35117435349523585,-0.44911261399545527,0.570110135502455,-2.2344210713563815
5027527528.0,-0.3565978382200496,-0.44639814951112894,0.5713434397192051,-2.2448256411913587
5028628629.0,-0.3617673742588456,-0.4431724209449671,0.5720816617969525,-2.255405325022931
5029729730.0,-0.36652150292058105,-0.4394858183739242,0.5722637474582497,-2.2659149401753775
5030830831.0,-0.3707318176903363,-0.43515203668256797,0.5716636910605464,-2.276426757285046
5031931932.0,-0.3744102911068691,-0.43033556543210727,0.5704136788003088,-2.2868117102865546
5033033033.0,-0.3776753754727028,-0.42525525317093293,0.5687536545710465,-2.297005936329692
5034134134.0,-0.3801908927195758,-0.42018602150151174,0.5666581046558646,-2.3062656528187175
5035235235.0,-0.3820778623350026,-0.4149200748005934,0.5640409217060542,-2.3150103909427755
5036336336.0,-0.3834409949552386,-0.40976597741601967,0.561190834618643,-2.323018629944978
5037437437.0,-0.38425925135712985,-0.40486617251679846,0.5581861606148472,-2.330086803944213
5038538539.0,-0.38452625545928454,-0.4000422128498797,0.5548821615436628,-2.3364206454706187
5039639640.0,-0.3843960298085426,-0.39556417756818846,0.5515716873696177,-2.341876600023762
5040740741.0,-0.38392411152710026,-0.3913941581240394,0.5482582515799456,-2.3465599752389297
5041841842.0,-0.38316569232347647,-0.3877735323162733,0.545146090638802,-2.3502176440581075
5042942943.0,-0.382151734200331,-0.38444481532571906,0.5420680436837674,-2.3532032501617524
5044044044.0,-0.38105404357410155,-0.38154613178674934,0.5392398675966056,-2.355549213466417
5045145145.0,-0.3800062566645962,-0.3791793379545969,0.5368256005779953,-2.3572837078867304
5046246246.0,-0.37885406872015537,-0.3771727709297518,0.5345930269996451,-2.358418346450598
5047347347.0,-0.3778797489908419,-0.3756339675683179,0.5328170251488759,-2.3591748934996173
5048448448.0,-0.3771795793952209,-0.3743597731467905,0.531422313102557,-2.359946513299016
5049549550.0,-0.3765570988018933,-0.37349381491061595,0.5303705105250331,-2.3602785687578205
5050650651.0,-0.3763202712576563,-0.3728704522518638,0.5297634573297271,-2.360799184985122
5051751752.0,-0.37640873055978463,-0.37242686572970773,0.5295142139346991,-2.361511848664068
5052852853.0,-0.3767297595226484,-0.37218034814542156,0.5295691864673017,-2.3622691250129284
5053953954.0,-0.37778255995872145,-0.37181577537525823,0.5300628579959829,-2.3641542978467873
5055055055.0,-0.3793015991136065,-0.37143954394640133,0.5308832620240062,-2.366666498880937
5056156156.0,-0.3812489240852033,-0.37096678872201205,0.5319465202920751,-2.3698627702759376
5057257257.0,-0.38336245469748753,-0.3702649923530946,0.5329755493771927,-2.373571967608884
5058358358.0,-0.3860319864213909,-0.36931152891287,0.5342393657607108,-2.3783271052121036
5059459459.0,-0.38912874258617375,-0.3681908397396755,0.5357104374332313,-2.3838348298304943
5060560561.0,-0.39243304238766463,-0.3665301941683896,0.5369805173325713,-2.3903105009971526
5061661662.0,-0.39571655116593074,-0.3642608250998091,0.5378452728890089,-2.397561223709589
5062762763.0,-0.39932725977491157,-0.36180941240047243,0.5388583406619172,-2.4054464936873097
5063863864.0,-0.40286435304822343,-0.35848748114081935,0.5392707678816393,-2.4144155612616767
5064964965.0,-0.40626293643193756,-0.35478287380074325,0.539370430280169,-2.4237354422345496
5066066066.0,-0.4093952125656864,-0.3504020824767857,0.5388748087225563,-2.4336822770571302
5067167167.0,-0.41214135152024983,-0.3455414098061757,0.5378283736693125,-2.443868661577936
5068268268.0,-0.414444969883474,-0.3404554227047762,0.5363529881624615,-2.4538947687795467
5069369369.0,-0.41605261548189065,-0.33482671220248117,0.5340493479573261,-2.4639498636351767
5070470470.0,-0.41707826276571425,-0.3288065555069061,0.5311007703025691,-2.4739915501425824
5071571572.0,-0.41762534454756794,-0.32260908637160934,0.527719197128548,-2.483856102665941
5072672673.0,-0.41763186919760564,-0.3163919307032437,0.5239467835416227,-2.4932543494795993
5073773774.0,-0.4171528045739399,-0.3099806772623818,0.5197157710132997,-2.502530795327161
5074874875.0,-0.4168719201587149,-0.30371270909969783,0.5157747642968699,-2.511960416682676
5075975976.0,-0.41579335115985033,-0.2976140398944033,0.5113298618416551,-2.520358422741616
5077077077.0,-0.4144417866601058,-0.29193514516620184,0.5069399604620176,-2.5279159783697702
5078178178.0,-0.41221205596942706,-0.28645414844068473,0.5019708739014844,-2.5342846428173345
5079279279.0,-0.4095887804960736,-0.28170907328707623,0.4971146458117323,-2.539111716026522
5080380380.0,-0.4063833151688964,-0.2775097180958718,0.4920965784125234,-2.5424514818480373
5081481481.0,-0.403261967344742,-0.27428358368944067,0.48770041889286314,-2.544305027896812
5082582583.0,-0.39975295405221134,-0.271793709186875,0.48339863945508676,-2.544481512703319
5083683684.0,-0.39643177866436463,-0.27000389985223155,0.47964597472553205,-2.543674159738999
5084784785.0,-0.3930718025078991,-0.2689051481943382,0.47625142587946945,-2.541609533229656
5085885886.0,-0.3901106025927462,-0.2685212718857855,0.4735926052108875,-2.5387481089231305
5086986987.0,-0.3874367015283795,-0.26873211253380874,0.471512614887528,-2.535164433670033
5088088088.0,-0.38491000683866433,-0.2694595161726134,0.4698554503467205,-2.530827438734069
5089189189.0,-0.3830118096609951,-0.27076473920676447,0.4690539311609034,-2.526226977888822
5090290290.0,-0.3814902010344231,-0.27238898941269213,0.4687542373553035,-2.5215237259704244
5091391391.0,-0.38055401148142565,-0.2745290529606244,0.4692414693673848,-2.5166527018643614
5092492492.0,-0.3801632491178193,-0.2768458565029102,0.4702847267801147,-2.512171277055883
5093593594.0,-0.38033197473581404,-0.27947373871709,0.4719724373720908,-2.5078808191161697
5094694695.0,-0.38116228828889437,-0.2822161241447161,0.47426852176893636,-2.5042578663138406
5095795796.0,-0.38274625946991964,-0.28498853243269673,0.4771930036749882,-2.501563794080352
5096896897.0,-0.38498419130195605,-0.2877334504946955,0.48062809539809936,-2.499763845620663
5097997998.0,-0.3879553256383363,-0.2903622326280395,0.48458184120733133,-2.499089125224914
5099099099.0,-0.39166401578038756,-0.292744765715029,0.4889787307345453,-2.4997329193720135
5100200200.0,-0.39601367672339766,-0.2947961001055628,0.4936917791390016,-2.5016794711604575
5101301301.0,-0.4010575281613118,-0.29634290651674655,0.4986644755119966,-2.5052310586456152
5102402402.0,-0.4066450468749333,-0.2972603833726505,0.5037101643512585,-2.5103582743994095
5103503504.0,-0.41284644080620003,-0.297472627350417,0.5088537586665812,-2.517213650939826
5104604605.0,-0.4193475500110886,-0.2968855478972971,0.5138028768414797,-2.525537599915088
5105705706.0,-0.4262628660582273,-0.2953630542374794,0.5185936412921647,-2.5356389607989858
5106806807.0,-0.43330608199625564,-0.29287166178200597,0.5229990162226881,-2.5472248255266305
5107907908.0,-0.44021851632565157,-0.2894307098712138,0.5268419857343496,-2.55998364259794
5109009009.0,-0.44699866231929447,-0.2850038723003923,0.5301273538890979,-2.5739878650777177
5110110110.0,-0.45330556236457725,-0.2793490063670008,0.5324676518145457,-2.5893111047680626
5111211211.0,-0.4588820649080155,-0.272865326012051,0.5338803570407016,-2.605130581975972
5112312312.0,-0.46374141053480333,-0.2656494255506166,0.5344396253461953,-2.621383517574597
5113413413.0,-0.4677168816441803,-0.2577073022782017,0.5340151074852327,-2.637989720282645
5114514515.0,-0.4707761817592222,-0.24952237843427427,0.5328148183480724,-2.654215829173359
5115615616.0,-0.4727247898069805,-0.24096135732961332,0.5305950457968709,-2.670192468906687
5116716717.0,-0.4736353540145874,-0.23228646835536432,0.5275295744823518,-2.6856277912864313
5117817818.0,-0.47345523077767115,-0.22369017394670176,0.5236383766217326,-2.700216151305199
5118918919.0,-0.4723613425486972,-0.2155155101099645,0.5192034023697899,-2.713552261977703
5120020020.0,-0.4703490603104587,-0.20769255235187944,0.5141638210117176,-2.725770270821395
5121121121.0,-0.46761739845048655,-0.20051291780445818,0.5087941249071755,-2.7365103496686025
5122222222.0,-0.46437042447712074,-0.1939825844491619,0.5032585162703533,-2.7458937741253457
5123323323.0,-0.4605265792761767,-0.18812959098243268,0.4974710777754161,-2.7537718918947243
5124424424.0,-0.45648876740899824,-0.18300515407649182,0.49180573521376,-2.76031290641179
5125525526.0,-0.45217723615176064,-0.17862644520045795,0.4861806863901499,-2.7653725948391097
5126626627.0,-0.44793926223819136,-0.17501591535921932,0.48091595241114704,-2.769117428538737
5127727728.0,-0.4434756487386012,-0.17204375142590422,0.47567815109464673,-2.771522320717835
5128828829.0,-0.43936846959671566,-0.16979060031175056,0.4710344998298794,-2.7728282305502625
5129929930.0,-0.4352424882828308,-0.16824989448058694,0.46663052900486346,-2.772720790240228
5131031031.0,-0.4316430312770083,-0.1670188443307418,0.46282934307537255,-2.772397584077966
5132132132.0,-0.42832499831621373,-0.16634613554048383,0.45949248197531745,-2.7711571258565906
5133233233.0,-0.4253642611694375,-0.16603321666313442,0.45661995545062284,-2.76944857760899
5134334334.0,-0.42308465996394395,-0.16624481562207316,0.45457449138510087,-2.767191500212706
5135435435.0,-0.42108959177996846,-0.1666543368691029,0.45286875836460716,-2.7647387358844613
5136536537.0,-0.41968094410617235,-0.16731798101874418,0.4518046055741763,-2.762225584150793
5137637638.0,-0.4189582073717827,-0.16792339601291123,0.4513582240889011,-2.7603866391133955
5138738739.0,-0.4185906791158182,-0.16856122117777342,0.4512549633273679,-2.7587716418785826
5139839840.0,-0.4189264673139624,-0.16902178332556414,0.45173858397828975,-2.758103569051192
5140940941.0,-0.41976941699352743,-0.16949085571500977,0.45269582902219474,-2.7578393639856094
5142042042.0,-0.4211626229122507,-0.16951329603785825,0.45399637935995174,-2.7589424850782356
5143143143.0,-0.42301491178175343,-0.16923608636439194,0.45561219092300476,-2.7610248925810787
5144244244.0,-0.42526039819257305,-0.16841253824340577,0.45739391044098127,-2.7645201520721057
5145345345.0,-0.4278080361853266,-0.1670135913987994,0.45925293198483863,-2.7693948421268093
5146446446.0,-0.4305920655375235,-0.1649289564043704,0.4610976985027204,-2.775802098530435
5147547548.0,-0.4334338732033756,-0.16218994973448791,0.46278558991714036,-2.7835255727335357
5148648649.0,-0.4361938673101679,-0.15859795095592263,0.46413187773133785,-2.792858098756575
5149749750.0,-0.4387296528331973,-0.1543381895545373,0.46508492238526733,-2.8033291714913227
5150850851.0,-0.4407985690141181,-0.14926762303528063,0.46538607814533617,-2.8150826905285298
5151951952.0,-0.44232554332553525,-0.14360187941915198,0.4650520251014316,-2.827675526217382
5153053053.0,-0.4429418388326332,-0.1374325295433162,0.463772759835147,-2.840738686739591
5154154154.0,-0.4429357798506321,-0.13088006138332225,0.4618676168985978,-2.8542848884124252
5155255255.0,-0.4418512173513966,-0.12429769217216638,0.4590015409061693,-2.867368497922676
5156356356.0,-0.4398347521585656,-0.11759321123799682,0.4552831784018063,-2.8803452098338607
5157457457.0,-0.4366312644916478,-0.11140769241521056,0.4506201671705978,-2.8917702011577346
5158558559.0,-0.43300353912408457,-0.10553900695978963,0.4456798704048021,-2.90251715859861
5159659660.0,-0.42848491551912327,-0.10036786886732263,0.44008298300252224,-2.9115020089982515
5160760761.0,-0.4232021503751423,-0.09593712193236043,0.4339400781753273,-2.9186670223760434
5161861862.0,-0.41760312802342314,-0.09222767973240616,0.4276661284738024,-2.9242316681207283
5162962963.0,-0.41186372199359883,-0.08944945319958907,0.4214652182234329,-2.9277316841196215
5164064064.0,-0.4059646380317344,-0.08762557772693796,0.41531377198958475,-2.929008637794925
5165165165.0,-0.40000098958216984,-0.08647942265918826,0.4092425713561355,-2.928671685916691
5166266266.0,-0.39427968994639073,-0.08622140121611589,0.4035970811736533,-2.926300987000881
5167367367.0,-0.3888672123316257,-0.08678772620274308,0.3984342081774756,-2.9220103500189722
5168468468.0,-0.38375012806731396,-0.08792858685822784,0.393694802072068,-2.916350909802381
5169569570.0,-0.37909312898687897,-0.08970031461594483,0.38956096684249814,-2.9092477829734404
5170670671.0,-0.37494204501132833,-0.09210205501188315,0.3860884945898918,-2.9007184633833583
5171771772.0,-0.3713384397942897,-0.09486581436897837,0.3832646078165146,-2.891472460625282
5172872873.0,-0.36827729087389416,-0.09806013551064988,0.3811088468532079,-2.881363314842389
5173973974.0,-0.3658902929742136,-0.10159343008809038,0.3797327106397599,-2.8707543067902006
5175075075.0,-0.3641082600647529,-0.10542215606845401,0.3790628655480555,-2.8597640322723437
5176176176.0,-0.36303597357215467,-0.10939759341371873,0.37916085181911313,-2.8489061139090595
5177277277.0,-0.3626064757724319,-0.11352455095224868,0.3799622085695009,-2.8381801884379687
5178378378.0,-0.36283961061317893,-0.11776269581422452,0.38147167071141325,-2.827760087938929
5179479479.0,-0.3639219189192871,-0.12193037416645967,0.3838048712748042,-2.8183020085109582
5180580581.0,-0.3657006411827889,-0.12604855696220554,0.3868141642620618,-2.8096678806611273
5181681682.0,-0.3681924419108705,-0.12995319834341282,0.3904529524026834,-2.802292975570119
5182782783.0,-0.3716180988047411,-0.13364903902427158,0.3949203425899476,-2.7963550774002397
5183883884.0,-0.3756398668701412,-0.13691128655002405,0.3998124684986703,-2.7920812828844617
5184984985.0,-0.3806095680554601,-0.13973500089714594,0.405449767259878,-2.7897353065557433
5186086086.0,-0.3860447321365715,-0.1418776716146245,0.4112904191847708,-2.789399259994879
5187187187.0,-0.3924009255499352,-0.14333163351087264,0.4177588341822839,-2.7913810281570837
5188288288.0,-0.3992500951241478,-0.14387590852147347,0.42438298211582476,-2.7957136593017955
5189389389.0,-0.4065540491856703,-0.14340398587910905,0.43110427749592106,-2.8024874509502564
5190490490.0,-0.41425718953002805,-0.14183020726030637,0.43786393636473314,-2.811729163051344
5191591592.0,-0.42216878866247237,-0.13889586070260987,0.44443058652736545,-2.8237421775192613
5192692693.0,-0.43003112172396535,-0.13459459271471833,0.4506023413601097,-2.8382632379816406
5193793794.0,-0.43735179405729874,-0.1289220244463002,0.45595776136882493,-2.8549328339329705
5194894895.0,-0.4441109600861832,-0.12191760438779323,0.4605414716703914,-2.873672197601843
5195995996.0,-0.4500251238047917,-0.113596377900599,0.4641408720718892,-2.894335479005325
5197097097.0,-0.4546705083379086,-0.10429722853665843,0.4664795633601543,-2.916102941490124
5198198198.0,-0.4579731273766066,-0.09419202898389702,0.4675591125442994,-2.93874970491646
5199299299.0,-0.45973092932684056,-0.08362550997415599,0.46727481560443435,-2.9616589991807944
5200400400.0,-0.4598329642793165,-0.07284012120812175,0.4655663629339184,-2.9844923693541214
5201501502.0,-0.45838897975102333,-0.062258167092263644,0.462597596326302,-3.0065991704782857
5202602603.0,-0.45544055269890876,-0.05219476649221061,0.4584216298254958,-3.0274876515754907
5203703704.0,-0.4512434818883063,-0.042905293610187134,0.4532786606122757,-3.046795288360416
5204804805.0,-0.4459421428475513,-0.03454110109274963,0.4472778581957365,-3.064290535473566
5205905906.0,-0.43983053105242853,-0.02722484944858393,0.44067231416706837,-3.07977302702814
5207007007.0,-0.4331321245593268,-0.02114309479103932,0.4336478614989575,-3.0928169475886347
5208108108.0,-0.42609984723012534,-0.016260114851936208,0.4264099801183531,-3.103450821049028
5209209209.0,-0.4189535338746133,-0.01251547234608882,0.41914043063640677,-3.1117283599074654
5210310310.0,-0.4118171804071685,-0.00985043377244503,0.41193497196040024,-3.1176777800030746
5211411411.0,-0.4049573065150791,-0.008114347591102675,0.40503859413243204,-3.1215577962259227
5212512513.0,-0.39857245834530736,-0.007316223791695525,0.3986396012465294,-3.1232386452226204
5213613614.0,-0.3924012298114033,-0.007332545237117072,0.39246973307142563,-3.122908481878209
5214714715.0,-0.38693271233360743,-0.007979601245648005,0.3870149840896109,-3.1209728660954936
5215815816.0,-0.3819231159949863,-0.00925263340494048,0.3820351786894055,-3.1173709621815635
5216916917.0,-0.37767368155046266,-0.010920680671613753,0.37783153786073975,-3.112685056680278
5218018018.0,-0.3738411603323485,-0.01298743172212663,0.37406668729168274,-3.1068661118825522
5219119119.0,-0.3709149858691508,-0.015404449737401599,0.37123472872836727,-3.1000855620802654
5220220220.0,-0.36858375765333395,-0.017904823917783322,0.3690183858907012,-3.093053455209167
5221321321.0,-0.36686799214765414,-0.020558391173845614,0.3674435618025006,-3.085613628844985
5222422422.0,-0.36594118861592156,-0.023233935168197935,0.3666780185244726,-3.0781868611079837
5223523524.0,-0.3655733426711875,-0.02577994389791258,0.3664812060381337,-3.0711899908440095
5224624625.0,-0.3658017577489137,-0.028172423864945492,0.3668850111937269,-3.064728833034845
5225725726.0,-0.36684698471099364,-0.030390176575472716,0.36810361723818524,-3.058939823114297
5226826827.0,-0.3684723038841189,-0.03225830985912331,0.3698816530792487,-3.05426919999327
5227927928.0,-0.3706505998119323,-0.03375613290608964,0.3721845558989771,-3.0507705488493273
5229029029.0,-0.373396177845204,-0.03469123292891366,0.37500424967130086,-3.048951289768061
5230130130.0,-0.37663106441887173,-0.03505629192998144,0.3782590412523835,-3.048781464989728
5231231231.0,-0.3802709146361314,-0.034676819213521615,0.38184872699665656,-3.050654389860178
5232332332.0,-0.38421391040407127,-0.03344996882343035,0.385667252125814,-3.054750824261459
5233433433.0,-0.3883707617049761,-0.03130606870452213,0.3896304896758409,-3.061157851530165
5234534535.0,-0.39245900209325557,-0.02829742235856987,0.39347784237002886,-3.069614340371956
5235635636.0,-0.39633911791321474,-0.024282403507039904,0.39708227297161464,-3.0804024041105
