frequency,Re(S21),Im(S21),Amplitude,phase
7811500000.0,-0.0065296755,0.0090087489,0.011126285043919713,2.1979831859432184
7811501001.0,-0.0064866772,0.0090283146,0.011116989053407087,2.1938186070543866
7811502002.0,-0.0064956793,0.0090368713,0.011129191006592178,2.1940268886232754
7811503003.0,-0.0064512638,0.009009077,0.011080716267873637,2.192236137110903
7811504004.0,-0.0064260231,0.0090391825,0.011090563247646165,2.188805345272775
7811505005.0,-0.0064575851,0.0090272385,0.011099163944172744,2.191746526786446
7811506006.0,-0.0064422259,0.0090506634,0.0111093106233794,2.1893952683274036
7811507007.0,-0.0064205433,0.0090466541,0.011093481269296024,2.1880125040688987
7811508008.0,-0.0063941641,0.0090410633,0.01107366967776878,2.186362076999325
7811509009.0,-0.0064172216,0.0090475606,0.011092298493737848,2.1877209977625616
7811510010.0,-0.0063776408,0.0090239468,0.011050154660594343,2.186035658144345
7811511011.0,-0.0063869544,0.0090493469,0.011076274907396393,2.185398805539932
7811512012.0,-0.006356875,0.0090547394,0.01106337043434492,2.182896450686521
7811513013.0,-0.0063466311,0.0090382661,0.011044002010770208,2.1829943593754235
7811514014.0,-0.0063540214,0.0090319253,0.011043064003094342,2.1838720123990476
7811515015.0,-0.0063070738,0.0090681741,0.011045857206507661,2.1785075639184073
7811516016.0,-0.0062945247,0.0090248047,0.011003096885516013,2.179821850739108
7811517017.0,-0.0062990261,0.0090241947,0.011005172410825251,2.180189045038593
7811518018.0,-0.0062859309,0.00904284,0.011012986994688353,2.1782449743876473
7811519019.0,-0.0062861169,0.0090294494,0.011002100806101804,2.178953542522508
7811520020.0,-0.0062703672,0.0090228103,0.010987657190348719,2.1781223802575447
7811521021.0,-0.0062401191,0.0090355196,0.010980878873030564,2.175199850045428
7811522022.0,-0.0062426519,0.0090346836,0.010981630593708866,2.1754328907647666
7811523023.0,-0.006245945,0.0090537026,0.010999152681560147,2.1746962577985958
7811524024.0,-0.0062086243,0.009049927,0.010974889266132916,2.1720925214714577
7811525025.0,-0.0062223449,0.0090291169,0.01096551540277162,2.1741979021695066
7811526026.0,-0.0062050215,0.0090446188,0.010968473961895323,2.1720954417985547
7811527027.0,-0.0061920316,0.0090582467,0.010972378439219978,2.170416590231172
7811528028.0,-0.0061779095,0.009022554,0.010934946112034858,2.1711924448193907
7811529029.0,-0.0061366697,0.0090299046,0.010917778716020912,2.1676953606864977
7811530030.0,-0.0061536366,0.0090353514,0.010931825937433394,2.1686989889633215
7811531031.0,-0.0061213283,0.0090224156,0.01090296489105162,2.166917665321396
7811532032.0,-0.0061103318,0.0090395269,0.010910967018642978,2.1652031752654746
7811533033.0,-0.0061137918,0.0090092655,0.010887851717544535,2.1670229526463363
7811534034.0,-0.0060900955,0.0090284995,0.010890503497112541,2.164230782043741
7811535035.0,-0.0060921077,0.0090337567,0.010895987166989238,2.164114067243537
7811536036.0,-0.0060619808,0.0090363183,0.010881298619120952,2.161686951297638
7811537037.0,-0.0060463581,0.0090279286,0.010865631186458226,2.1609230856547597
7811538038.0,-0.006047741,0.0090415442,0.010877715418397129,2.1603321883018105
7811539039.0,-0.0060392482,0.0090329463,0.010865847306118696,2.160122449906173
7811540040.0,-0.0060291773,0.0090139625,0.010844468583856083,2.160323392868101
7811541041.0,-0.0060257416,0.0090378394,0.010862416989333587,2.1588384043612034
7811542042.0,-0.0059930088,0.0090211368,0.010830376892850574,2.1571792614271104
7811543043.0,-0.0059876039,0.0090038627,0.010812998843232459,2.1576469074820572
7811544044.0,-0.0059762014,0.0089993762,0.010802951224664879,2.156997976115699
7811545045.0,-0.0059568792,0.0090093626,0.010800602958245961,2.154996160299046
7811546046.0,-0.005940535,0.0090188762,0.010799540916036729,2.1532478785948705
7811547047.0,-0.0059592896,0.0090018363,0.010795656038827183,2.155566912122022
7811548048.0,-0.0059327145,0.0090112863,0.010788900876320904,2.1530295031376774
7811549049.0,-0.005909494,0.0089919089,0.010759950975814676,2.1522173092348584
7811550050.0,-0.0059148886,0.0089964759,0.010766730505111139,2.152403059662685
7811551051.0,-0.0059043774,0.0090005938,0.010764402502425724,2.1513769738593873
7811552052.0,-0.0058887591,0.0089914651,0.010748205821547651,2.15062782796177
7811553053.0,-0.0058905381,0.0090191079,0.010772313884184493,2.1493600602098284
7811554054.0,-0.0058586174,0.0089951468,0.010734806183305454,2.1480909997454773
7811555055.0,-0.0058677081,0.0089892279,0.010734813299957482,2.1491015227564993
7811556056.0,-0.0058248537,0.0089923157,0.010714040427162395,2.1455945598953194
7811557057.0,-0.0058341643,0.0089879245,0.010715421592130415,2.146546622353937
7811558058.0,-0.0058323969,0.0089901533,0.010716329126927302,2.1462950465692683
7811559059.0,-0.0058209932,0.0089854539,0.010706182495337517,2.1456403650383558
7811560060.0,-0.0057919105,0.008989139,0.010693495555772736,2.1431704454163563
7811561061.0,-0.005774566,0.0089666441,0.010665191930032052,2.142945771304663
7811562062.0,-0.0057510598,0.0090016268,0.010681946164892158,2.139322488259978
7811563063.0,-0.0057609408,0.0090030638,0.010688479624716281,2.1400291375409664
7811564064.0,-0.0057572628,0.0089910453,0.010676374409644687,2.140345702838514
7811565065.0,-0.0057301015,0.0089758675,0.010648955844488158,2.138966312780123
7811566066.0,-0.005711835,0.0089712582,0.010635249539070168,2.1377518250535283
7811567067.0,-0.0056873594,0.0089886042,0.01063677876093256,2.1349349816327226
7811568068.0,-0.0057000815,0.0089892777,0.010644155329304412,2.135911169283782
7811569069.0,-0.0056827183,0.0089599092,0.010610054672309636,2.136011405791296
7811570070.0,-0.0056750733,0.0089897293,0.010631165968399298,2.1339017984580644
7811571071.0,-0.0056816358,0.0089716365,0.010619380718854272,2.1353338469694627
7811572072.0,-0.0056560474,0.0089561261,0.010592594909187642,2.1340764068154527
7811573073.0,-0.0056433701,0.0089560901,0.010585800676608833,2.1330656622436126
7811574074.0,-0.0056108184,0.0089654531,0.010576418694722622,2.1299897797367704
7811575075.0,-0.0056098417,0.0089611648,0.010572265531654882,2.130126649395927
7811576076.0,-0.0056016493,0.0089735806,0.010578450910454083,2.128847442752617
7811577077.0,-0.0055886721,0.0089754894,0.01057320508695593,2.1277106834289077
7811578078.0,-0.0055629626,0.0089593573,0.010545929836579706,2.126449759937278
7811579079.0,-0.0055602669,0.0089319784,0.010521254969693595,2.1276047727752734
7811580080.0,-0.0055468742,0.0089613724,0.01053916546421525,2.1250520247098486
7811581081.0,-0.0055402962,0.0089504994,0.010526458164697888,2.1250643129241347
7811582082.0,-0.0055387563,0.0089283765,0.010506841974472726,2.1260478999682637
7811583083.0,-0.0055169612,0.0089479332,0.010512010722690864,2.123305297690449
7811584084.0,-0.0054796747,0.0089205485,0.010469146114114196,2.1216464706010494
7811585085.0,-0.0054789454,0.0089097355,0.010459552063838175,2.122128157599715
7811586086.0,-0.0054816283,0.0089187108,0.01046860311375866,2.1218973633976814
7811587087.0,-0.0054850385,0.0089290873,0.010479229330323081,2.1216561160789764
7811588088.0,-0.0054486778,0.008907016,0.010441409090370363,2.1197953052435987
7811589089.0,-0.005443711,0.0089118438,0.010442937774741331,2.1191483394046675
7811590090.0,-0.0054246412,0.0089345616,0.01045242187882464,2.1164584096338106
7811591091.0,-0.0054178613,0.0089397676,0.010453356676591852,2.115645543318622
7811592092.0,-0.0053972347,0.0089322644,0.010436258415657953,2.114327910403813
7811593093.0,-0.0054012142,0.0089304878,0.010436796787339997,2.1147422899060246
7811594094.0,-0.0053893932,0.0089261576,0.010426976961912018,2.1139871367652914
7811595095.0,-0.0053587978,0.008883216,0.010374403132900747,2.1136019210364276
7811596096.0,-0.0053521812,0.0089130922,0.0103965886791454,2.1115726182871652
7811597097.0,-0.0053579809,0.0088937978,0.010383043803820229,2.1130081252043684
7811598098.0,-0.0053283258,0.0088940313,0.010367972250943061,2.1105464894700336
7811599099.0,-0.0053261713,0.0088958781,0.010368449637578577,2.110276697866884
7811600100.0,-0.0053212505,0.0088895256,0.010360471624245955,2.1101841625280278
7811601101.0,-0.0052816042,0.0088944154,0.01034436891420713,2.1066528714537456
7811602102.0,-0.0052776509,0.0088701648,0.010321502923578032,2.1075231560161742
7811603103.0,-0.0052907905,0.0088883141,0.010343819007269463,2.1077176484958544
7811604104.0,-0.0052333058,0.0088856278,0.010312219499043186,2.1030608398737525
7811605105.0,-0.0052359903,0.0088786168,0.010307542418197283,2.1036304334836498
7811606106.0,-0.0052167588,0.0088590089,0.010280885714161823,2.1029879693725966
7811607107.0,-0.0052237746,0.0088534267,0.010279639361567021,2.103851621504288
7811608108.0,-0.0051933683,0.0088563578,0.010266749621037114,2.101155811510443
7811609109.0,-0.0051800481,0.0088560793,0.010259777721091334,2.100049601754864
7811610110.0,-0.0051731524,0.0088516586,0.010252480954607021,2.0996867337045075
7811611111.0,-0.0051412379,0.0088604744,0.010244038936740321,2.096562747969895
7811612112.0,-0.0051685165,0.0088572729,0.010254991274294028,2.099020197306604
7811613113.0,-0.0051433381,0.0088410171,0.01022827014569932,2.097695070582538
7811614114.0,-0.0051081553,0.0088670269,0.010233152818864853,2.0934451317088825
7811615115.0,-0.0051090354,0.0088268373,0.0101987891163179,2.0954869768617868
7811616116.0,-0.0050759803,0.0088400819,0.010193754166385204,2.092029626123665
7811617117.0,-0.0050839997,0.0088191291,0.010179591889268789,2.093737742302314
7811618118.0,-0.0050659194,0.0088427521,0.010191064913410706,2.091043026791606
7811619119.0,-0.0050738823,0.0088247367,0.010179403686787365,2.0926015403400395
7811620120.0,-0.0050480703,0.0088015987,0.01014648478191259,2.091532803736024
7811621121.0,-0.0050369239,0.0088057747,0.010144568519239805,2.090374881577331
7811622122.0,-0.0050140588,0.0088187965,0.010144553088148817,2.087781066097925
7811623123.0,-0.0050117828,0.0088015464,0.010128434521964824,2.08842751326923
7811624124.0,-0.0049934975,0.0088324995,0.010146332573891243,2.0853519026745535
7811625125.0,-0.0049791875,0.0088040709,0.010114542627938402,2.0855035713457952
7811626126.0,-0.0049628465,0.0088122351,0.010113621153683494,2.08369977709938
7811627127.0,-0.0049668255,0.0088087607,0.010112547681831455,2.08421121261673
7811628128.0,-0.004943252,0.0088049517,0.010097668779220128,2.082362922004376
7811629129.0,-0.0049398351,0.0087792487,0.010073588166668503,2.083316235151222
7811630130.0,-0.004914049,0.0087786832,0.010060474954015006,2.081110017677787
7811631131.0,-0.0049037312,0.0087686846,0.010046711367215175,2.080699993277633
7811632132.0,-0.0048931784,0.0087869367,0.010057507217200166,2.0788984405437203
7811633133.0,-0.0048848303,0.0088018787,0.010066510602453652,2.077451755855086
7811634134.0,-0.0048810676,0.008768177,0.010035225399516384,2.07875356421256
7811635135.0,-0.0048388349,0.0087458033,0.009995168760543712,2.076150506144104
7811636136.0,-0.0048488192,0.0087586915,0.010011279859561458,2.0763999139682774
7811637137.0,-0.0048180798,0.0087472252,0.00998638281154308,2.0742630205388077
7811638138.0,-0.0048063179,0.0087478689,0.0099812775759142,2.073199730550827
7811639139.0,-0.0048045879,0.008740004,0.00997355176498535,2.073427431931959
7811640140.0,-0.0047799318,0.0087376922,0.009959669321548384,2.071369840401748
7811641141.0,-0.0047741144,0.0087488401,0.009966663002211692,2.070320958923803
7811642142.0,-0.0047720324,0.0087311206,0.009950113575150491,2.0709903168172357
7811643143.0,-0.0047439719,0.0087122133,0.00992007711525906,2.069422290647807
7811644144.0,-0.0047427212,0.0087244921,0.009930265192022409,2.068720358281331
7811645145.0,-0.0047290765,0.0087373724,0.009935081328259675,2.066894547263681
7811646146.0,-0.0047071458,0.0087097493,0.009900351228684169,2.0662745345446005
7811647147.0,-0.0047094904,0.0087064047,0.009898524265155603,2.0666435632898
7811648148.0,-0.0046692572,0.0087046474,0.00987789700078304,2.0631456791283243
7811649149.0,-0.0046835001,0.0086904757,0.00987215989938324,2.0650956207464826
7811650150.0,-0.0046448826,0.0086982588,0.009860762674335095,2.0612736498385593
7811651151.0,-0.0046620579,0.0086941371,0.009865232069067044,2.0630061984872383
7811652152.0,-0.0046344208,0.0086722578,0.00983289944528741,2.0615807061863207
7811653153.0,-0.0046204284,0.0086647269,0.009819666534618686,2.060685427418016
7811654154.0,-0.0046185023,0.0086726086,0.009825716433110577,2.060135022471976
7811655155.0,-0.0045842986,0.0086653018,0.00980322645556274,2.0574057970270756
7811656156.0,-0.0045769537,0.0086713565,0.009805148072417669,2.056454898596066
7811657157.0,-0.0045512587,0.0086564735,0.009780004560864372,2.0548417514055526
7811658158.0,-0.0045430004,0.0086562035,0.00977592510547275,2.054106891493666
7811659159.0,-0.0045284822,0.0086260258,0.009742457192001536,2.054226847665334
7811660160.0,-0.0045164674,0.0086329764,0.009743036451652006,2.0528033952753493
7811661161.0,-0.0045072713,0.008639579,0.009744630309511218,2.051653115795565
7811662162.0,-0.0044913353,0.0086297362,0.009728537385373843,2.0506687783329514
7811663163.0,-0.0044838895,0.008633289,0.00972825493116475,2.049821243658373
7811664164.0,-0.004472663,0.0086137921,0.009705778106550314,2.049720633139032
7811665165.0,-0.0044739949,0.0085987474,0.009693043238025547,2.050557833662636
7811666166.0,-0.0044338671,0.0086259534,0.009698775671157364,2.045592755457628
7811667167.0,-0.0044185778,0.0085825497,0.00965318543940926,2.0462396131068092
7811668168.0,-0.0044169361,0.0085720301,0.009643081693462377,2.0465875874663406
7811669169.0,-0.0043942036,0.0085903689,0.009649013582555481,2.0436227666745372
7811670170.0,-0.0043844694,0.0085591302,0.009616770856170402,2.0442009268411017
7811671171.0,-0.0043669157,0.0085759228,0.009623741715282384,2.0417819866940525
7811672172.0,-0.0043654271,0.0085847657,0.009630947818844774,2.0412276154149542
7811673173.0,-0.0043427489,0.0085428843,0.009583336588664601,2.0410991509524843
7811674174.0,-0.0043249502,0.0085575761,0.009588394179411444,2.0387500593220547
7811675175.0,-0.0042902177,0.0085342171,0.009551901874670074,2.036607847079857
7811676176.0,-0.0043050072,0.0085469758,0.00956994682941538,2.037389799575199
7811677177.0,-0.004287508,0.0085329326,0.009549537350374978,2.03641474130361
7811678178.0,-0.0042826408,0.0085314864,0.009546060570476682,2.0360271731013064
7811679179.0,-0.0042950354,0.0085136145,0.009535667828834193,2.0380296699788425
7811680180.0,-0.004243745,0.0085137443,0.00951279210488737,2.0332096732624745
7811681181.0,-0.0042196326,0.0085132158,0.009501586316839542,2.0309632769467605
7811682182.0,-0.0042172772,0.0085106103,0.009498205865325616,2.030862911581606
7811683183.0,-0.0042213678,0.0085019239,0.009492241890315903,2.0316553588645614
7811684184.0,-0.0041870382,0.0084679365,0.009446546324254781,2.0300004440172015
7811685185.0,-0.0041501495,0.0084831128,0.009443883928229639,2.0257867097347972
7811686186.0,-0.0041515741,0.0084517492,0.00941634918891029,2.0273863237772476
7811687187.0,-0.0041420449,0.0084629911,0.009422247837554222,2.0259525379392844
7811688188.0,-0.0041108017,0.0084705446,0.009415350043270406,2.0226193638979457
7811689189.0,-0.0041263951,0.0084637469,0.009416057991992383,2.024424426259951
7811690190.0,-0.0041060842,0.0084344776,0.009380849633289695,2.0238455825785944
7811691191.0,-0.0040876844,0.0084195292,0.009359360859783963,2.0227770785010413
7811692192.0,-0.0040719733,0.0084163655,0.009349661747117013,2.0214132094566915
7811693193.0,-0.0040825071,0.008426775,0.009363621154349177,2.021941717235981
7811694194.0,-0.0040613694,0.008411736,0.009340879184367623,2.020607165346119
7811695195.0,-0.0040295571,0.0084002926,0.009316772305244728,2.018066328277127
7811696196.0,-0.0040120515,0.0084072936,0.00931553234738913,2.016046950359126
7811697197.0,-0.0040025684,0.0084055054,0.009309837529522615,2.0152103755557724
7811698198.0,-0.0039997452,0.0083640891,0.009271243074025286,2.0168560135610982
7811699199.0,-0.0039546921,0.0083664194,0.009254002549302587,2.01235522598583
7811700200.0,-0.003979334,0.0083652664,0.009263518825291228,2.0148133812467783
7811701201.0,-0.0039383685,0.008346769,0.00922926319817315,2.011666074324934
7811702202.0,-0.0039288126,0.0083543127,0.009232015442756801,2.010381276772904
7811703203.0,-0.0039086882,0.0083264303,0.009198221838245549,2.009691426284812
7811704204.0,-0.0038995939,0.0083306493,0.009198181904295418,2.008601517428708
7811705205.0,-0.003884216,0.0083226214,0.009184397688601794,2.0074556528752034
7811706206.0,-0.0038702435,0.008326661,0.009182160320872929,2.005890676323845
7811707207.0,-0.003830157,0.0083356315,0.009173486531763222,2.0015158064894356
7811708208.0,-0.0038585741,0.0083085057,0.00916077840863555,2.0055708585609406
7811709209.0,-0.0038341391,0.0083010483,0.00914374242403414,2.0034906814945845
7811710210.0,-0.0038003395,0.0083120738,0.009139647212661257,1.9996275251547577
7811711211.0,-0.0037950164,0.0082909079,0.009118185306438523,2.0000618053454686
7811712212.0,-0.0037760581,0.0082734498,0.009094426115357454,1.9989652948644538
7811713213.0,-0.0037583146,0.0082784096,0.009091589197601556,1.9969633236246038
7811714214.0,-0.0037763602,0.0082530657,0.009076011778785907,1.999928099449375
7811715215.0,-0.0037395129,0.0082485095,0.009056592389020093,1.9964377611415054
7811716216.0,-0.0037120263,0.008235525,0.009033438507983363,1.994259993263565
7811717217.0,-0.003706964,0.0081995266,0.008998545358078914,1.99539099105156
7811718218.0,-0.0036849883,0.0082124281,0.009001284023338366,1.9925759248554267
7811719219.0,-0.0036671203,0.0082044728,0.008986720493072649,1.9911243043632374
7811720220.0,-0.0036598914,0.0081943202,0.008974502136604683,1.9908505518437933
7811721221.0,-0.0036278675,0.0081765649,0.00894525774706734,1.988391238168489
7811722222.0,-0.0036138541,0.0081652836,0.00892926635981455,1.987469112318105
7811723223.0,-0.0036341041,0.0081507921,0.008924243635572666,1.9902012715311679
7811724224.0,-0.0035979053,0.0081451925,0.008904441779798685,1.9867444225930555
7811725225.0,-0.0036061975,0.008129466,0.008893417670061507,1.9883118254465881
7811726226.0,-0.003580514,0.0081429827,0.008895405991673192,1.9850564132494588
7811727227.0,-0.0035732794,0.0081271604,0.008878010015639344,1.9850278054774877
7811728228.0,-0.0035325563,0.0081331618,0.008867202201238503,1.9805512417097668
7811729229.0,-0.0035195059,0.0081063733,0.00883743231142891,1.980404372825169
7811730230.0,-0.0035033333,0.0081079512,0.008832452483453863,1.9786536518150826
7811731231.0,-0.0034840656,0.0080816628,0.008800681037170204,1.9778287034814288
7811732232.0,-0.0034804864,0.0080965244,0.008812916256289986,1.9767881537137058
7811733233.0,-0.0034481429,0.0080724722,0.008778069086000248,1.9744852084389009
7811734234.0,-0.0034525187,0.0080394883,0.00874947184118485,1.9764259647790252
7811735235.0,-0.0034335001,0.0080594281,0.008760325578183131,1.9735329732890998
7811736236.0,-0.0034345687,0.0080352567,0.008738513168149064,1.9747296052161878
7811737237.0,-0.0034063621,0.0080463089,0.008737642111607435,1.971264071790084
7811738238.0,-0.0034044826,0.0080224681,0.008714958186315087,1.9721319502261705
7811739239.0,-0.0033920204,0.0080138735,0.008702181960176332,1.971199484022812
7811740240.0,-0.0033694956,0.0079998413,0.008680493155553148,1.9694399551518198
7811741241.0,-0.0033398796,0.0079889224,0.008658965114591806,1.9667773491414442
7811742242.0,-0.0033264641,0.0079729489,0.008639055363325324,1.9660578033149902
7811743243.0,-0.0033207392,0.0079825554,0.008645721459108304,1.9650188539722382
7811744244.0,-0.0032939743,0.0079399653,0.008596122128859303,1.9640470831550485
7811745245.0,-0.0032743965,0.0079680897,0.008614646011674441,1.9606969139824189
7811746246.0,-0.0032607964,0.0079323436,0.00857641347829697,1.960814398593109
7811747247.0,-0.0032655038,0.0078956745,0.008544307513061821,1.9629556696608896
7811748248.0,-0.0032125467,0.0079005487,0.00852872358918687,1.95699932032766
7811749249.0,-0.0032268503,0.0078967411,0.008530596864173063,1.9587206902164058
7811750250.0,-0.003191299,0.0078684367,0.008490976705262351,1.9561057866980731
