frequency,Re(S21),Im(S21),Amplitude,phase
8396400000.0,0.0100644078,0.0042830586,0.010937865209250606,0.4023490171831082
8396402603.0,0.0100470686,0.0042537079,0.010910436212710671,0.4004960046889987
8396405205.0,0.0100700704,0.0042173287,0.010917517081497966,0.39660607549333865
8396407808.0,0.0100692644,0.0041955638,0.010908383984668755,0.39479424785118805
8396410410.0,0.0100692736,0.0041673918,0.010897588047194855,0.39240762319184835
8396413013.0,0.0100984404,0.004141525,0.010914702370563165,0.38919594163781784
8396415616.0,0.0100803464,0.0041239237,0.010891286894918096,0.3883310936502508
8396418218.0,0.010073119,0.0040684944,0.010863718197329696,0.38386064373280254
8396420821.0,0.0100698769,0.0040722511,0.010862119949742998,0.38429310857724375
8396423423.0,0.0100876163,0.0040226834,0.010860109776271198,0.3794494015273613
8396426026.0,0.0100687216,0.0040273794,0.010844304472387841,0.38049702411107544
8396428629.0,0.0100666917,0.004019846,0.01083962377790691,0.37992128969100347
8396431231.0,0.010066153,0.0039630223,0.010818178311051556,0.37506166828301457
8396433834.0,0.0100522187,0.0039101651,0.010785939546552619,0.37097501407072075
8396436436.0,0.0100787716,0.003893719,0.010804752871580522,0.3686655270643134
8396439039.0,0.0100583824,0.0038773071,0.010779822208753731,0.3679269717649018
8396441642.0,0.0100562234,0.0038283818,0.010760303726070133,0.36375659225519935
8396444244.0,0.0100614927,0.0038458999,0.010771470716340147,0.3651024705940576
8396446847.0,0.010049341,0.0038114131,0.010747842776721877,0.3625089264115397
8396449449.0,0.0100548424,0.0038106411,0.010752713205598249,0.36226036208133544
8396452052.0,0.0100341667,0.0037565236,0.010714288166777382,0.3582210777569393
8396454655.0,0.01004327,0.0037450767,0.010718809252047677,0.3569231747552434
8396457257.0,0.0100328446,0.0036932363,0.010691022642169777,0.3527205089060992
8396459860.0,0.010036838,0.0036862365,0.010692355052661516,0.3519771370185026
8396462462.0,0.0100178896,0.0036668565,0.010667893354799738,0.3508842008231281
8396465065.0,0.0100373498,0.0036250654,0.010671901899935044,0.34658001061790333
8396467668.0,0.0100379197,0.0035978812,0.010663235017243197,0.34416409876277876
8396470270.0,0.0100145208,0.0035674295,0.010630953865533557,0.3422102817604246
8396472873.0,0.010021854,0.0035452096,0.010630431256785783,0.34000977781179176
8396475475.0,0.010043059,0.0035126517,0.010639631386612692,0.3364602305437785
8396478078.0,0.0100338361,0.0035068155,0.010628999098348982,0.33622840825318373
8396480681.0,0.0100149122,0.0034603038,0.01059585620712188,0.33267382560504966
8396483283.0,0.0100063096,0.0034448934,0.010582699199562262,0.3315629440016162
8396485886.0,0.0100132606,0.003416576,0.01058009354435434,0.32881837283337767
8396488488.0,0.0099753417,0.0034179999,0.010544674738850833,0.3301074193243897
8396491091.0,0.0100003992,0.0033347937,0.010541766131959118,0.3218700018714519
8396493694.0,0.0100127419,0.0033277488,0.010551251699770841,0.32086655527002084
8396496296.0,0.0099883117,0.0033159784,0.0105243566722923,0.3205373521150857
8396498899.0,0.0099932718,0.0032910311,0.01052123409918449,0.3181384437961647
8396501502.0,0.0099530828,0.003270995,0.010476796529172496,0.3175218814211249
8396504104.0,0.0099686937,0.0032404787,0.010482154181730652,0.31429116749590774
8396506707.0,0.0099656938,0.0031806115,0.010460943668201769,0.30893720298359634
8396509309.0,0.0099586354,0.0031726914,0.010451812749459643,0.3084206361028492
8396511912.0,0.0099406432,0.0031656679,0.010432537585975746,0.3083026894425943
8396514515.0,0.0099383647,0.0031307335,0.010419816944564255,0.3051744287970643
8396517117.0,0.0099527813,0.0031020664,0.010425002232884109,0.30213613900678543
8396519720.0,0.0099226517,0.0030615701,0.010384229785435552,0.29927635931815255
8396522322.0,0.0099405234,0.0030406506,0.01039517010621894,0.2968465051918002
8396524925.0,0.0099319037,0.0030196303,0.010380793719882491,0.29515302749732425
8396527528.0,0.0099304006,0.0029870966,0.010369937423832987,0.29219354197371683
8396530130.0,0.0099177321,0.0029509582,0.010347442404068633,0.28920174082644207
8396532733.0,0.0099155203,0.0029284287,0.010338918583231795,0.2871741469037124
8396535335.0,0.0099174717,0.002945906,0.010345753093957775,0.28874086293989687
8396537938.0,0.0098870181,0.0029082878,0.010305884961387667,0.28608321302535905
8396540541.0,0.0098901831,0.0028541671,0.010293784123744194,0.2809525019807167
8396543143.0,0.0098676742,0.0028275758,0.010264802921736553,0.2790715452623539
8396545746.0,0.0098645313,0.0028163779,0.010258701781623643,0.27810661620953414
8396548348.0,0.0098626237,0.0027811576,0.01024725250219977,0.2748527309368419
8396550951.0,0.0098330826,0.0027697525,0.010215725247366386,0.27456303995001774
8396553554.0,0.0098450621,0.0027169339,0.010213078750789382,0.2692670438653416
8396556156.0,0.0098424022,0.0026999728,0.010206014608421089,0.2677343856221435
8396558759.0,0.0098596503,0.0026745883,0.010215974090256248,0.26489147554597586
8396561361.0,0.0098393656,0.0026420631,0.01018791503865462,0.2623315648151644
8396563964.0,0.0098237125,0.002629163,0.010169455509673329,0.2615056212913774
8396566567.0,0.0098115835,0.0025801669,0.010145167914299293,0.25714939107436113
8396569169.0,0.0098195045,0.0025770352,0.010152033246968771,0.25665262039403114
8396571772.0,0.0098096195,0.0025525279,0.010136273152153047,0.2545615825116511
8396574374.0,0.0097991069,0.002523633,0.010118854656349038,0.25205967303259436
8396576977.0,0.0098084927,0.0024843614,0.010118230112611752,0.24806969008092097
8396579580.0,0.009771899,0.002467013,0.01007850004754527,0.24729255394932326
8396582182.0,0.009743307,0.0024173464,0.010038704842450641,0.24319271735350245
8396584785.0,0.0097754533,0.0024174932,0.010069943425487908,0.24243815168254937
8396587387.0,0.0097804367,0.0023775757,0.010065277355936963,0.23846939819246946
8396589990.0,0.009748165,0.0023417347,0.010025489627564785,0.23575594693945198
8396592593.0,0.0097551393,0.0023373487,0.01003124826269374,0.23516841101998945
8396595195.0,0.0097317643,0.0023088418,0.010001899162068258,0.23294126037875906
8396597798.0,0.0097187109,0.0022944285,0.00998587721231295,0.23183862601255922
8396600400.0,0.0097197059,0.0022416041,0.009974841939781884,0.22666160531153348
8396603003.0,0.0096926213,0.0022149548,0.009942481200950632,0.2246619967093056
8396605606.0,0.009697568,0.0021995862,0.00994389282755272,0.2230444816747637
8396608208.0,0.0097004722,0.0021576729,0.009937540603507855,0.21886662956426456
8396610811.0,0.009673661,0.0021710214,0.009914285201777229,0.22076806884750447
8396613413.0,0.0096706931,0.0021113499,0.009898489957292356,0.21495166024693146
8396616016.0,0.0096665438,0.0020928677,0.009890508796165227,0.21321546788739865
8396618619.0,0.0096285096,0.0020551068,0.00984538780732879,0.21028438053118262
8396621221.0,0.0096212545,0.0020277959,0.009832623981716531,0.20772200280141412
8396623824.0,0.0096175802,0.0020014518,0.009823627548474916,0.20517507619320952
8396626426.0,0.009579277,0.0019978121,0.009785387117004387,0.20560842447784144
8396629029.0,0.0096094656,0.0019560408,0.009806524599920605,0.20081008452195362
8396631632.0,0.0095691414,0.0019441481,0.009764639213403,0.20044032933600645
8396634234.0,0.009547192,0.0018944494,0.009733335174236236,0.19588549890255572
8396636837.0,0.0095444403,0.0018815427,0.0097281315560691,0.19463918619422352
8396639439.0,0.0095409288,0.0018624592,0.009721012120059006,0.1927830010397698
8396642042.0,0.0095571276,0.0018292548,0.009730614630433412,0.18911489680472884
8396644645.0,0.009503036,0.0018250556,0.009676699910630035,0.18973952386565726
8396647247.0,0.009498331,0.0017862674,0.009664835384519685,0.18589002241843772
8396649850.0,0.0094673301,0.0017608843,0.009629696399178558,0.1838945088451292
8396652452.0,0.0094729981,0.0017210434,0.00962806747936922,0.17971862319789803
8396655055.0,0.009458068,0.0016985286,0.00960937301272263,0.17769108254757524
8396657658.0,0.0094578491,0.0016765781,0.009605301854901304,0.17544584307511704
8396660260.0,0.0094239477,0.0016456925,0.009566561245133567,0.17288545562441765
8396662863.0,0.0094135589,0.0016263512,0.009553015722247643,0.17107808496050064
8396665465.0,0.0093836978,0.0015915374,0.009517708531853852,0.16800781545152582
8396668068.0,0.0094138742,0.0015463895,0.009540039200083818,0.16281302677272855
8396670671.0,0.0093747278,0.001535398,0.00949962990555405,0.16233924861656238
8396673273.0,0.0093757504,0.0014898106,0.009493378281042663,0.1575829373199024
8396675876.0,0.0093261284,0.0014936632,0.009444982831552463,0.158810268797798
8396678478.0,0.0093479707,0.0014603513,0.009461352024286496,0.15496863857778093
8396681081.0,0.0093113089,0.001423074,0.009419427426372327,0.15165931606315333
8396683684.0,0.0093233189,0.0013949567,0.009427098148739732,0.1485184698591648
8396686286.0,0.0092995811,0.0013687394,0.009399768942936289,0.1461337144368856
8396688889.0,0.0092813398,0.0013675405,0.009381547606989173,0.14629041246344282
8396691491.0,0.0092763795,0.0013261771,0.009370697003349571,0.14200058786208974
8396694094.0,0.0092692179,0.0012911594,0.009358712148254629,0.13840481781716915
8396696697.0,0.0092295635,0.0012576702,0.009314857848217561,0.13543127374128652
8396699299.0,0.0092254806,0.0012366027,0.009307990037522798,0.13324784407543336
8396701902.0,0.0091957124,0.0012114454,0.009275167195295992,0.13098594488851925
8396704505.0,0.0092003243,0.0012111316,0.009279698646922165,0.13088750634850477
8396707107.0,0.0091827224,0.0011926681,0.009259851395795689,0.1291587223147133
8396709710.0,0.009164687,0.001156892,0.009237417761887409,0.1255694920130463
8396712312.0,0.0091376521,0.0011344752,0.009207807550120139,0.1235218308215741
8396714915.0,0.0091468215,0.001089929,0.009211530208271763,0.11860009447990709
8396717518.0,0.0091108649,0.0010583858,0.00917213386991782,0.11564907014415723
8396720120.0,0.0090972624,0.0010154304,0.009153757811505498,0.11115922140215502
8396722723.0,0.0090911181,0.001020043,0.00914816462630601,0.11173482560807889
8396725325.0,0.0090556756,0.0009771769,0.009108245454879276,0.10749174900573068
8396727928.0,0.009032887,0.0009862087,0.009086564540833059,0.10874904996219485
8396730531.0,0.0090047052,0.00092489,0.009052079167296705,0.10235293303005324
8396733133.0,0.0089939113,0.0009027593,0.009039104757994798,0.10003942532536046
8396735736.0,0.0089746192,0.0008928719,0.009018925103071777,0.0991622461570567
8396738338.0,0.0089637118,0.0008631409,0.009005173038132695,0.09599682535349364
8396740941.0,0.0089587626,0.000831427,0.008997260593063189,0.09254093256678265
8396743544.0,0.0089203593,0.0008047274,0.008956583959825713,0.08996890568428285
8396746146.0,0.008931801,0.0007789248,0.00896570091781206,0.08698795740394066
8396748749.0,0.008900935,0.0007504854,0.008932517685951602,0.08411639090402337
8396751351.0,0.008878571,0.0007452706,0.008909795242836131,0.08374405902902486
8396753954.0,0.0088493921,0.0007044689,0.008877387958775353,0.07943894981136185
8396756557.0,0.0088389537,0.0006848655,0.00886544659133616,0.07732814259332892
8396759159.0,0.0087998023,0.0006583818,0.008824397266309836,0.07467865890987882
8396761762.0,0.0087896102,0.0006439611,0.00881316817984641,0.07313323423223389
8396764364.0,0.0087640953,0.0006024338,0.00878477620152412,0.06863088787640423
8396766967.0,0.0087565134,0.0005903516,0.008776391168128396,0.06731670128724175
8396769570.0,0.0087332034,0.0005214745,0.008748758613650386,0.05964089329609686
8396772172.0,0.0086947299,0.0005073374,0.008709518888629426,0.05828390282189229
8396774775.0,0.0086844369,0.0005253327,0.008700311414873084,0.06041765796372797
8396777377.0,0.0086846593,0.0005017492,0.008699141303414787,0.05771004276164272
8396779980.0,0.0086225527,0.0004524592,0.00863441569487721,0.05242584375861976
8396782583.0,0.0086297897,0.0004374291,0.008640868850049334,0.050644924466010696
8396785185.0,0.0086046261,0.0003948484,0.008613680721955265,0.04585575256612182
8396787788.0,0.0085726062,0.0003876138,0.008581364781794843,0.04518462232694614
8396790390.0,0.0085238695,0.0003404638,0.008530666260740756,0.03992117840451137
8396792993.0,0.0085494611,0.0003518527,0.008556698278127522,0.04113174498830522
8396795596.0,0.0084752518,0.0003230807,0.008481407560783513,0.03810203481024258
8396798198.0,0.0084786379,0.0002905776,0.00848361573746349,0.03425832278816346
8396800801.0,0.0084566925,0.000281166,0.00846136527748993,0.03323550751690301
8396803403.0,0.0084552191,0.000248581,0.008458872415550775,0.029391245150427327
8396806006.0,0.0084287047,0.0002241369,0.008431684307998236,0.026585827641148647
8396808609.0,0.0084280229,0.0001870367,0.008430098026124684,0.022188597062338358
8396811211.0,0.00837893,0.0001850834,0.008380973917741038,0.022085553430848084
8396813814.0,0.0083528447,0.0001509838,0.008354209160068985,0.018073765871439107
8396816416.0,0.0083376589,0.000123375,0.008338571659665353,0.014796239316756877
8396819019.0,0.0083068226,9.49336e-05,0.00830736505134328,0.011427891489131991
8396821622.0,0.0082836017,7.33286e-05,0.008283926255575967,0.00885202926711576
8396824224.0,0.0082543719,5.28825e-05,0.00825454129690535,0.006406517315309809
8396826827.0,0.0082225534,5.41652e-05,0.008222731801824902,0.0065872988484505035
8396829429.0,0.0082073134,8.4645e-06,0.008207317764871774,0.001031335905718031
8396832032.0,0.00818249,-1.34056e-05,0.008182500981375521,-0.0016383262314955658
8396834635.0,0.0081605543,-6.03489e-05,0.008160777442926604,-0.0073950613743535
8396837237.0,0.0081069441,-4.50314e-05,0.008107069166320882,-0.00555461297312171
8396839840.0,0.0080877664,-5.45305e-05,0.008087950229594592,-0.006742241432478388
8396842442.0,0.008069044,-0.0001182949,0.008069911074931496,-0.014659286308336994
8396845045.0,0.0080202047,-0.0001250131,0.008021178947328985,-0.015586008291827524
8396847648.0,0.0080274694,-0.0001522753,0.00802891354636021,-0.01896700339423012
8396850250.0,0.0080126382,-0.000179413,0.008014646589130942,-0.02238751089847365
8396852853.0,0.0079674239,-0.0001736687,0.007969316433650436,-0.021793895401673823
8396855455.0,0.0079589802,-0.0002221689,0.007962080434416575,-0.027906995161363
8396858058.0,0.007901762,-0.0002367432,0.007905307713643424,-0.0299518513212687
8396860661.0,0.0078694932,-0.0002653215,0.007873964612773445,-0.03370242913743692
8396863263.0,0.007855301,-0.0002716052,0.00785999511356515,-0.0345622710918069
8396865866.0,0.0078332667,-0.0002630788,0.00783768318116638,-0.03357219466900004
8396868468.0,0.0078035196,-0.0003103277,0.007809687665263666,-0.03974671430120795
8396871071.0,0.0077734303,-0.0003298229,0.007780424266987148,-0.04240408391521139
8396873674.0,0.0077541964,-0.0003740068,0.007763210862537433,-0.048195474347515414
8396876276.0,0.0077277798,-0.0003908787,0.007737658999684706,-0.05053791319803687
8396878879.0,0.0076971192,-0.000408285,0.007707940102273345,-0.052994206085008426
8396881481.0,0.0076731761,-0.0004382589,0.00768568164348748,-0.05705372345904147
8396884084.0,0.0076411006,-0.0004277317,0.0076530629676297085,-0.055919401316768466
8396886687.0,0.0076250058,-0.0004589113,0.007638803115102609,-0.060112532059568145
8396889289.0,0.007593078,-0.0004687656,0.007607534074969849,-0.06165765966779807
8396891892.0,0.0075327525,-0.0004970732,0.007549135181755225,-0.0658927245689295
8396894494.0,0.0075065042,-0.0005204199,0.0075245227208729755,-0.0692184373256211
8396897097.0,0.0074914907,-0.0005137165,0.007509083669167546,-0.06846615286727788
8396899700.0,0.007442646,-0.0005467188,0.00746269930571971,-0.0733258848538692
8396902302.0,0.0074175804,-0.000563157,0.007438927664463015,-0.0757765549066675
8396904905.0,0.0074021001,-0.0005854796,0.007425218666977839,-0.07893208512797584
8396907508.0,0.0073728116,-0.0005918519,0.007396528885945635,-0.08010315664350123
8396910110.0,0.0073290362,-0.0006365661,0.007356628848907606,-0.08663793828104634
8396912713.0,0.007316032,-0.0006304065,0.007343142146265878,-0.08595549890750814
8396915315.0,0.0072900611,-0.0006781697,0.007321537064287205,-0.09275964956487215
8396917918.0,0.0072491218,-0.0006574431,0.0072788734225134625,-0.09044535765635635
8396920521.0,0.0072291102,-0.0006993447,0.007262858754867956,-0.09643997816765193
8396923123.0,0.0071934841,-0.0007230142,0.0072297277286461105,-0.10017318014049456
8396925726.0,0.0071290604,-0.0007141024,0.007164736172709635,-0.0998348027400562
8396928328.0,0.0071087041,-0.000735894,0.007146692518962377,-0.1031527051477789
8396930931.0,0.007064304,-0.0007761275,0.007106811162587075,-0.10942722151611693
8396933534.0,0.0070398678,-0.0007588721,0.007080651488785143,-0.1073817105601256
8396936136.0,0.007019651,-0.0008060996,0.00706578351826046,-0.11433389298053342
8396938739.0,0.0069942784,-0.0008152312,0.007041628522306469,-0.11603330348351165
8396941341.0,0.0069624416,-0.0008413951,0.007013097657078117,-0.12026451498343138
8396943944.0,0.0069062396,-0.0008343548,0.0069564569534276,-0.12022906261744802
8396946547.0,0.0068635848,-0.0008565784,0.00691682896001756,-0.12415849944411583
8396949149.0,0.0068370633,-0.0008525622,0.006890014286855705,-0.12405677713418511
8396951752.0,0.0068162062,-0.000909841,0.006876661806879806,-0.13269762296062035
8396954354.0,0.0067924995,-0.0008948292,0.006851187397427755,-0.13098357961499438
8396956957.0,0.0067387215,-0.0009143653,0.006800472877411272,-0.13486459331298395
8396959560.0,0.0067179965,-0.0009432726,0.0067838956486611,-0.13949784920205394
8396962162.0,0.0066764708,-0.0009696675,0.006746518910060868,-0.14422808037930804
8396964765.0,0.0066578598,-0.0009485699,0.006725093454491324,-0.141521257535584
8396967367.0,0.0065853365,-0.0009890731,0.006659198331284019,-0.14907894109954675
8396969970.0,0.0065597556,-0.0009520487,0.006628483254780316,-0.14412842589586916
8396972573.0,0.0065649151,-0.0009753056,0.006636967024447189,-0.1474845888933077
8396975175.0,0.0065069585,-0.0010256,0.006587288082414663,-0.15632979294678268
8396977778.0,0.0064845837,-0.0010244909,0.006565013889283746,-0.15669354587937032
8396980380.0,0.0064302103,-0.001030526,0.006512264455540952,-0.15891186987763592
8396982983.0,0.006403755,-0.0010479047,0.006488927674146714,-0.16220149773230985
8396985586.0,0.0063635276,-0.0010484196,0.006449315248429551,-0.16328758417763167
8396988188.0,0.0063204346,-0.0010620853,0.006409049751511783,-0.16648451374292736
8396990791.0,0.0062762181,-0.0010750695,0.006367628135231977,-0.1696461478520904
8396993393.0,0.0062448544,-0.0010732769,0.006336413005894816,-0.1702029896646867
8396995996.0,0.0062314634,-0.0011100352,0.006329558772203525,-0.1762848661387539
8396998599.0,0.0062032157,-0.0011069198,0.006301202779181014,-0.17658429674572204
8397001201.0,0.0061607991,-0.0011135476,0.006260625672249266,-0.17881665921703419
8397003804.0,0.00611021,-0.0011325903,0.006214292158545017,-0.1832801112914096
8397006406.0,0.0060664172,-0.0011283878,0.00617046810798376,-0.18390394979412292
8397009009.0,0.0060449861,-0.0011497342,0.006153352393601625,-0.187951433731467
8397011612.0,0.0060003303,-0.0011841533,0.006116059413298646,-0.19484428282230773
8397014214.0,0.0059844775,-0.0011810702,0.006099909652227177,-0.19485158772734987
8397016817.0,0.0058959148,-0.0012011626,0.006017026086074233,-0.20097753806030044
8397019419.0,0.0058995519,-0.0011817861,0.006016754191999771,-0.1977012553719115
8397022022.0,0.0058834423,-0.0011996497,0.00600450270215106,-0.20114531267942204
8397024625.0,0.0058100742,-0.0012205985,0.005936903478052165,-0.20707179958843083
8397027227.0,0.0057925346,-0.0012333893,0.005922390248670857,-0.20979428621915688
8397029830.0,0.0057480133,-0.0012149461,0.005875010716831255,-0.20830205652678221
8397032432.0,0.005699863,-0.0012478468,0.005834857312311865,-0.21552542066528
8397035035.0,0.0056416775,-0.001234332,0.005775127747524747,-0.21539407626032836
8397037638.0,0.0056085745,-0.0012204075,0.005739817278285651,-0.21425683564804093
8397040240.0,0.0056144575,-0.0012479447,0.005751477983402558,-0.2187177389124754
8397042843.0,0.0055618897,-0.0012610916,0.005703066636341947,-0.22296805366233002
8397045445.0,0.0054999461,-0.0012484049,0.00563985123006354,-0.22320292564865737
