frequency,Re(S21),Im(S21),Amplitude,phase
8635600000.0,0.0077838166,0.0016589477,0.007958637341515874,0.20998599102571147
8635609610.0,0.0077768065,0.0016243847,0.007944642533936713,0.20591499048190867
8635619219.0,0.0077761968,0.0015519466,0.007929550738949957,0.19698837197490415
8635628829.0,0.0077790187,0.0015071233,0.007923670398013321,0.1913711563731211
8635638438.0,0.0077979185,0.0014684625,0.007934980469197671,0.1861348419948519
8635648048.0,0.0077978437,0.0014333302,0.007928480423880842,0.18178196229570653
8635657658.0,0.0077929485,0.0014101994,0.007919514421441039,0.17902109381378528
8635667267.0,0.0077951564,0.0013774704,0.007915926225233351,0.1749029167783849
8635676877.0,0.0077860453,0.0013201518,0.007897170517894072,0.16795623750212457
8635686486.0,0.0077496001,0.0012861196,0.00785559707058758,0.16446052474104217
8635696096.0,0.0077614117,0.0012452894,0.00786067791393651,0.15909034277643766
8635705706.0,0.0077718613,0.0011960142,0.007863350305883575,0.15269247025782748
8635715315.0,0.007753607,0.0011954357,0.007845220712209663,0.15297349570009183
8635724925.0,0.0077548026,0.0011320973,0.007837002466608905,0.144962574309676
8635734535.0,0.0077439861,0.0010923201,0.00782064472520375,0.14012951564574735
8635744144.0,0.0077619142,0.0010606119,0.007834041718716033,0.1358020506285637
8635753754.0,0.0077406672,0.0010208332,0.007807690383421853,0.131122553097377
8635763363.0,0.0077600458,0.00098666,0.00782251933674169,0.12646757237701292
8635772973.0,0.0077358742,0.0009407905,0.007792870870424833,0.12101969590502368
8635782583.0,0.0077560666,0.0009075304,0.007808980761313203,0.11647945208517133
8635792192.0,0.0077531309,0.0008686019,0.007801634957700752,0.11156718737838767
8635801802.0,0.0077539035,0.0008471226,0.007800040781094866,0.10881953447483385
8635811411.0,0.0077302623,0.0007837555,0.0077698924001932965,0.10104267744327453
8635821021.0,0.0077227261,0.000768856,0.007760904455303983,0.09923060378913934
8635830631.0,0.0077001865,0.0007146471,0.007733278257784383,0.09254396153534349
8635840240.0,0.0077322776,0.0007010977,0.007763997351133438,0.09042430177252822
8635849850.0,0.0076941151,0.0006294927,0.0077198230699544726,0.08163301015758298
8635859459.0,0.0077098494,0.0005995829,0.007733128566411706,0.07761221930460284
8635869069.0,0.0076505405,0.00056308,0.00767123386610917,0.07346756268327603
8635878679.0,0.0077011929,0.0005418288,0.007720229953279879,0.07024073144370575
8635888288.0,0.0076694897,0.0004995882,0.007685743986627796,0.0650477931275073
8635897898.0,0.0076672509,0.000473206,0.007681839641777666,0.061639634291313965
8635907508.0,0.0076602901,0.0004296021,0.007672327051193948,0.0560230165837028
8635917117.0,0.0076485402,0.0004032884,0.007659165014842714,0.052678716763706925
8635926727.0,0.0076301038,0.0003542785,0.0076383242438598205,0.04639835075801315
8635936336.0,0.0076494696,0.0003199587,0.0076561582227008505,0.04180319921064455
8635945946.0,0.0076392093,0.0002755975,0.007644179008318207,0.03606106554395423
8635955556.0,0.0076322982,0.0002479541,0.007636324839176896,0.032476053145728614
8635965165.0,0.0076243175,0.0002166793,0.007627395837365119,0.028411853686655657
8635974775.0,0.007594205,0.0001710554,0.0075961312213451235,0.02252065626337408
8635984384.0,0.0076022801,0.000129291,0.007603379438219364,0.01700523203019943
8635993994.0,0.0075927355,0.0001062838,0.0075934793486979795,0.013997176489948047
8636003604.0,0.0075984752,6.30739e-05,0.007598736979385208,0.008300672136399737
8636013213.0,0.0075740181,4.08904e-05,0.007574128478177523,0.005398719965159026
8636022823.0,0.0075541492,2.4936e-06,0.0075541496115646,0.0003300967247812963
8636032432.0,0.0075432731,-3.75692e-05,0.007543366655941647,-0.004980449317999359
8636042042.0,0.0075150488,-8.05744e-05,0.007515480736474334,-0.010721329276948393
8636051652.0,0.0075363344,-0.0001282014,0.007537424745069453,-0.017009467617774512
8636061261.0,0.0075074145,-0.0001347456,0.007508623632299705,-0.017946409338242687
8636070871.0,0.0074815519,-0.0001684138,0.007483447203022418,-0.022506742508243586
8636080480.0,0.0074864595,-0.0002115325,0.007489447365707065,-0.02824782977860073
8636090090.0,0.0074930871,-0.0002382938,0.0074968752306080735,-0.031791104556661766
8636099700.0,0.0074619496,-0.0003105479,0.007468408922329747,-0.041593525973963874
8636109309.0,0.00745109,-0.0003179697,0.007457871473699321,-0.04264837671831709
8636118919.0,0.0074509577,-0.0003684654,0.00746006282803211,-0.04941183308042325
8636128529.0,0.0074194778,-0.0003839062,0.007429403394290236,-0.05169691773785007
8636138138.0,0.0074193486,-0.0004351982,0.00743210139338836,-0.05859006326447762
8636147748.0,0.0074002303,-0.0004826493,0.007415952996063863,-0.06512860598640839
8636157357.0,0.0073946418,-0.0005086732,0.007412116821442136,-0.06868123423579431
8636166967.0,0.0073852465,-0.0005168461,0.007403309783930932,-0.06986967660432541
8636176577.0,0.007345501,-0.0005564813,0.007366549828668146,-0.07561367811740917
8636186186.0,0.0073418509,-0.0005920994,0.007365687770827052,-0.08047299378120078
8636195796.0,0.0073330563,-0.0006188495,0.007359122869107428,-0.08419226290811345
8636205405.0,0.0073344824,-0.0006658094,0.007364640808147952,-0.09052983636934217
8636215015.0,0.007296857,-0.000715057,0.00733180936684104,-0.09768331580571084
8636224625.0,0.0073016277,-0.0007313847,0.007338166708981295,-0.09983434316672388
8636234234.0,0.0072807025,-0.0007730824,0.0073216313271494355,-0.10578601085151966
8636243844.0,0.0072546695,-0.0007783006,0.007296299156297706,-0.10687393566352835
8636253453.0,0.0072452915,-0.0008332981,0.007293053862644637,-0.1145092289233146
8636263063.0,0.0072161787,-0.0008774386,0.007269328272069136,-0.12099925881460251
8636272673.0,0.0072104865,-0.0008801651,0.007264007583279375,-0.12146644416473641
8636282282.0,0.0071997489,-0.0009284464,0.007259366152821069,-0.12824761399618817
8636291892.0,0.0071499342,-0.0009471713,0.00721239852863618,-0.1317058658107022
8636301502.0,0.0071355706,-0.0009962822,0.00720478632643753,-0.13872512838301274
8636311111.0,0.0071503691,-0.0010076696,0.007221023216206894,-0.140003570373133
8636320721.0,0.0071086014,-0.0010430619,0.007184719339773376,-0.14569269546567853
8636330330.0,0.0070931649,-0.0010681051,0.0071731329837971085,-0.14945938753610838
8636339940.0,0.0070807013,-0.001114647,0.007167898494986566,-0.15613906757598245
8636349550.0,0.0070485663,-0.0011369867,0.007139679659583655,-0.15992987766024902
8636359159.0,0.0070341657,-0.0011752908,0.007131675508575887,-0.1655539098615266
8636368769.0,0.0070045856,-0.0012025508,0.007107063236971232,-0.17002300582682534
8636378378.0,0.0069982361,-0.0012385272,0.007106986572133302,-0.17516332508549542
8636387988.0,0.0069464806,-0.0012994113,0.007066969821128717,-0.18492322659421245
8636397598.0,0.0069710729,-0.0013055061,0.007092263641056473,-0.1851303640462395
8636407207.0,0.0069167299,-0.0013208423,0.007041716899380669,-0.18869162080737473
8636416817.0,0.0069125011,-0.0013634442,0.007045683185044219,-0.19474344132820082
8636426426.0,0.0068765235,-0.0013930192,0.007016201104416897,-0.19987133183336342
8636436036.0,0.0068586573,-0.0014065315,0.007001393491251263,-0.20226950128533955
8636445646.0,0.0068480102,-0.0014549104,0.007000857659696575,-0.2093446272392806
8636455255.0,0.006821626,-0.0014596029,0.006976031960187998,-0.2107885983428779
8636464865.0,0.0068181881,-0.0014889553,0.006978873609142073,-0.2150044825748326
8636474474.0,0.0067803636,-0.0015268729,0.006950156214140757,-0.22149567568529996
8636484084.0,0.0067711393,-0.0015668513,0.006950061180760654,-0.22739899660481197
8636493694.0,0.0067577438,-0.0015998499,0.006944538931345151,-0.23246328891553977
8636503303.0,0.0067200739,-0.001619249,0.006912406277517418,-0.23644968453185303
8636512913.0,0.006704801,-0.0016447021,0.0069035788868778356,-0.24055229322847085
8636522523.0,0.0066731618,-0.0016759659,0.006880403338972363,-0.2460609080679629
8636532132.0,0.0066613103,-0.0016966854,0.00687399419984184,-0.2494042790303575
8636541742.0,0.0066252898,-0.0017389549,0.006849702845979382,-0.25668239445725605
8636551351.0,0.0066191062,-0.001788095,0.00685637299276399,-0.2638436762326494
8636560961.0,0.0065572841,-0.0017718301,0.006792448503402791,-0.26390561719918865
8636570571.0,0.0065829633,-0.0018095615,0.006827145716287968,-0.2682598063254221
8636580180.0,0.0065353726,-0.0018548187,0.006793485661330305,-0.2765402765493716
8636589790.0,0.0065163421,-0.0018780663,0.006781581481588797,-0.2806042667293103
8636599399.0,0.0065193064,-0.0018809257,0.0067852219879677815,-0.28088821345660325
8636609009.0,0.0064990558,-0.0019288079,0.006779234927823055,-0.2885026166261452
8636618619.0,0.0064708094,-0.0019197471,0.006749578003037432,-0.28840635227873024
8636628228.0,0.0064306939,-0.0019646542,0.0067241125928314775,-0.29650597874304935
8636637838.0,0.0063863858,-0.0019869179,0.006688330608439003,-0.301625087746429
8636647447.0,0.0063727738,-0.0020107185,0.006682457242078597,-0.3056310904105066
8636657057.0,0.0063641983,-0.002033898,0.006681299355374439,-0.30932583283102744
8636666667.0,0.0063177832,-0.0020485955,0.0066416208928862,-0.31356117697822217
8636676276.0,0.0063026061,-0.0021107912,0.006646674592738436,-0.3231667984206806
8636685886.0,0.0062629264,-0.0021073493,0.006607962482038428,-0.3245798508496026
8636695495.0,0.0062473764,-0.0021273658,0.006599651288536887,-0.328205867698285
8636705105.0,0.006217258,-0.0021552045,0.006580213026596043,-0.333686151217665
8636714715.0,0.0061930585,-0.0021898044,0.006568806352350602,-0.33986957205237517
8636724324.0,0.0061773439,-0.0021852369,0.00655246808218009,-0.3400118777220931
8636733934.0,0.0061376875,-0.0022187855,0.006526424514438706,-0.34688450160060175
8636743544.0,0.0061267068,-0.0022468531,0.006525709545033846,-0.3515014715086607
8636753153.0,0.0060737979,-0.0022673408,0.006483197917184778,-0.3572782772659476
8636762763.0,0.0060653379,-0.0022715027,0.006476731301921032,-0.35833710851469297
8636772372.0,0.0060276996,-0.0023231184,0.006459879377222049,-0.36786336665063085
8636781982.0,0.0060357584,-0.0023279806,0.00646914779064035,-0.36811668936493114
8636791592.0,0.0059907852,-0.002352234,0.006436032326153671,-0.37414724145544465
8636801201.0,0.0059517458,-0.002351234,0.006399342106074158,-0.37623140365322244
8636810811.0,0.0059330923,-0.0023891541,0.006396064536405656,-0.3828169766506907
8636820420.0,0.0059089311,-0.0024098287,0.006381437229017527,-0.38723655119387684
8636830030.0,0.0058876547,-0.0024394403,0.006373017091119102,-0.3927996705985585
8636839640.0,0.005838476,-0.0024360105,0.006326290315713171,-0.3952744020946281
8636849249.0,0.0058502199,-0.002460347,0.0063465250522443395,-0.3981008048760922
8636858859.0,0.0058063149,-0.0024835176,0.006315152602073188,-0.40417816392282707
8636868468.0,0.0057773897,-0.0024817617,0.0062878750688331085,-0.4057304852990091
8636878078.0,0.0057425847,-0.0025155325,0.0062693845627166895,-0.4128710047387329
8636887688.0,0.0057164631,-0.0025442703,0.006257096909360099,-0.4187530138026658
8636897297.0,0.0056985565,-0.0025916017,0.006260187341856085,-0.4268236298539851
8636906907.0,0.0056643771,-0.0025595569,0.006215826530345102,-0.4244071715065324
8636916517.0,0.005635081,-0.0026049327,0.006208044156422399,-0.4330112373663574
8636926126.0,0.0056075867,-0.0025898243,0.006176748214302359,-0.43265875147146027
8636935736.0,0.0055907713,-0.0026104025,0.006170164093515661,-0.4368292308331588
8636945345.0,0.0055178553,-0.0026388712,0.006116401582787671,-0.44609034613125026
8636954955.0,0.0055096393,-0.0026451931,0.006111724122732643,-0.44760349902053664
8636964565.0,0.005502403,-0.0026729655,0.006117285618523894,-0.45220823273495786
8636974174.0,0.0054661603,-0.0026781427,0.006086982565020158,-0.45557495851099467
8636983784.0,0.0054256523,-0.0027172649,0.006068050050656084,-0.4643018783203003
8636993393.0,0.0053882374,-0.0027137741,0.00603304832937625,-0.4665616166683366
8637003003.0,0.0053580624,-0.0027365332,0.006016431387209199,-0.4721961946077153
8637012613.0,0.0053365057,-0.0027476716,0.006002332239020016,-0.4754823333810941
8637022222.0,0.0053098434,-0.0027259283,0.0059686784156347756,-0.4742883954327066
8637031832.0,0.0052526111,-0.0027662205,0.005936488795783537,-0.4847296004814964
8637041441.0,0.0052419926,-0.002784512,0.005935654428670756,-0.4882898271054145
8637051051.0,0.0052106861,-0.0027707764,0.005901563478564827,-0.48872292922237687
8637060661.0,0.0052005298,-0.0028093749,0.005910845754157188,-0.4952953465408195
8637070270.0,0.0051763923,-0.002823723,0.005896477662488707,-0.49938190179187264
8637079880.0,0.0051347107,-0.00283755,0.005866595603516104,-0.5048534225427869
8637089489.0,0.0051231401,-0.0028251903,0.005850492689974247,-0.5039609655696631
8637099099.0,0.0050821837,-0.002833998,0.005818946281290943,-0.508685284332556
8637108709.0,0.0050438024,-0.0028437826,0.005790254064055266,-0.5133895081283107
8637118318.0,0.0050258756,-0.002871549,0.005788369304568979,-0.5190891279078862
8637127928.0,0.005008117,-0.0028895921,0.005781952818042656,-0.5233223404740714
8637137538.0,0.0049857964,-0.0028785856,0.00575711914057546,-0.5236039963636395
8637147147.0,0.0049534477,-0.0029040522,0.005741965107605595,-0.5302618972822878
8637156757.0,0.004929731,-0.0029133358,0.0057262355187262986,-0.5337552409120894
8637166366.0,0.0048779692,-0.0028842841,0.0056668931775410636,-0.5339889064642749
8637175976.0,0.0048295959,-0.0029208156,0.00564412617917957,-0.5439226401975755
8637185586.0,0.0048200722,-0.0029205843,0.005635859177323306,-0.5447620085894247
8637195195.0,0.004782938,-0.0029308449,0.005609487297400718,-0.549756936471152
8637204805.0,0.0047438645,-0.0029370375,0.005579465894757894,-0.5543622774443698
8637214414.0,0.0047364848,-0.0029437675,0.005576742360436538,-0.5560849279423629
8637224024.0,0.0047091487,-0.0029410265,0.005552091349429865,-0.5582646062761005
8637233634.0,0.0046349127,-0.0029723925,0.0055061359328187265,-0.5702384082665907
8637243243.0,0.0046513374,-0.0029891526,0.005529011925717426,-0.5711864253434343
8637252853.0,0.0046350461,-0.0029497018,0.005494032495175875,-0.5667487209899844
8637262462.0,0.0045652543,-0.002972275,0.005447565098215302,-0.5771231857721068
8637272072.0,0.0045571257,-0.0029705653,0.0054398210308028135,-0.5776750971572487
8637281682.0,0.0045225994,-0.0029582454,0.005404176272060481,-0.5792541061749287
8637291291.0,0.0044864295,-0.0029919431,0.005392566473591944,-0.5881553718080355
8637300901.0,0.0044737348,-0.0029932496,0.005382735942681119,-0.5896658178515792
8637310511.0,0.0044395035,-0.002975709,0.00534453322369627,-0.5904997534450571
8637320120.0,0.0044060098,-0.0029933711,0.005326649312655306,-0.5967550850221834
8637329730.0,0.0043680623,-0.0029901841,0.00529350254638402,-0.6002856203162924
8637339339.0,0.0043463127,-0.0030010896,0.005281758501996229,-0.6043155036488967
8637348949.0,0.0043412565,-0.0029973746,0.005275486943545345,-0.6042806038588674
8637358559.0,0.0043003141,-0.0029989696,0.005242758817682058,-0.6089679996675453
8637368168.0,0.0042734022,-0.0029862314,0.005213400458176103,-0.6099166731065712
8637377778.0,0.0042494936,-0.0029944993,0.005198578836003303,-0.6138546804033014
8637387387.0,0.0042320284,-0.0029889083,0.005181084558682231,-0.6149143196240345
8637396997.0,0.0042105777,-0.0030058236,0.005173387679466352,-0.6199770716378059
8637406607.0,0.0041921637,-0.0029939179,0.005151483366908807,-0.6201729155156226
8637416216.0,0.0041606743,-0.0030123389,0.005136671712221222,-0.6266541000044321
8637425826.0,0.0041145429,-0.002991271,0.005086960337115026,-0.6286176164505172
8637435435.0,0.0041049816,-0.0030051945,0.005087442178459506,-0.6319364227739697
8637445045.0,0.0040549077,-0.0029943957,0.005040702536720232,-0.6360758731923397
8637454655.0,0.0040512499,-0.0030113769,0.005047872481165072,-0.6392124730478347
8637464264.0,0.004012121,-0.002997037,0.005007928284032231,-0.6415755608596815
8637473874.0,0.0039743324,-0.0029850748,0.00497051200454086,-0.6441972946744103
8637483483.0,0.0039598062,-0.0029795915,0.004955605981959289,-0.6450729616072417
8637493093.0,0.003950106,-0.0029808765,0.004948632348385587,-0.6464590212656988
8637502703.0,0.0039191593,-0.0029991999,0.004935079498745334,-0.6532000590230781
8637512312.0,0.003893463,-0.0029797555,0.004902856001571864,-0.6532357111913341
8637521922.0,0.0038656875,-0.0030004085,0.004893464111907689,-0.6600370403463691
8637531532.0,0.0038308049,-0.00295708,0.0048393582537629935,-0.6573837796924014
8637541141.0,0.0038126025,-0.0029721596,0.0048342187073898936,-0.6621538454970555
8637550751.0,0.0037865735,-0.0029378125,0.0047925860614138685,-0.6598408017125577
8637560360.0,0.0037865667,-0.0029584665,0.004805269129317435,-0.6632376385203823
8637569970.0,0.0037345314,-0.0029559813,0.0047628300645242054,-0.6695528959229102
8637579580.0,0.0037263406,-0.0029464318,0.004750481514463518,-0.6690467883482881
8637589189.0,0.0036650322,-0.0029394783,0.004698190471150327,-0.6759796015671811
8637598799.0,0.0036668036,-0.0029255054,0.004690845391440878,-0.6734196169945351
8637608408.0,0.0036481256,-0.0029252642,0.004676108535222103,-0.6758704239425932
8637618018.0,0.0036155012,-0.002941648,0.004661023694759065,-0.6829914717854224
8637627628.0,0.0035963506,-0.0029163228,0.004630191822367643,-0.6813590972740257
8637637237.0,0.0035805014,-0.0029234081,0.00462237008411784,-0.6847093074746822
8637646847.0,0.003550469,-0.0029066799,0.004588531155067492,-0.686024808266066
8637656456.0,0.0035175266,-0.0029138423,0.004567654795513432,-0.691806790729564
8637666066.0,0.0035048382,-0.0028673961,0.004528338680186637,-0.6856955347207573
8637675676.0,0.0034967724,-0.0029064352,0.004546953132505415,-0.6934640662707521
8637685285.0,0.0034866797,-0.0028512637,0.0045040692731495345,-0.6854761853161598
8637694895.0,0.0034337313,-0.0028680741,0.004473964649356374,-0.695876940822505
8637704505.0,0.0034381901,-0.0028504155,0.004466096694696417,-0.6922023180165601
8637714114.0,0.0034179029,-0.0028279967,0.00443617240073459,-0.6912305440614644
8637723724.0,0.0033826017,-0.0028391145,0.00441617089852206,-0.6982660762225769
8637733333.0,0.0033612943,-0.0028426412,0.0044021481532485855,-0.7019914547378229
8637742943.0,0.0033494497,-0.0028252337,0.004381867039567241,-0.7007036232892137
8637752553.0,0.0033181411,-0.0028235308,0.004356878072434189,-0.7050380983954023
8637762162.0,0.0032713932,-0.0028265619,0.0043233627702909515,-0.7125795270943869
8637771772.0,0.0032760231,-0.0027883477,0.004302000726153925,-0.7051543522546763
8637781381.0,0.0032479931,-0.0027816214,0.004276315796405309,-0.708205003579471
8637790991.0,0.0032493632,-0.0027769901,0.004274346174681252,-0.7071735414438284
8637800601.0,0.0032312074,-0.0027566306,0.004247318392429642,-0.706306708026483
8637810210.0,0.0032103872,-0.0027391825,0.004220154824438327,-0.7063633444501666
8637819820.0,0.0032040614,-0.0027454329,0.004219408876059817,-0.7084633432694853
8637829429.0,0.0031719977,-0.0027612132,0.0042054569008205915,-0.7162736995278973
8637839039.0,0.0031731533,-0.0027331901,0.004187986388234672,-0.7110455360877748
8637848649.0,0.0031376105,-0.0027068453,0.004143864274785353,-0.7118262663101969
8637858258.0,0.0031286164,-0.0026840986,0.004122211284355876,-0.7090733670024472
8637867868.0,0.0031316458,-0.0026501512,0.004102500066973684,-0.7023122082185221
8637877477.0,0.0030969147,-0.0026823023,0.004097026517812812,-0.7137789000264627
8637887087.0,0.0030895614,-0.0026811174,0.004090694336778626,-0.7147368084524774
8637896697.0,0.0030685923,-0.00263834,0.0040468625698458415,-0.7101493456365178
8637906306.0,0.0030629581,-0.0026263821,0.004034798044209403,-0.708812462618014
8637915916.0,0.0030373803,-0.0026207466,0.00401173177421418,-0.711896252811345
8637925526.0,0.0030353743,-0.0026248085,0.004012868899275522,-0.7129891929962109
8637935135.0,0.0030059009,-0.0025872681,0.003966030312781084,-0.7106903051776932
8637944745.0,0.0030110425,-0.0026023073,0.0039797462507601584,-0.7127115979249018
8637954354.0,0.0029648635,-0.0025826999,0.00393201657512939,-0.7166182771597808
