frequency,Re(S21),Im(S21),Amplitude,phase
7490000000.0,0.006020021,0.005681723,0.00827783963901029,0.7564961639663728
7490003003.0,0.0060226943,0.0056503975,0.008258319353189167,0.7535153812008527
7490006006.0,0.0060667162,0.0056486985,0.00828932085247306,0.749732295085059
7490009009.0,0.0060724786,0.0056341451,0.008283633704800808,0.7479724430137195
7490012012.0,0.0060777038,0.0056154144,0.00827474243491976,0.7458835736709916
7490015015.0,0.0060758776,0.0055868909,0.008254067999397907,0.74349555046673
7490018018.0,0.0060728269,0.0055520226,0.008228255070686273,0.7406271511602186
7490021021.0,0.0060769142,0.0055392854,0.008222686236067554,0.7391484923567955
7490024024.0,0.0060722679,0.005543325,0.008221976009755527,0.7398922864991833
7490027027.0,0.0060839926,0.0054983595,0.008200422132310935,0.7348786498816046
7490030030.0,0.0060875935,0.0054745161,0.008187131436003789,0.7324230742008373
7490033033.0,0.0060808018,0.0054719998,0.008180399277668742,0.732749515185802
7490036036.0,0.0061005522,0.00544855,0.008179451952754832,0.7290032302364475
7490039039.0,0.0060900823,0.0054351349,0.008162707504374471,0.7286318800165181
7490042042.0,0.0060991342,0.005417556,0.008157778558084649,0.726285335180607
7490045045.0,0.0060853881,0.0053928246,0.00813108267661735,0.7251339999160911
7490048048.0,0.0060845241,0.0053736971,0.008117761640133886,0.7234411448667577
7490051051.0,0.0060802147,0.0053596542,0.008105239289599891,0.7224944827097607
7490054054.0,0.0060990777,0.0053295711,0.008099572636910697,0.7181682650849693
7490057057.0,0.006086132,0.0053316349,0.008091188628892668,0.7194131283575363
7490060060.0,0.006100221,0.0052864253,0.008072111786968829,0.7140501716952045
7490063063.0,0.006074279,0.0052699198,0.00804169882974195,0.7146117383011599
7490066066.0,0.0060780676,0.0052437799,0.008027461204503811,0.7118428050923361
7490069069.0,0.0061099867,0.005253641,0.008058081733952435,0.7101818513443612
7490072072.0,0.00609447,0.0052364627,0.008035117061337145,0.7098198301595254
7490075075.0,0.0060945354,0.0052170519,0.008022530290946042,0.7079793485563787
7490078078.0,0.006081085,0.005180041,0.007988267618132608,0.7055545963603692
7490081081.0,0.006106387,0.0051739176,0.008003585791716034,0.702922187303257
7490084084.0,0.0060969762,0.0051500699,0.007980998606581287,0.7014046893773785
7490087087.0,0.0061015203,0.0051358112,0.007975280976452023,0.6996712059842608
7490090090.0,0.0061103445,0.005100349,0.007959263146201491,0.6955485786436562
7490093093.0,0.0060966933,0.0050949954,0.007945353819704069,0.6961322920417368
7490096096.0,0.0060907605,0.0050752108,0.007928122610857938,0.6946972930779695
7490099099.0,0.0060965016,0.0050746515,0.007932176221268336,0.6941797979032933
7490102102.0,0.0060914743,0.0050355248,0.007903326461622064,0.6907817657006723
7490105105.0,0.0060940752,0.0050281981,0.007900666343802822,0.6898572640875453
7490108108.0,0.0061068491,0.0049874207,0.007884666839439653,0.6848370222782548
7490111111.0,0.0060910887,0.0049892411,0.007873619771439112,0.6862822450399069
7490114114.0,0.006103304,0.0049627042,0.007866304894492308,0.6826884851587802
7490117117.0,0.0061057538,0.0049352656,0.007850928353306875,0.6797799616299468
7490120120.0,0.0060971999,0.0049181673,0.007833531528713553,0.6787688762298287
7490123123.0,0.006091248,0.0049216064,0.007831060704274036,0.679587874349374
7490126126.0,0.0061119837,0.0048995583,0.007833391110123673,0.675734931872104
7490129129.0,0.0061011952,0.0048771852,0.007810987027489041,0.6743639572016801
7490132132.0,0.0060951694,0.0048703887,0.007802036663832339,0.6741657702611195
7490135135.0,0.00607611,0.0048191573,0.007755216941791074,0.6705390871163273
7490138138.0,0.0060902527,0.0047998274,0.007754322731202774,0.6674526599355864
7490141141.0,0.0060914775,0.004801774,0.007756489649324767,0.6675520252320579
7490144144.0,0.0061017519,0.0047808712,0.007751651803334761,0.6646137673789719
7490147147.0,0.006088136,0.0047610759,0.00772872846463484,0.6636842102046779
7490150150.0,0.0060915779,0.0047441674,0.00772103915486712,0.6616845312158711
7490153153.0,0.0061007336,0.004718226,0.007712367149276865,0.6583013387254093
7490156156.0,0.006102601,0.0047181456,0.007713795231142732,0.6581449920986869
7490159159.0,0.0060871078,0.0047024524,0.007691939933663458,0.6577629152757516
7490162162.0,0.0060938189,0.0046558083,0.007668844744310977,0.6524146032543068
7490165165.0,0.0060852548,0.0046593928,0.007664219937189622,0.6534646307252833
7490168168.0,0.0060893723,0.0046320844,0.007650925492823117,0.6503034938667287
7490171171.0,0.0060902425,0.0046126661,0.007639878419117379,0.6482115912265507
7490174174.0,0.0060975692,0.0046044606,0.007640772707373319,0.6467765634768959
7490177177.0,0.0060941335,0.0045533328,0.007607319022058828,0.6416852433679606
7490180180.0,0.0060695984,0.0045563623,0.00758949683089359,0.6439399784813729
7490183183.0,0.0060873744,0.0045448607,0.0075968339371201106,0.641324400286157
7490186186.0,0.006093606,0.0045176757,0.0075856066213327,0.6379612413776243
7490189189.0,0.0060820351,0.0044740797,0.007550399997323592,0.6342355995483112
7490192192.0,0.0060578183,0.0045044438,0.007548985130676396,0.6393765771190623
7490195195.0,0.0060577838,0.0044640469,0.007524922543982898,0.6350713195290064
7490198198.0,0.006064186,0.0044408529,0.00751635059866385,0.632081850969932
7490201201.0,0.0060597466,0.0044284098,0.007505420855151801,0.6310937420333581
7490204204.0,0.0060569064,0.0043934919,0.007482572165621029,0.6275499921558123
7490207207.0,0.0060547137,0.0043924364,0.007480177505715532,0.6276078890459617
7490210210.0,0.0060638333,0.0043662476,0.007472228074322588,0.6240542908821235
7490213213.0,0.0060731637,0.004341532,0.00746540135786561,0.6206373024578538
7490216216.0,0.0060708625,0.0043404388,0.007462893572231329,0.6206974593522468
7490219219.0,0.006059503,0.0043201649,0.007441868137114565,0.6193690888810971
7490222222.0,0.0060493035,0.0043003197,0.007422049740962421,0.617989709010281
7490225225.0,0.0060539276,0.0042833404,0.007415999215770854,0.6157623492157832
7490228228.0,0.006047118,0.0042735399,0.00740478084637324,0.6152130581944882
7490231231.0,0.0060379252,0.0042763759,0.0073989142148626,0.616243139888747
7490234234.0,0.0060525097,0.0042286589,0.0073833887721792965,0.6098274540880195
7490237237.0,0.0060400623,0.0041903095,0.007351261544365806,0.606520825131853
7490240240.0,0.0060321668,0.0041891344,0.007344105345396782,0.6070021673013146
7490243243.0,0.0060294033,0.0041853529,0.007339678674955007,0.6067937579715349
7490246246.0,0.0060345334,0.0041556723,0.007327018876780846,0.6030668030100828
7490249249.0,0.0060353259,0.0041389309,0.007318190193906252,0.6011212795788433
7490252252.0,0.0060316591,0.004126844,0.007308334481874021,0.6000411061477103
7490255255.0,0.0060229761,0.0040860025,0.007278163060221821,0.596083515980735
7490258258.0,0.0060247415,0.004077124,0.007274644338605032,0.5949372843347256
7490261261.0,0.0060044772,0.0040602006,0.007248377429298243,0.5945705238811626
7490264264.0,0.0060084074,0.0040462612,0.007243838014685322,0.592672528735467
7490267267.0,0.0060008478,0.0040299464,0.007228460576473929,0.5913846075652507
7490270270.0,0.0060003541,0.0040207591,0.007222932442271603,0.5903667696213156
7490273273.0,0.0060160492,0.0039845909,0.007215941561375304,0.5849920922775959
7490276276.0,0.0060038932,0.003979808,0.007203166336679324,0.5853703805284459
7490279279.0,0.0059971363,0.003948894,0.00718048797951878,0.5823018086671939
7490282282.0,0.0059826666,0.0039418971,0.0071645552823426505,0.5825968411843444
7490285285.0,0.005980733,0.0039104215,0.007145667465321294,0.5790675028772648
7490288288.0,0.0059780114,0.0039095903,0.007142934733874029,0.5791786177429442
7490291291.0,0.0059790322,0.0038762661,0.007125606284846648,0.5751862225094954
7490294294.0,0.0059868348,0.0038779855,0.007133089264876846,0.5747934317415079
7490297297.0,0.0059721064,0.0038210957,0.00708991023931047,0.5691881679303592
7490300300.0,0.0059843128,0.0038351235,0.007107754353415436,0.5699250449600266
7490303303.0,0.0059842235,0.0038309295,0.007105417069526778,0.5694348669847932
7490306306.0,0.0059759484,0.0037973648,0.007080391140589735,0.5660725020704639
7490309309.0,0.0059740594,0.003760787,0.007059242492937706,0.5618427070210394
7490312312.0,0.0059479125,0.0037534267,0.007033198070574235,0.5629376335568927
7490315315.0,0.0059389936,0.0037486826,0.007023123679416711,0.5630441006809619
7490318318.0,0.0059396529,0.0037299027,0.007013675977969448,0.5607296438710799
7490321321.0,0.0059449241,0.0037103055,0.00700774496240346,0.5579613497232585
7490324324.0,0.0059367541,0.003671199,0.006980168432170373,0.5538282297938051
7490327327.0,0.0059412587,0.0036609087,0.006978596381082759,0.5522346050171958
7490330330.0,0.0059246777,0.0036566105,0.006962227100403113,0.5529583607797397
7490333333.0,0.0059342815,0.003618683,0.006950580089153081,0.5475890970411025
7490336336.0,0.0059130683,0.0036204746,0.006933412799603819,0.5494026164924535
7490339339.0,0.005916417,0.0036026925,0.006927003924312823,0.5469608884483057
7490342342.0,0.0059080396,0.0035753707,0.006905664888885548,0.544212595965869
7490345345.0,0.0058919143,0.0035397938,0.006873484870505131,0.5409990088584942
7490348348.0,0.0059002679,0.003529623,0.0068754199736379305,0.5391052474483696
7490351351.0,0.0059070354,0.0034993191,0.006865733855931059,0.5348114370931107
7490354354.0,0.005873554,0.003502904,0.0068387844697820385,0.5377577371459319
7490357357.0,0.005885913,0.0035076247,0.006851817487325469,0.5374255618453845
7490360360.0,0.0058817784,0.0034836374,0.006836011021157391,0.5347208836884776
7490363363.0,0.0058647641,0.0034566608,0.0068076399607283474,0.5325849791498516
7490366366.0,0.0058820279,0.0034431546,0.006815685278523324,0.529591664879566
7490369369.0,0.0058731829,0.0034130783,0.006792891936339286,0.5264283640467383
7490372372.0,0.0058562478,0.0034029461,0.006773158823954304,0.526391253285936
7490375375.0,0.0058413648,0.0033897604,0.006753667025852489,0.5258103491421209
7490378378.0,0.0058507228,0.0033686465,0.0067512025983821645,0.5224096605620678
7490381381.0,0.0058509748,0.0033499851,0.006742129209712393,0.5199923104811154
7490384384.0,0.0058364013,0.0033037671,0.00670659803370413,0.5150914666550626
7490387387.0,0.0058372684,0.0033180571,0.006714402824711888,0.5168799651863513
7490390390.0,0.0058210259,0.0032805223,0.006681778886589117,0.5131975703490483
7490393393.0,0.0058353631,0.0032562769,0.006682424841202124,0.5089833459854571
7490396396.0,0.0058090755,0.0032619386,0.00666225199124667,0.5116481691008546
7490399399.0,0.0058014329,0.0032474757,0.006648512774695774,0.5103142115981855
7490402402.0,0.0057961969,0.0032191084,0.006630124990867078,0.5069665277366503
7490405405.0,0.0057781917,0.003208497,0.006609232354892502,0.5068856270003804
7490408408.0,0.0057941121,0.0032138718,0.006625760860022164,0.5064283676705484
7490411411.0,0.0057684955,0.0031593919,0.006577028015092064,0.5010739162028379
7490414414.0,0.005779994,0.0031561808,0.006585575744179444,0.49980753325405125
7490417417.0,0.0057409506,0.0031480458,0.006547419808637446,0.5015749362606058
7490420420.0,0.0057613199,0.0031262604,0.006554869264809495,0.4971666391411596
7490423423.0,0.0057433028,0.0031100126,0.0065312866592002064,0.49629578828387705
7490426426.0,0.0057385059,0.0030854923,0.006515421145075282,0.4933369823964299
7490429429.0,0.0057431634,0.0030688465,0.006511662205586359,0.49074677236656594
7490432432.0,0.0057340233,0.0030609595,0.006499884327092533,0.49033928871646426
7490435435.0,0.0057365218,0.0030358338,0.006490298084302267,0.4867428630822743
7490438438.0,0.0057135786,0.0030120596,0.006458907295536151,0.4851510422140899
7490441441.0,0.0057178234,0.002976,0.006445935186890073,0.4798953006298831
7490444444.0,0.0056974785,0.0029746366,0.006427264127140086,0.4811685592001311
7490447447.0,0.0057146317,0.0029602653,0.006435851622981141,0.47795557236149827
7490450450.0,0.0056746996,0.0029368225,0.006389612034133717,0.4775723923013913
7490453453.0,0.0056765823,0.0029368405,0.006391292414771331,0.4774395006996112
7490456456.0,0.0056753336,0.0029134493,0.006379466928745649,0.4742728234194031
7490459459.0,0.0056630306,0.0029049555,0.006364643119100757,0.473968388457383
7490462462.0,0.0056730762,0.002876695,0.006360752132730172,0.4692943648236631
7490465465.0,0.0056631355,0.0028666155,0.006347329211266775,0.4685863457473075
7490468468.0,0.0056396584,0.0028533346,0.0063203848939955955,0.4683891324363392
7490471471.0,0.0056458297,0.002828778,0.0063148537571891625,0.46447805758905875
7490474474.0,0.0056254124,0.0028267207,0.006295682217669682,0.4656386494816964
7490477477.0,0.0056386981,0.0027959636,0.006293832593536991,0.46032425704542
7490480480.0,0.0056122906,0.0027769108,0.006261712175595825,0.45947172116413604
7490483483.0,0.0056005425,0.0027721639,0.006249077450533755,0.45962460782675457
7490486486.0,0.0056048461,0.0027470938,0.00624186063210992,0.45571912308054807
7490489489.0,0.005603908,0.0027055906,0.006222861509568758,0.44979661761484896
7490492492.0,0.0055995406,0.0027222014,0.00622617341496447,0.4525041401916441
7490495495.0,0.0055874219,0.0026764155,0.00619535982952079,0.44671279689816795
7490498498.0,0.0055726581,0.0026703395,0.006179419984493355,0.44685815597536427
7490501502.0,0.0055564728,0.0026543801,0.006157931770685337,0.44565676030182544
7490504505.0,0.005567555,0.002611022,0.00614939871552569,0.4385177567790091
7490507508.0,0.0055496514,0.0026309072,0.0061416857096837675,0.4426869066563729
7490510511.0,0.0055301594,0.0026164628,0.006117886936940908,0.44191829970154967
7490513514.0,0.0055271861,0.0025921798,0.006104849080817744,0.43853105155501465
7490516517.0,0.0055131953,0.0025842671,0.006088822452665581,0.4383301361205638
7490519520.0,0.0055328873,0.0025642984,0.006098234839586276,0.4339946500049026
7490522523.0,0.0055129694,0.0025544944,0.006076040918638363,0.4339091244779307
7490525526.0,0.0055038226,0.0025195948,0.006053133169562504,0.4293131544207746
7490528529.0,0.0054769596,0.0025003166,0.0060206868013763775,0.4282589368584503
7490531532.0,0.0054927412,0.0025011017,0.006035372035253529,0.42729135673482105
7490534535.0,0.0054680813,0.0024732771,0.006001417558943395,0.4247746664312993
7490537538.0,0.0054703065,0.002469689,0.006001967757382844,0.42407718333126165
7490540541.0,0.0054464575,0.002441731,0.0059687477393224825,0.4214521633302168
7490543544.0,0.005450309,0.0024360573,0.005969945005137342,0.4203210266549657
7490546547.0,0.0054539097,0.002395327,0.005956737567887567,0.4138318029534677
7490549550.0,0.0054284637,0.0023905044,0.005931503133998755,0.41481247406752303
7490552553.0,0.0054051533,0.0023846133,0.005907796779429517,0.4154900585399086
7490555556.0,0.0054006519,0.0023628027,0.005894902674692849,0.41241316039161713
7490558559.0,0.0053813743,0.0023313452,0.005864670476528373,0.4088165120427249
7490561562.0,0.0053812542,0.0023237137,0.0058615306980843605,0.4076299854830163
7490564565.0,0.0053855978,0.0023136454,0.005861537230139035,0.4057592657988567
7490567568.0,0.0053791382,0.002322385,0.0058590613465745725,0.40756496233856415
7490570571.0,0.0053745297,0.0022950704,0.00584404976340365,0.40358645515504254
7490573574.0,0.0053641321,0.0022617325,0.005821455753315202,0.39902123337543427
7490576577.0,0.0053445589,0.0022471433,0.005797754983293456,0.39801419114051095
7490579580.0,0.0053423339,0.0022352993,0.00579112203805702,0.3962777738269658
7490582583.0,0.0053214566,0.0022202971,0.005766074883137746,0.395275147158142
7490585586.0,0.0053115085,0.0022030008,0.005750246522573871,0.3931653304927983
7490588589.0,0.0052941458,0.0022000593,0.005733082999152736,0.3938516679877949
7490591592.0,0.0053021123,0.0021633059,0.00572645503420625,0.3873909752455975
7490594595.0,0.0052961704,0.0021458424,0.005714373151227869,0.38495418387963715
7490597598.0,0.0052881501,0.0021453603,0.005706759351588789,0.38540364012790707
7490600601.0,0.0052549032,0.0021301635,0.0056702384586631354,0.38512438342071575
7490603604.0,0.0052546813,0.0020827965,0.005652408055420445,0.377372903956267
7490606607.0,0.0052357189,0.0020792609,0.0056334783473521955,0.37802976906416635
7490609610.0,0.005220962,0.0020740214,0.0056178295607024215,0.37813248974477365
7490612613.0,0.0052156563,0.0020541462,0.005605585362003162,0.3751867908016933
7490615616.0,0.0052061548,0.0020489269,0.005594832369526959,0.3749411263471842
7490618619.0,0.0051827341,0.0020385998,0.0055692568531055245,0.37475571705381966
7490621622.0,0.0051935522,0.0020272071,0.005575172919328623,0.37214379026964306
7490624625.0,0.0051764936,0.0019774567,0.00554133747313912,0.36489958232221065
7490627628.0,0.0051588839,0.0019498191,0.005515059167080986,0.3613576707125546
7490630631.0,0.0051554075,0.0019625542,0.005516325360146361,0.36374000163917447
7490633634.0,0.0051454581,0.0019571118,0.0055050908854036955,0.36345906153895213
7490636637.0,0.0051358017,0.0019247368,0.005484621304246733,0.3585677130954946
7490639640.0,0.0051172291,0.0019220277,0.005466280649715499,0.35929598591638945
7490642643.0,0.0051121575,0.0019130348,0.005458374891010811,0.3580803485591733
7490645646.0,0.0051082452,0.0019025152,0.005451030463091733,0.3565244614203565
7490648649.0,0.0051006477,0.0018784882,0.005435561137275021,0.3528699272390679
7490651652.0,0.005064676,0.0018506494,0.0053922023503107114,0.3503307093190839
7490654655.0,0.0050639117,0.0018213794,0.00538150765345003,0.34527080374471697
7490657658.0,0.0050589584,0.0018298274,0.005379714528366846,0.3470600972807657
7490660661.0,0.0050426754,0.0018339836,0.005365824357434198,0.3488206490251366
7490663664.0,0.0050584224,0.0017959344,0.005367775847213175,0.3411563372142954
7490666667.0,0.0050345268,0.001787121,0.005342308636587674,0.3410982066659007
7490669670.0,0.005012759,0.0017757377,0.00531798807551148,0.3404502791213132
7490672673.0,0.0050147995,0.0017551882,0.005313087580928766,0.33667630718710956
7490675676.0,0.004989414,0.0017467822,0.005286350358955869,0.3367618250042906
7490678679.0,0.0049874364,0.0017444648,0.005283718319752104,0.33647154318605904
7490681682.0,0.0049585958,0.0017150663,0.005246820439196803,0.33299742784658654
7490684685.0,0.0049643572,0.001693578,0.005245288252448653,0.3287667326594441
7490687688.0,0.004959701,0.0016921454,0.005240418882507597,0.3287948799825909
7490690691.0,0.004931868,0.0016615794,0.005204245197137464,0.32496313438858515
7490693694.0,0.0049339044,0.0016690104,0.005208551463089092,0.3261903301644218
7490696697.0,0.0049030422,0.0016375371,0.005169269829372157,0.3223359398356884
7490699700.0,0.0048945469,0.0016301304,0.005158867557643225,0.32149581869607124
7490702703.0,0.0048912719,0.0016408998,0.005159175607921255,0.3236768804258629
7490705706.0,0.0048482851,0.0016055872,0.0051072280806407945,0.3197986908506404
7490708709.0,0.0048565877,0.0015746481,0.005105483397938426,0.31353468242444843
7490711712.0,0.0048508052,0.0015636679,0.0050966036131758815,0.31183522583239937
7490714715.0,0.0048552143,0.0015592745,0.005099455153766403,0.310749961958922
7490717718.0,0.0048423679,0.0015507445,0.00508461752575655,0.3099252445116483
7490720721.0,0.0048220881,0.0015381947,0.005061479682787405,0.30878589411383245
7490723724.0,0.0048091216,0.0015149548,0.0050420966481841255,0.30517624097533447
7490726727.0,0.0047790262,0.0015001144,0.005008935479058779,0.304155628260029
7490729730.0,0.0047735816,0.0014890695,0.005000440907328953,0.30237431430994477
7490732733.0,0.0047619959,0.001460253,0.004980857734931385,0.2975439871639348
7490735736.0,0.0047581117,0.0014551985,0.00497566373703842,0.29680164197102726
7490738739.0,0.0047389765,0.0014541365,0.004957056710204606,0.29772573395840685
7490741742.0,0.0047364389,0.0014368844,0.004949594956397601,0.29454390938727326
7490744745.0,0.0046992134,0.0014327678,0.004912782322417349,0.2959417680763841
7490747748.0,0.0046999199,0.0014146974,0.004908219208631861,0.29237816946245093
7490750751.0,0.0047066925,0.0013747638,0.0049033590318624115,0.28418146571947783
7490753754.0,0.0046838186,0.0013757706,0.004881690426638126,0.2856931590787641
7490756757.0,0.0046754176,0.0013826539,0.004875578072554574,0.2875333290940393
