frequency,Re(S21),Im(S21),Amplitude,phase
7989000000.0,0.0150730322,0.0015913681,0.015156805472524031,0.10518750055995828
7989005005.0,0.0150653216,0.0014647037,0.015136355963052014,0.09691892026629358
7989010010.0,0.0150746934,0.0014122929,0.015140705146702843,0.09341367862687663
7989015015.0,0.0150788843,0.0013387834,0.015138199784812659,0.08855311290501663
7989020020.0,0.0150629786,0.0013115373,0.015119968729906463,0.08685121151301693
7989025025.0,0.0150681122,0.0012359641,0.015118717291102366,0.0818419263924845
7989030030.0,0.015085264,0.0011810928,0.01513142987796949,0.0781350768402384
7989035035.0,0.0151077037,0.0011307762,0.01514996257095971,0.07470835350788128
7989040040.0,0.0150665602,0.0011035607,0.015106921674477847,0.07311513075138305
7989045045.0,0.0150768163,0.0010880004,0.015116022446872254,0.07203892577904782
7989050050.0,0.0150734252,0.0010287956,0.015108493228862182,0.06814659123257265
7989055055.0,0.0150901198,0.0009891726,0.015122505678985303,0.06545736224902432
7989060060.0,0.0150495721,0.000970701,0.015080844831258607,0.06441101542137426
7989065065.0,0.0150906036,0.0009040281,0.015117658013658154,0.05983517853614867
7989070070.0,0.0150645339,0.0008660996,0.015089410529950113,0.057429405033825966
7989075075.0,0.0150861774,0.0008398575,0.015109537026811146,0.05561325791392114
7989080080.0,0.0150767382,0.000769705,0.01509637309218225,0.05100820383249423
7989085085.0,0.0150682388,0.0007357552,0.015086190912491877,0.04878946484401213
7989090090.0,0.0150858577,0.0007187714,0.015102971061023299,0.047609374545419345
7989095095.0,0.0150830759,0.0006869063,0.015098709178937797,0.04551008072895439
7989100100.0,0.0150828831,0.0006362169,0.015096295391655239,0.042156394396129976
7989105105.0,0.0150571954,0.0006006725,0.015069171867293752,0.03987157935962933
7989110110.0,0.0150394767,0.0005769093,0.015050537656518101,0.03834086743737274
7989115115.0,0.0150716661,0.0005317884,0.015081044988072405,0.03526935085892213
7989120120.0,0.0150365525,0.0004887684,0.015044494196685203,0.03249390877214077
7989125125.0,0.0150620482,0.0004545723,0.015068906130009921,0.03017082115739295
7989130130.0,0.0150736925,0.0004196555,0.01507953302735985,0.027833069315788585
7989135135.0,0.0150593874,0.0003761834,0.015064085196709237,0.024974799647256088
7989140140.0,0.0150470937,0.0003669805,0.015051568141026367,0.02438396222123438
7989145145.0,0.0150675044,0.0003271962,0.015071056572029508,0.021711942160433432
7989150150.0,0.0150534256,0.0002888151,0.015056195949067725,0.019183651456939017
7989155155.0,0.0150333615,0.0002642258,0.015035683332095947,0.017574153147194498
7989160160.0,0.0150529263,0.0001957571,0.01505419911637388,0.013003854651504939
7989165165.0,0.0150457325,0.0001694181,0.01504668631141634,0.01125973363145599
7989170170.0,0.0150527548,0.0001580577,0.015053584599870303,0.01049986488096708
7989175175.0,0.0150542333,0.0001185493,0.01505470006965796,0.007874652080095895
7989180180.0,0.0150401179,8.15008e-05,0.015040338720464412,0.005418840651050857
7989185185.0,0.0150192873,2.99372e-05,0.015019317136137885,0.0019932477323869537
7989190190.0,0.0150057385,-3.5143e-06,0.015005738911519377,-0.00023419706639222804
7989195195.0,0.0150163856,-3.09792e-05,0.015016417555419801,-0.0020630234781763273
7989200200.0,0.015008013,-6.17763e-05,0.015008140141916676,-0.004116197867493029
7989205205.0,0.0150202923,-0.000102562,0.015020642454345397,-0.006828123183055695
7989210210.0,0.0150199851,-0.0001398405,0.015020636064084046,-0.009310026524410075
7989215215.0,0.0150004583,-0.0001450508,0.015001159586665943,-0.009669456519189292
7989220220.0,0.0149944573,-0.0002203985,0.014996076994345072,-0.014697606270638243
7989225225.0,0.0150141879,-0.0002392241,0.01501609358210474,-0.015931854654984
7989230230.0,0.0149891277,-0.0002825737,0.014991790990500067,-0.01884967809606383
7989235235.0,0.0149930993,-0.0002702007,0.014995533836377448,-0.018019720159890604
7989240240.0,0.0149753,-0.0003096596,0.014978501232028263,-0.02067507672650882
7989245245.0,0.0149800786,-0.0003772133,0.014984827150683949,-0.025175675793422298
7989250250.0,0.0149652622,-0.0004019993,0.014970660511545551,-0.026855703928623794
7989255255.0,0.0149657406,-0.0004272286,0.014971837428423618,-0.028539356205955248
7989260260.0,0.0149757688,-0.0004632998,0.014982933553070758,-0.03092676488162366
7989265265.0,0.014951814,-0.0005255799,0.014961048630422937,-0.035137113504297865
7989270270.0,0.0149758911,-0.0005241661,0.014985061372561956,-0.03498637984916036
7989275275.0,0.01493697,-0.0005880224,0.01494853983249875,-0.03934659564939822
7989280280.0,0.0149239845,-0.0006275833,0.014937174235934958,-0.04202723199144623
7989285285.0,0.0149265395,-0.0006240021,0.014939576970780152,-0.041780545906267154
7989290290.0,0.0149443135,-0.0006689966,0.014959280144348318,-0.04473609635713752
7989295295.0,0.0149027332,-0.000701896,0.014919253159096075,-0.04706369515204939
7989300300.0,0.0149347593,-0.0007360108,0.014952884245076369,-0.049241893014212224
7989305305.0,0.0149095447,-0.0008058538,0.014931306825200281,-0.05399698391346748
7989310310.0,0.0149162149,-0.0008115328,0.014938274747388262,-0.05435249534110932
7989315315.0,0.0149201906,-0.0008347214,0.01494352191941198,-0.05588750047028859
7989320320.0,0.0148914204,-0.0008534616,0.014915857274465009,-0.05724967526949765
7989325325.0,0.0149030173,-0.0008972353,0.014930001869647082,-0.060132359995094004
7989330330.0,0.0148642763,-0.0009430408,0.014894161133585413,-0.06335852210581576
7989335335.0,0.0148802537,-0.0009699608,0.014911833359111157,-0.06509233783391015
7989340340.0,0.0148782894,-0.0010259341,0.01491361915323357,-0.06884613250877389
7989345345.0,0.0148689514,-0.001022498,0.014904067159522798,-0.06865923167444103
7989350350.0,0.0148683004,-0.0010772596,0.014907274902893295,-0.07232706232371573
7989355355.0,0.0148489703,-0.0011230316,0.0148913773353871,-0.07548656052081128
7989360360.0,0.0148547739,-0.0011623096,0.014900176885741101,-0.07808575862516012
7989365365.0,0.0148282654,-0.0011874749,0.014875737003959406,-0.07991131296388758
7989370370.0,0.01480692,-0.001208618,0.014856164961265204,-0.08144465356727548
7989375375.0,0.0148185887,-0.0012406612,0.014870434131959737,-0.08352850014336496
7989380380.0,0.0148033969,-0.0012859701,0.01485914798624146,-0.08665239932601805
7989385385.0,0.014808704,-0.0012973921,0.01486542769047559,-0.08738697949015103
7989390390.0,0.0148137432,-0.0013521367,0.014875323904071236,-0.09102360778965862
7989395395.0,0.0147848394,-0.0013700213,0.014848179499394733,-0.09240006371396751
7989400400.0,0.0147790805,-0.0014054511,0.014845757414829715,-0.09481220486581857
7989405405.0,0.014780963,-0.0014372127,0.01485067161957365,-0.09692933171234495
7989410410.0,0.0147627723,-0.0014702212,0.01483580117009448,-0.09926247454555373
7989415415.0,0.014768661,-0.0015250775,0.01484719532820685,-0.10289971522061249
7989420420.0,0.0147465631,-0.0015193387,0.014824625234642504,-0.10266776415471422
7989425425.0,0.0147383783,-0.0015727326,0.014822053931389322,-0.10630772541744006
7989430430.0,0.0147281762,-0.001591909,0.014813957892559551,-0.10766797426538069
7989435435.0,0.0147319793,-0.0016336896,0.014822285782050507,-0.11044285239652511
7989440440.0,0.0147150906,-0.001653112,0.014807655812138273,-0.11187221575243479
7989445445.0,0.0147365973,-0.0016959663,0.014833866713473698,-0.11458125134364172
7989450450.0,0.0147049904,-0.0017463997,0.01480833058032715,-0.11820869954409229
7989455455.0,0.0146995339,-0.001767306,0.014805393185420143,-0.11965438335012575
7989460460.0,0.0146860673,-0.001819232,0.014798316722180035,-0.12324684169604501
7989465465.0,0.014674137,-0.0018507834,0.014790392012671082,-0.125463061028562
7989470470.0,0.0146679184,-0.00188093,0.014788026503017858,-0.12753824150792592
7989475475.0,0.014680305,-0.0019027395,0.014803100097543258,-0.12889315255302922
7989480480.0,0.0146424017,-0.0019156792,0.014767185051372369,-0.13009204902806856
7989485485.0,0.0146435255,-0.0019715735,0.014775653661853764,-0.1338330905773115
7989490490.0,0.0146268168,-0.0020152283,0.01476498949548841,-0.13691429870390326
7989495495.0,0.0146194552,-0.0020359059,0.014760534650833683,-0.13837013121362213
7989500501.0,0.0146053644,-0.0020612166,0.014750094343050926,-0.14020146380355028
7989505506.0,0.0146030572,-0.0020925925,0.014752227728635702,-0.14232931010448716
7989510511.0,0.0145883739,-0.0021182216,0.014741353933506507,-0.14419160692146427
7989515516.0,0.0145813305,-0.0021508204,0.014739105384767638,-0.14644904475748594
7989520521.0,0.0145884004,-0.0021909681,0.014752008929157335,-0.14907148757660224
7989525526.0,0.0145576105,-0.0022151417,0.014725178308624624,-0.15100548341598938
7989530531.0,0.0145497176,-0.0022652618,0.014725002317904367,-0.15445113288575488
7989535536.0,0.0145687979,-0.0022985664,0.014749009449663165,-0.15648333006315301
7989540541.0,0.0145335669,-0.0023241231,0.0147182239084996,-0.15857156085862986
7989545546.0,0.014549962,-0.0023471014,0.014738055474971111,-0.15993545191775313
7989550551.0,0.0145190442,-0.0024016801,0.014716341657636575,-0.16393142449038495
7989555556.0,0.0144967918,-0.0024403743,0.014700761858374815,-0.1667752938495314
7989560561.0,0.0145032206,-0.0024672393,0.014711583107732792,-0.1685035282878785
7989565566.0,0.0145020639,-0.00248354,0.014713185524939295,-0.16960891915295753
7989570571.0,0.0145039938,-0.0025242784,0.014722018122225804,-0.17231426334837274
7989575576.0,0.0144537117,-0.0025335215,0.01467407622638233,-0.17352236181538738
7989580581.0,0.0144689481,-0.0025854675,0.01469813257914249,-0.17682450871432387
7989585586.0,0.0144616467,-0.0026063693,0.01469463800859359,-0.17831214252325606
7989590591.0,0.0144419446,-0.0026387511,0.0146810344048783,-0.1807208924126282
7989595596.0,0.014406983,-0.0026816581,0.014654434459493297,-0.18402994377367285
7989600601.0,0.0144317959,-0.0027214252,0.014686146125463,-0.1863828447823211
7989605606.0,0.0143943152,-0.002750461,0.014654737997981133,-0.1888037919017277
7989610611.0,0.0143862725,-0.0027833785,0.014653055391914633,-0.19111334808253358
7989615616.0,0.0143795701,-0.0028038471,0.01465037865793893,-0.19257195052221585
7989620621.0,0.0143659633,-0.0028529208,0.014646503290137874,-0.19603836217033252
7989625626.0,0.0143333505,-0.0028823837,0.01462029658898464,-0.19844946838478472
7989630631.0,0.0143427606,-0.0029048319,0.014633961527767182,-0.1998265684430968
7989635636.0,0.0143256376,-0.002920394,0.014620280221725223,-0.20110228541058353
7989640641.0,0.0143075895,-0.0029820348,0.014615048711821706,-0.20548159728864895
7989645646.0,0.0143094878,-0.0030013423,0.014620858275084882,-0.20674787064557457
7989650651.0,0.0143133193,-0.0030279611,0.014630094251468979,-0.2084748183006578
7989655656.0,0.014307797,-0.0030737682,0.01463424429003904,-0.21161528019270812
7989660661.0,0.0142753348,-0.0030880942,0.014605530097882947,-0.21304109475439062
7989665666.0,0.0142409814,-0.0031532085,0.014585893016185817,-0.21790236406714983
7989670671.0,0.0142417366,-0.0031544898,0.014586907392661531,-0.21797693371109053
7989675676.0,0.0142550101,-0.0031813321,0.01460569022270404,-0.21957471373376125
7989680681.0,0.0141869004,-0.0032286972,0.014549660771605914,-0.2237716044466722
7989685686.0,0.0142161005,-0.0032722709,0.014587846663201773,-0.2262399313518524
7989690691.0,0.0142244232,-0.0033021882,0.014602693665242639,-0.2281086290222036
7989695696.0,0.0141764414,-0.0033236093,0.01456083340838293,-0.23028684365542493
7989700701.0,0.0141675575,-0.0033600002,0.014560538687143628,-0.23285941792330406
7989705706.0,0.0141433203,-0.0033948334,0.014545047367476931,-0.2355741641448492
7989710711.0,0.0141296583,-0.0034203142,0.014537736856246935,-0.2374978321344466
7989715716.0,0.0141393309,-0.0034313889,0.01454974598000728,-0.23808121990817918
7989720721.0,0.0141079971,-0.0034848126,0.014532016413104107,-0.24216232028096574
7989725726.0,0.0141125152,-0.0035175112,0.01454427620448527,-0.24427044047447394
7989730731.0,0.0140860973,-0.0035238757,0.01452018722655179,-0.24513576639248125
7989735736.0,0.0140689774,-0.0035804708,0.01451743421653301,-0.24920384836750142
7989740741.0,0.0140405748,-0.003602841,0.014495454597413497,-0.2511826884421263
7989745746.0,0.0140319287,-0.0036482361,0.014498436111637245,-0.25436369540580633
7989750751.0,0.0140247223,-0.0036685156,0.014496580365712483,-0.2558426876802264
7989755756.0,0.0140406247,-0.0036975401,0.014519330038171806,-0.2574994790988928
7989760761.0,0.0140269613,-0.0037221804,0.014512417794490407,-0.2593811425700638
7989765766.0,0.013998819,-0.0037464161,0.014491465315457239,-0.261495698758759
7989770771.0,0.0139775805,-0.003795501,0.014483735170009884,-0.26514855787641683
7989775776.0,0.0139814125,-0.0038239488,0.014494912208087971,-0.26697330023216015
7989780781.0,0.0139353545,-0.0038577588,0.014459474679242247,-0.2700690571482836
7989785786.0,0.0139215744,-0.0038992007,0.014457316482446383,-0.27308595885918296
7989790791.0,0.0139083774,-0.0039326344,0.014453669956965742,-0.27555966125325604
7989795796.0,0.0138575592,-0.0039431109,0.014407639312226116,-0.2772190699184744
7989800801.0,0.0138990538,-0.0039757711,0.01445650207951044,-0.27860646810672873
7989805806.0,0.0138790839,-0.0040109692,0.01444703581453953,-0.2813290294144497
7989810811.0,0.0138646938,-0.0040329483,0.01443933537799546,-0.2830680441473895
7989815816.0,0.013834382,-0.0040659225,0.014419495521616914,-0.28585095376768865
7989820821.0,0.0138271646,-0.004082969,0.014417389386794483,-0.28712649065624557
7989825826.0,0.0138136446,-0.004142109,0.014421298280771747,-0.29132499695919956
7989830831.0,0.0137828334,-0.0041510794,0.014394372397477422,-0.2925367255335007
7989835836.0,0.0137813189,-0.0042018414,0.014407644560241316,-0.295940630070572
7989840841.0,0.0137253116,-0.0042193056,0.014359203260044962,-0.29824152255335135
7989845846.0,0.0137328161,-0.0042630017,0.014379270549322802,-0.3009928478358369
7989850851.0,0.0137248535,-0.0042939825,0.014380886249003171,-0.3032144543811583
7989855856.0,0.0137348884,-0.0043318839,0.014401818547792282,-0.3055180601616612
7989860861.0,0.013699568,-0.0043421456,0.01437123487381037,-0.30693828798546674
7989865866.0,0.01369291,-0.004373408,0.014374368918410436,-0.3091514617532787
7989870871.0,0.0136661711,-0.0043910001,0.0143542716434055,-0.31088567928841443
7989875876.0,0.0136263819,-0.004443818,0.014332683004300751,-0.3152433952616415
7989880881.0,0.0136328463,-0.0044674917,0.014346183476067514,-0.3166725430119739
7989885886.0,0.013608087,-0.0045065237,0.014334880106168683,-0.3197978904821497
7989890891.0,0.0135936599,-0.0045197933,0.01432536634615649,-0.3209938345619319
7989895896.0,0.0135756241,-0.0045650605,0.01432261662801742,-0.3243902545577095
7989900901.0,0.0135801396,-0.0045990592,0.014337766111936434,-0.32653747193061333
7989905906.0,0.0135322887,-0.0046090408,0.014295666985356519,-0.3282724790721183
7989910911.0,0.0135318537,-0.0046638314,0.014313014633047424,-0.33190589836923695
7989915916.0,0.0135295473,-0.0046793555,0.01431590088112926,-0.3329836073359784
7989920921.0,0.0134940681,-0.0047116871,0.014293000707190355,-0.33593278575651986
7989925926.0,0.0134838098,-0.0047459248,0.014294646862718613,-0.3384306164986436
7989930931.0,0.0134638358,-0.0047527885,0.014278090662798506,-0.33934851807313693
7989935936.0,0.0134411669,-0.0048143288,0.01427735022432962,-0.34394158705639544
7989940941.0,0.0134050135,-0.0048463931,0.014254189314545737,-0.34691456504471146
7989945946.0,0.013415095,-0.0048680171,0.014271032350356348,-0.3480993491881184
7989950951.0,0.0133988233,-0.0048963077,0.014265423054284165,-0.35035265096006085
7989955956.0,0.0133799926,-0.0049253366,0.014257739743709532,-0.35271829376497715
7989960961.0,0.0133350614,-0.0049234431,0.014214927171839734,-0.3536852037995263
7989965966.0,0.0133400639,-0.0049640194,0.014233720295820752,-0.35623774260725116
7989970971.0,0.0133012889,-0.005005817,0.014212054398951342,-0.35994560120700114
7989975976.0,0.0133015236,-0.00504955,0.014227736477875072,-0.36281659921594167
7989980981.0,0.013276591,-0.0050751525,0.014213551332426997,-0.36512317479560613
7989985986.0,0.0132880207,-0.0051029829,0.014234181697636183,-0.36666275640259577
7989990991.0,0.013230263,-0.0051205573,0.014186612214047168,-0.3692787795313573
7989995996.0,0.0132303593,-0.0051440591,0.01419520169745359,-0.37082033877197984
7990001001.0,0.0132070821,-0.0051993502,0.014193669719222736,-0.3750453460937306
7990006006.0,0.013174514,-0.0052128975,0.014168349215123908,-0.3767770811975389
7990011011.0,0.0131782352,-0.0052378201,0.01418099581787129,-0.3783147231931676
7990016016.0,0.0131400364,-0.0052531175,0.014151176631719753,-0.38031629732124245
7990021021.0,0.0131063099,-0.0052990985,0.01413703660982528,-0.38422202587279164
7990026026.0,0.0130974183,-0.00532588,0.014138860063653466,-0.38621382702520923
7990031031.0,0.013083454,-0.0053405185,0.014131450966512894,-0.3875456355815626
7990036036.0,0.0130809829,-0.0053947466,0.01414974927369047,-0.3911598687957372
7990041041.0,0.0130435645,-0.0054173353,0.0141238131047634,-0.39364848347857045
7990046046.0,0.0130335902,-0.0054649986,0.01413296441655246,-0.39703373563287137
7990051051.0,0.0130142897,-0.0054804901,0.014121172335600332,-0.3985739520405039
7990056056.0,0.012997282,-0.0055119478,0.014117751518476617,-0.4010950831420782
7990061061.0,0.0129735439,-0.0055147267,0.014096987334211523,-0.40193400993414746
7990066066.0,0.012934321,-0.0055858675,0.014088952248432004,-0.4076701153414612
7990071071.0,0.0129320639,-0.0055956771,0.014090772829094492,-0.4083727418744136
7990076076.0,0.0129108521,-0.005632651,0.014086051939272246,-0.41137976536803933
7990081081.0,0.0129055672,-0.0056497153,0.014088042721569593,-0.4126399777245444
7990086086.0,0.0128654285,-0.0056748201,0.014061395153254752,-0.4154202476492733
7990091091.0,0.0128594906,-0.0057121381,0.01407107032762469,-0.4180170942110636
7990096096.0,0.0128065884,-0.0057499879,0.014038200286972722,-0.4220109478948676
7990101101.0,0.0128099946,-0.0057242074,0.014030770185925072,-0.4202352876708791
7990106106.0,0.0127885964,-0.0057830672,0.014035386140815962,-0.4246860898160357
7990111111.0,0.0127526913,-0.0058505719,0.014030692318990012,-0.43012435721004566
7990116116.0,0.0127457226,-0.0058582015,0.014027543242163005,-0.4308258689001237
7990121121.0,0.0127210812,-0.0058702049,0.01401018245651988,-0.43233886318319975
7990126126.0,0.0127088031,-0.0058993195,0.014011268564896252,-0.4345927784204786
7990131131.0,0.0126604026,-0.0059346563,0.01398234384476424,-0.43834255517040654
7990136136.0,0.0126555641,-0.0059607947,0.013989080603983841,-0.44018119247153537
7990141141.0,0.01263829,-0.0060141645,0.013996304825101526,-0.4441567414094202
7990146146.0,0.0126165353,-0.0060352867,0.013985765925659666,-0.4461888591707432
7990151151.0,0.0125851478,-0.0060357017,0.013957637341585708,-0.4471860939544839
7990156156.0,0.0125703274,-0.006067779,0.013958190174088893,-0.44971735925424927
7990161161.0,0.0125432595,-0.0061034849,0.013949404532411707,-0.45286605633855664
7990166166.0,0.0125345541,-0.0061304031,0.013953382695759348,-0.45487372556184363
7990171171.0,0.0125024044,-0.0061573765,0.013936405603450684,-0.4576259153981774
7990176176.0,0.0124881539,-0.0061639838,0.013926546022497741,-0.45850363381951154
7990181181.0,0.0124454653,-0.0061852259,0.013897720171579758,-0.46123375340362976
7990186186.0,0.0124404695,-0.0062296396,0.01391307625675639,-0.46425221677586154
7990191191.0,0.0124037117,-0.0062517377,0.013890150762548195,-0.4668596518690568
7990196196.0,0.0123931663,-0.0062718994,0.013889826961599487,-0.46849757338162373
7990201201.0,0.0123474926,-0.0063195286,0.013870725115626533,-0.4730482403673509
7990206206.0,0.0123287367,-0.0063354783,0.013861314292219833,-0.4746890224228901
7990211211.0,0.0123214915,-0.0063769584,0.013873887386738542,-0.47758694198003154
7990216216.0,0.0123195939,-0.0063960981,0.013881010941777289,-0.4788743343539549
7990221221.0,0.0122847391,-0.0064152415,0.013858937125854603,-0.48125911172083574
7990226226.0,0.0122372823,-0.0064334863,0.013825368858087692,-0.4840178097616747
