frequency,Re(S21),Im(S21),Amplitude,phase
8635600000.0,0.0073500427,0.0032875074,0.0080517595963167,0.4205874376887611
8635609610.0,0.0073373667,0.0032093936,0.008008567747730542,0.4123298681088544
8635619219.0,0.0073737917,0.0031792958,0.008029989154344264,0.40707797767847953
8635628829.0,0.0073853749,0.0031362979,0.0080237227601092,0.4015854505554385
8635638438.0,0.0073754991,0.003098486,0.007999912653666714,0.397717468327081
8635648048.0,0.007400422,0.003036552,0.007999180822233488,0.3893724037078472
8635657658.0,0.0074053574,0.0029949453,0.007988054554879232,0.38431910544029174
8635667267.0,0.0074146166,0.0029660477,0.007985861148534381,0.38052975336697464
8635676877.0,0.0074154269,0.0029240509,0.007971112204393714,0.37560022799309023
8635686486.0,0.007443503,0.0028676553,0.007976790321340224,0.3677319055035529
8635696096.0,0.0074420841,0.0028159918,0.007957036230226684,0.36173724454433576
8635705706.0,0.0074157897,0.0027800279,0.007919753278947804,0.3586650654233194
8635715315.0,0.0074467789,0.0027214215,0.007928470909711875,0.35037143857143693
8635724925.0,0.0074658995,0.0027101682,0.007942585663144685,0.348214369593943
8635734535.0,0.0074516387,0.0026533342,0.007909936895590717,0.3420756026898902
8635744144.0,0.0074740562,0.0026228025,0.007920896984228787,0.33749498121337396
8635753754.0,0.0074646983,0.0025705975,0.007894915592774197,0.33164797783059435
8635763363.0,0.0074800644,0.0025200934,0.007893176431125236,0.32496428046990794
8635772973.0,0.0074639824,0.0024702856,0.00786214628540306,0.3196137584148816
8635782583.0,0.0074716346,0.0024484811,0.007862593929039853,0.31667521099587626
8635792192.0,0.0074515265,0.0024206926,0.007834857997685536,0.3141040184919446
8635801802.0,0.0074650268,0.0023757991,0.00783396748067536,0.3081213009778898
8635811411.0,0.0074818744,0.0023208568,0.00783357011990584,0.30078560844058805
8635821021.0,0.0074918504,0.0023127161,0.007840693730479424,0.2994170031910891
8635830631.0,0.0074936311,0.0022538928,0.007825250144038787,0.29216715088522366
8635840240.0,0.0074739703,0.0022252212,0.007798194754827012,0.28937243790819167
8635849850.0,0.0074909317,0.0021949235,0.007805878996302539,0.28503236648526153
8635859459.0,0.007492409,0.0021407368,0.007792236307386683,0.2783056454313024
8635869069.0,0.0074863079,0.0020923441,0.007773204603405678,0.2725352102789653
8635878679.0,0.0075055532,0.0020457574,0.007779360653529633,0.2661017848135648
8635888288.0,0.007505944,0.0020057137,0.007769303879853309,0.2611158521572371
8635897898.0,0.0074967726,0.0019765876,0.007752967042144867,0.2577918126450059
8635907508.0,0.0074959313,0.0019242217,0.007738967321617955,0.25127655636829815
8635917117.0,0.0074999572,0.0018860832,0.007733477085965541,0.24637036148414337
8635926727.0,0.0074888559,0.0018471989,0.007713307103125482,0.24183238266425602
8635936336.0,0.0075143935,0.0018195587,0.007731552466069666,0.23757039394896107
8635945946.0,0.0074983281,0.0017899769,0.007709016902159653,0.2343313160807553
8635955556.0,0.0074975508,0.0016911263,0.007685907634179084,0.22184469632842582
8635965165.0,0.0074778381,0.0016874611,0.007665871614749677,0.22194409761193906
8635974775.0,0.0075288647,0.0016534293,0.007708283344623794,0.21618022074769624
8635984384.0,0.007464147,0.001615504,0.0076369721494598235,0.21314752470261375
8635993994.0,0.0074781434,0.0015999116,0.00764737509468302,0.2107675812851785
8636003604.0,0.0074659933,0.0015545292,0.007626114147408072,0.20528164240058522
8636013213.0,0.0074758006,0.0015211695,0.007628994118407131,0.2007386405399064
8636022823.0,0.0074705344,0.0014622766,0.007612301693738295,0.19329532234197036
8636032432.0,0.0074663192,0.0014256176,0.007601204374157979,0.18866885886943555
8636042042.0,0.0074476795,0.0014030579,0.007578687314137763,0.18620623092472177
8636051652.0,0.0074468527,0.0013519799,0.007568584067413224,0.17959438054575733
8636061261.0,0.0074726902,0.00132689,0.007589580745816994,0.17573358784331933
8636070871.0,0.0074594478,0.0012797243,0.007568424919686747,0.169903530043369
8636080480.0,0.0074680781,0.0012290582,0.007568538469657589,0.16311275635166778
8636090090.0,0.007404973,0.0011919444,0.007500290433271258,0.15959641742553524
8636099700.0,0.0074513039,0.0011586597,0.00754085022464704,0.15426216641013418
8636109309.0,0.0074496091,0.0011150702,0.007532599637159196,0.14857864322349804
8636118919.0,0.0074278209,0.0010928781,0.007507789678989177,0.14608493271644787
8636128529.0,0.0074146606,0.0010538822,0.007489182832904348,0.14118920591308506
8636138138.0,0.0074248163,0.0010051726,0.007492547567051974,0.13456203579161416
8636147748.0,0.0074200638,0.0009868042,0.007485394400110663,0.13221549394214308
8636157357.0,0.0073954008,0.0009552322,0.007456837234951389,0.1284544925559628
8636166967.0,0.0073845154,0.0008884647,0.0074377709843731574,0.11973900628187938
8636176577.0,0.0073922502,0.0008788917,0.007444314181959875,0.11833815124863367
8636186186.0,0.0073838967,0.0008137219,0.007428598374310627,0.10975933700215197
8636195796.0,0.007369248,0.0007830033,0.007410729400896709,0.10585564316416488
8636205405.0,0.0073769838,0.0007501072,0.007415021968743875,0.10133381857491672
8636215015.0,0.0073672968,0.000691545,0.0073996821976565486,0.09359261943043559
8636224625.0,0.0073604473,0.0006609511,0.00739006365416892,0.08955747736421418
8636234234.0,0.007329728,0.0006572892,0.007359140007257685,0.08943521338721093
8636243844.0,0.0073366009,0.0006132439,0.007362185874233822,0.08339306811343432
8636253453.0,0.0073328545,0.0005621506,0.007354370701511491,0.07651225114246635
8636263063.0,0.0072965737,0.0005175877,0.007314908392230417,0.07081709678539144
8636272673.0,0.0072980687,0.000493742,0.007314751391023737,0.06755085362057213
8636282282.0,0.0072756623,0.0004488063,0.007289491683139571,0.06160790837644106
8636291892.0,0.0072722427,0.0004025141,0.007283373633722363,0.05529295835241995
8636301502.0,0.0072698636,0.0003839753,0.007279996826483858,0.052768368399601064
8636311111.0,0.0072709667,0.0003587417,0.007279811286003764,0.04929895029022494
8636320721.0,0.007251757,0.0003104525,0.007258399296112418,0.04278453448120015
8636330330.0,0.0072334939,0.000280831,0.007238943296635097,0.03880421196042055
8636339940.0,0.0072046787,0.0002464138,0.007208891380168252,0.034188587037964915
8636349550.0,0.0072123062,0.0001893425,0.007214791147695454,0.026246669814359722
8636359159.0,0.0071955574,0.0001583231,0.007197298972579114,0.021999346138313614
8636368769.0,0.0071839006,0.0001540126,0.007185551315775229,0.02143529256658337
8636378378.0,0.0071638465,8.4271e-05,0.0071643421384662564,0.011762830662000416
8636387988.0,0.0071635784,4.38775e-05,0.007163712775366751,0.006125004690464288
8636397598.0,0.0071294391,1.77947e-05,0.007129461307276792,0.002495941517750124
8636407207.0,0.0071420569,-6.3e-08,0.007142056900277861,-8.82098825036888e-06
8636416817.0,0.0071140839,-4.79778e-05,0.00711424568071219,-0.006743956539387558
8636426426.0,0.0071120731,-8.00172e-05,0.007112523218383153,-0.011250422045381013
8636436036.0,0.0070833994,-0.0001058797,0.007084190678602069,-0.014946469837846105
8636445646.0,0.0070736706,-0.0001443906,0.007075144125929359,-0.020409566539451186
8636455255.0,0.0070708161,-0.0001850373,0.007073236820749784,-0.026163186166014686
8636464865.0,0.0070348321,-0.0002078717,0.007037902622148966,-0.02954032568831466
8636474474.0,0.007014802,-0.0002497657,0.007019247110915849,-0.03559048895645603
8636484084.0,0.0070230578,-0.0002772958,0.0070285299901784925,-0.03946312918545585
8636493694.0,0.0070036924,-0.0003134895,0.007010704878999544,-0.044730746792782224
8636503303.0,0.0069644422,-0.0003550412,0.006973486173417014,-0.05093503538248509
8636512913.0,0.0069625459,-0.0003848242,0.006973172525795734,-0.05521443783435722
8636522523.0,0.0069350939,-0.0004121056,0.006947327430556916,-0.05935342281147338
8636532132.0,0.0069189213,-0.0004512088,0.006933618199525493,-0.06512153688587916
8636541742.0,0.006917127,-0.0004646412,0.006932715007763297,-0.06707181198941828
8636551351.0,0.0068926519,-0.0005079537,0.00691134336984622,-0.07356198103108279
8636560961.0,0.0068553354,-0.0005382948,0.006876436921705907,-0.07836123553733426
8636570571.0,0.0068415988,-0.0005573421,0.006864262841456019,-0.08128422884425096
8636580180.0,0.0068320846,-0.0006014036,0.006858503209276067,-0.08780005862897379
8636589790.0,0.0068295367,-0.0006308097,0.00685860717742757,-0.09210360568881519
8636599399.0,0.0068060958,-0.0006663202,0.006838634560181271,-0.09758951306005167
8636609009.0,0.0067616598,-0.00068514,0.0067962828127246175,-0.10098253045369983
8636618619.0,0.0067716788,-0.0007406686,0.006812064572902653,-0.10894432558546176
8636628228.0,0.0067583935,-0.0007363622,0.006798390397030101,-0.1085271132047631
8636637838.0,0.0067164705,-0.0007775276,0.00676132569442798,-0.11525129908338808
8636647447.0,0.0067269687,-0.0008173276,0.00677643949995139,-0.12090750149918451
8636657057.0,0.0066774748,-0.0008465456,0.006730921865355027,-0.12610359038525187
8636666667.0,0.0066434663,-0.0008738834,0.006700695238259329,-0.13078938401581228
8636676276.0,0.0066360582,-0.0009081921,0.00669791619268931,-0.1360121991439164
8636685886.0,0.0065978816,-0.0009464961,0.00666542545340759,-0.14248245924670644
8636695495.0,0.0065872083,-0.000965321,0.006657563955429185,-0.14550905983860843
8636705105.0,0.0065605491,-0.0009922236,0.006635157282680477,-0.15010335746271447
8636714715.0,0.0065503486,-0.0010190892,0.006629148480693324,-0.15434055073563574
8636724324.0,0.0065252236,-0.0010573297,0.006610331998054187,-0.16064108821553075
8636733934.0,0.0064976992,-0.0010750669,0.006586035509557798,-0.16396804117042243
8636743544.0,0.0064899447,-0.0011063307,0.006583566649379391,-0.16884539692992365
8636753153.0,0.0064531292,-0.001124883,0.0065504380186046825,-0.17258181379737317
8636762763.0,0.006438129,-0.0011405486,0.006538375649165698,-0.17533614244773726
8636772372.0,0.0064226686,-0.0011688913,0.006528168105727796,-0.1800243120801912
8636781982.0,0.0063869511,-0.0012147522,0.006501443475198107,-0.1879480354770749
8636791592.0,0.0063742816,-0.0012483778,0.006495376282220407,-0.19339819417745188
8636801201.0,0.0063384521,-0.0012569894,0.006461888065860223,-0.19577169729966637
8636810811.0,0.0063156173,-0.0012965965,0.006447339324393554,-0.20248652161154385
8636820420.0,0.0063198487,-0.0013063264,0.006453446850654978,-0.20383156373805522
8636830030.0,0.0062894771,-0.0013437103,0.006431413496405787,-0.2104799019069632
8636839640.0,0.0062559564,-0.0013790878,0.0064061590394564666,-0.21697372946383897
8636849249.0,0.0062334628,-0.0013948385,0.0063876155895659596,-0.22013981696861598
8636858859.0,0.0061873893,-0.0014242614,0.0063491973418129365,-0.22624672512985866
8636868468.0,0.0061887372,-0.0014528636,0.006356986768184184,-0.2305838431833566
8636878078.0,0.0061529534,-0.0014680748,0.006325668277815918,-0.23421775178320275
8636887688.0,0.0061213982,-0.0014927912,0.006300788957722729,-0.23919571199071013
8636897297.0,0.0061005135,-0.0015211643,0.006287305129487254,-0.24436699917993263
8636906907.0,0.0060665033,-0.0015494931,0.0062612611473934305,-0.2500712598762741
8636916517.0,0.0060671395,-0.0015432125,0.006260326391859812,-0.24907407800715156
8636926126.0,0.0060112697,-0.001589977,0.006217989246264993,-0.25857788484112976
8636935736.0,0.0059987601,-0.0015792562,0.006203158299011113,-0.257422730564352
8636945345.0,0.0059721325,-0.0016170407,0.006187179262233538,-0.26442413186639496
8636954955.0,0.0059446103,-0.0016455673,0.006168166936594322,-0.2700543801555289
8636964565.0,0.0059137562,-0.0016788329,0.006147437864603501,-0.276608590120709
8636974174.0,0.0058908265,-0.0016856106,0.006127244074454241,-0.2786946910950678
8636983784.0,0.005863153,-0.001723777,0.00611129857290069,-0.28594473071286186
8636993393.0,0.0058493243,-0.0017381002,0.006102096940545154,-0.2888359036342859
8637003003.0,0.005817209,-0.0017645376,0.006078940161861668,-0.29450959921433045
8637012613.0,0.0058036662,-0.0017704173,0.006067694683910993,-0.2960847654538138
8637022222.0,0.0057599147,-0.0018100315,0.0060376180222227,-0.30447495121339374
8637031832.0,0.0057474581,-0.0018177053,0.006028045053655762,-0.3063089187328224
8637041441.0,0.0057120899,-0.0018044271,0.005990319539465021,-0.3059758541598915
8637051051.0,0.0056780408,-0.0018479446,0.005971184687407834,-0.31464303062366494
8637060661.0,0.0056435928,-0.0018642286,0.005943524877147381,-0.3190420225236349
8637070270.0,0.0056171334,-0.0018965449,0.005928665127253484,-0.3256176949392115
8637079880.0,0.0055946288,-0.0019017552,0.005909022275344415,-0.32767143790204567
8637089489.0,0.005548862,-0.0019171219,0.0058707091457935135,-0.33265870212292026
8637099099.0,0.0055356553,-0.0019395726,0.005865613477811921,-0.33701165147257883
8637108709.0,0.0055101664,-0.0019725008,0.005852580043168107,-0.34376159125806355
8637118318.0,0.0054894415,-0.0019703884,0.005832357879003723,-0.34461821273560406
8637127928.0,0.0054578161,-0.0019882558,0.005808693287448809,-0.3493527064382599
8637137538.0,0.005421434,-0.0020026209,0.005779484153925228,-0.3538428430367072
8637147147.0,0.0053886257,-0.0020160246,0.005753402656038047,-0.35800414196823954
8637156757.0,0.0053659247,-0.0020335254,0.005738324968012465,-0.3622468166483391
8637166366.0,0.0053403491,-0.0020219334,0.0057103014967606015,-0.36193574175268567
8637175976.0,0.0053093778,-0.0020592618,0.005694738956622338,-0.3699917715788849
8637185586.0,0.0052685411,-0.0020864441,0.005666636948386055,-0.37707005900284163
8637195195.0,0.0052706018,-0.0020709001,0.005662850038482677,-0.37438399851322085
8637204805.0,0.0052347069,-0.0020986505,0.005639724306210177,-0.381291297734793
8637214414.0,0.0052045217,-0.0021189663,0.005619347320312795,-0.3866459158938615
8637224024.0,0.0051922157,-0.0021229192,0.005609446479382358,-0.38812582886230407
8637233634.0,0.0051516165,-0.0021272521,0.005573540531836712,-0.3916021828858376
8637243243.0,0.0051132537,-0.0021311555,0.005539601715443443,-0.3948966188146849
8637252853.0,0.0051035923,-0.0021598143,0.005541791422915859,-0.4003407296714887
8637262462.0,0.0050612878,-0.0021485065,0.005498428354991187,-0.4014453639736001
8637272072.0,0.0050376552,-0.0021760031,0.005487527622280971,-0.40774058341602126
8637281682.0,0.0050110808,-0.0021782111,0.005464021813672768,-0.4100401180932566
8637291291.0,0.004962911,-0.0021759409,0.005418967096616644,-0.4131995248032078
8637300901.0,0.0049542473,-0.0021972778,0.005419649069813481,-0.41744705229163426
8637310511.0,0.0049286713,-0.002208975,0.005401052798674411,-0.421346663720239
8637320120.0,0.0048707589,-0.002227472,0.0053559241754073785,-0.4289205568160021
8637329730.0,0.00483894,-0.0022199651,0.0053238693981744155,-0.4301238649221351
8637339339.0,0.0048340694,-0.0022364002,0.005326322635606709,-0.43330975571353536
8637348949.0,0.0047922944,-0.0022535277,0.00529570323101084,-0.4395573055245292
8637358559.0,0.0047730284,-0.0022614808,0.005281675445914412,-0.4424722013182215
8637368168.0,0.0047584362,-0.0022702334,0.005272255187293764,-0.4451575264385625
8637377778.0,0.004719284,-0.0022563208,0.005230929652095183,-0.44597998493931174
8637387387.0,0.0046895904,-0.0022682312,0.005209331137144729,-0.45050141149558764
8637396997.0,0.004647136,-0.0022655111,0.005169952954014108,-0.4536033119631042
8637406607.0,0.0046275958,-0.0022840455,0.005160572326229707,-0.45849091865432545
8637416216.0,0.0045995137,-0.0023073075,0.0051457938334181184,-0.4649600418007098
8637425826.0,0.0045762533,-0.0022910805,0.005117728414369127,-0.46416385442486385
8637435435.0,0.0045600139,-0.0023003199,0.005107367072232935,-0.46720492001276054
8637445045.0,0.0044996496,-0.0023107868,0.005058318115523618,-0.4744273039886559
8637454655.0,0.0044888616,-0.0022974693,0.0050426425263344855,-0.4730553304676767
8637464264.0,0.0044598551,-0.0022995833,0.0050178073763980716,-0.47606410748484057
8637473874.0,0.0044381262,-0.0023092945,0.0050029796376616096,-0.47977977905735614
8637483483.0,0.0044007848,-0.0023205685,0.004975132663467708,-0.48525449728580383
8637493093.0,0.0043769581,-0.0023213752,0.0049544469952085115,-0.48764167665538954
8637502703.0,0.0043532015,-0.0023147905,0.004930377101043337,-0.48871944782861504
8637512312.0,0.0043343535,-0.0023302651,0.004921052295926173,-0.49329411876965257
8637521922.0,0.0042991161,-0.0023279169,0.004888925887614254,-0.4962840883621288
8637531532.0,0.0042877752,-0.0023392683,0.004884382493736535,-0.49943332301217314
8637541141.0,0.0042676988,-0.0023214957,0.004858250233637613,-0.4982010690556192
8637550751.0,0.0042301898,-0.0023172836,0.004823308929236546,-0.5011499691094694
8637560360.0,0.0041888414,-0.0023323943,0.004794419197882726,-0.5080575847117973
8637569970.0,0.0041751979,-0.0023363083,0.004784413650261995,-0.5101596059701246
8637579580.0,0.0041403105,-0.0023305829,0.004751188029344099,-0.5126936546933749
8637589189.0,0.0041302944,-0.0023161771,0.004735399475148403,-0.5110801823106008
8637598799.0,0.0041099406,-0.0023385268,0.004728669932427786,-0.5173080256850765
8637608408.0,0.004052167,-0.002316827,0.004667734433728851,-0.5193884846815437
8637618018.0,0.0040434393,-0.002327701,0.004665575346962632,-0.5223403127724485
8637627628.0,0.0039958106,-0.0023128863,0.00461691946949479,-0.5247062224454678
8637637237.0,0.0039859548,-0.0023218649,0.004612904972085925,-0.5274611209014048
8637646847.0,0.0039587628,-0.0023092017,0.004583035609500185,-0.5280600113873645
8637656456.0,0.003953643,-0.0023179818,0.004583048395618384,-0.5302777039537601
8637666066.0,0.0039124302,-0.002295585,0.004536168048264641,-0.5306135261912402
8637675676.0,0.0039119061,-0.0023129411,0.004544524823046566,-0.5339658757511867
8637685285.0,0.0038903686,-0.0023087862,0.004523876828692002,-0.5355983294951904
8637694895.0,0.0038588864,-0.0022916215,0.004488043376279602,-0.5358893483417655
8637704505.0,0.0038184902,-0.0023071058,0.004461345601933309,-0.5434970300624774
8637714114.0,0.0037927521,-0.0022942678,0.004432677884774761,-0.5440208415530395
8637723724.0,0.0037695311,-0.0022652812,0.00439782487474668,-0.5411141284516141
8637733333.0,0.0037549097,-0.002272918,0.004389248579185063,-0.5443213176789762
8637742943.0,0.0037394146,-0.0022884762,0.004384101375271744,-0.5491874784512647
8637752553.0,0.0037091002,-0.0022670863,0.004347080006773251,-0.5486306571675641
8637762162.0,0.00369798,-0.0022677888,0.004337962900003346,-0.5501057279700928
8637771772.0,0.0036781959,-0.0022490818,0.004311321609653825,-0.5488057868312041
8637781381.0,0.0036456673,-0.0022402441,0.004278969933275309,-0.5510094234850622
8637790991.0,0.0036347368,-0.0022452273,0.0042722777571149945,-0.5533426786294224
8637800601.0,0.003614281,-0.0022567636,0.004260986868466736,-0.5581690409385048
8637810210.0,0.0035836466,-0.0022376085,0.004224856773070989,-0.5581636351594209
8637819820.0,0.0035614219,-0.0022241594,0.00419888211151587,-0.5582500716977535
8637829429.0,0.0035612005,-0.0022056655,0.004188926986602954,-0.554533373416425
8637839039.0,0.0035433634,-0.0022118434,0.004177041466227396,-0.5580392552478153
8637848649.0,0.0034967515,-0.0022026294,0.004132656207150144,-0.5621204011624722
8637858258.0,0.0034761153,-0.0022048977,0.004116424595004673,-0.5652585624025185
8637867868.0,0.0034666811,-0.0021652231,0.004087305826809492,-0.5582979452461782
8637877477.0,0.0034412203,-0.0021733493,0.004070066870819518,-0.5633052527141416
8637887087.0,0.0034186299,-0.0021426303,0.004034587338954518,-0.5598575948551577
8637896697.0,0.003406373,-0.0021418415,0.004023787025458883,-0.5613091738595377
8637906306.0,0.0034254352,-0.0021489481,0.004043709218760994,-0.5602876964856572
8637915916.0,0.0033764409,-0.0021548843,0.004005481181778202,-0.5680435479763892
8637925526.0,0.0033780988,-0.0021170067,0.0039866362851916064,-0.5598106897396775
8637935135.0,0.0033254764,-0.0021229227,0.0039453255983672945,-0.5681641678710094
8637944745.0,0.0033353686,-0.0020909247,0.003936578438052016,-0.5599605935758712
8637954354.0,0.0033035049,-0.0020968138,0.003912770468120313,-0.5655613058811274
8637963964.0,0.0032939535,-0.0020815054,0.00389651054026438,-0.5635579224192429
