frequency,Re(S21),Im(S21),Amplitude,phase
8635600000.0,0.007312133,0.0032709799,0.008010405639909443,0.42063628564333294
8635609610.0,0.0073390946,0.0032049764,0.008008382063332526,0.41173805813127967
8635619219.0,0.0073102701,0.0031498385,0.007959995697928251,0.40683926751566973
8635628829.0,0.0073531384,0.003141886,0.00799625487128509,0.40380449967988924
8635638438.0,0.0073647022,0.0030708873,0.007979297419195886,0.39505272553839327
8635648048.0,0.0073469736,0.0030418351,0.007951778534056955,0.3925386289673903
8635657658.0,0.0073933895,0.002965651,0.007966008671380621,0.38147322278927787
8635667267.0,0.0073642281,0.0029387245,0.007928931655382701,0.379690572827488
8635676877.0,0.0073803096,0.0029011118,0.007930032753271036,0.3745336689066273
8635686486.0,0.0073847232,0.0028356977,0.007910456256525507,0.3666333913277738
8635696096.0,0.0074097373,0.0028180366,0.007927517715776537,0.36342251266568987
8635705706.0,0.0073978347,0.002759882,0.007895879108905358,0.3570741975714707
8635715315.0,0.0073781641,0.0027131292,0.007861194282195387,0.3523766441701822
8635724925.0,0.0074382664,0.0026663299,0.007901716406769036,0.34419266095013806
8635734535.0,0.0074150978,0.0026503706,0.007874524728573097,0.3432776443492699
8635744144.0,0.0074228597,0.0025999122,0.007865010462395643,0.336904189865032
8635753754.0,0.0074513625,0.0025561714,0.007877614825096758,0.3304676938089
8635763363.0,0.0074297361,0.0025276722,0.007847936369918913,0.3279269370767852
8635772973.0,0.0074310736,0.0024860354,0.007835893494597162,0.3228414906643655
8635782583.0,0.0074504385,0.0024249136,0.007835128576465558,0.31465929146734123
8635792192.0,0.007449455,0.0024169269,0.007831724933689168,0.3137284386496239
8635801802.0,0.0074418304,0.0023658014,0.007808831920755249,0.30780216099460356
8635811411.0,0.0074769342,0.0023473562,0.007836748443124104,0.3042019962747447
8635821021.0,0.0074786401,0.002265527,0.007814260702910865,0.29414545780040446
8635830631.0,0.0074723569,0.0022633852,0.007807626412973194,0.2941162336090466
8635840240.0,0.0074347665,0.002206772,0.007755359151548447,0.28853491321294517
8635849850.0,0.0074680073,0.0021657835,0.007775715478444768,0.2822650037946361
8635859459.0,0.0074519338,0.0021287421,0.007750023244345455,0.2782522848179715
8635869069.0,0.0074653672,0.0020878608,0.007751830116237873,0.2727053458737206
8635878679.0,0.0074616215,0.0020584021,0.007740336854074676,0.2691704512888358
8635888288.0,0.0074678083,0.002014136,0.0077346560771662555,0.2634406983392765
8635897898.0,0.0074755157,0.0019666026,0.00772986809507596,0.25724384880412154
8635907508.0,0.0074643409,0.0019455355,0.007713721115854076,0.2549711647991455
8635917117.0,0.0074902004,0.0019066849,0.007729071699761115,0.24926322960788877
8635926727.0,0.0074598694,0.0018571545,0.007687566214474293,0.24399271011536203
8635936336.0,0.007433027,0.0018316082,0.007655369290964104,0.24160156411558673
8635945946.0,0.0074780236,0.0017697215,0.007684578788048126,0.2323810113209587
8635955556.0,0.0074840649,0.0017546849,0.007687011547129354,0.2302964922186155
8635965165.0,0.0074517301,0.0016900607,0.007640980738945132,0.2230281074473251
8635974775.0,0.0074624689,0.0016659032,0.007646154298419398,0.21963627576154043
8635984384.0,0.0074640702,0.0016371483,0.007641504989641826,0.21591802100296167
8635993994.0,0.007447937,0.0016011181,0.0076180932474023055,0.21175198770070153
8636003604.0,0.0074564226,0.0015705502,0.007620030572150666,0.20759600999617991
8636013213.0,0.0074187363,0.0015460185,0.00757811463962376,0.20545332068765293
8636022823.0,0.0074508942,0.0014713626,0.0075947832279975175,0.1949661475903221
8636032432.0,0.0074600058,0.0014372592,0.007597196887274824,0.19032988081493935
8636042042.0,0.0074444079,0.0014078581,0.007576362808849509,0.1869087976653728
8636051652.0,0.0074658843,0.0013714973,0.007590812421927826,0.1816763545267514
8636061261.0,0.0074344213,0.0013227217,0.0075511729394541465,0.1760761131521913
8636070871.0,0.0074441881,0.0012896353,0.007555070858382977,0.1715379976830141
8636080480.0,0.007422032,0.0012527394,0.007527012356395886,0.16721058431997277
8636090090.0,0.0074333644,0.0011783383,0.00752618013685789,0.15721205268650368
8636099700.0,0.007402912,0.0011869715,0.007497466733607842,0.15898525518688122
8636109309.0,0.007409729,0.0011091946,0.007492289137113581,0.1485910144533513
8636118919.0,0.0074156062,0.0011104918,0.00749829362930965,0.1486460692037279
8636128529.0,0.0073832707,0.0010731517,0.007460853892195677,0.14433830925546587
8636138138.0,0.0073870379,0.000996104,0.007453895096850532,0.13403634948114082
8636147748.0,0.0073761445,0.0010004374,0.007443680721000801,0.13480885385801478
8636157357.0,0.0073841447,0.0009666108,0.007447142363968527,0.13016344097035265
8636166967.0,0.0073678173,0.0009025831,0.007422896201523021,0.1218961106854737
8636176577.0,0.0073703457,0.0008782093,0.007422482557211904,0.11859527072634862
8636186186.0,0.0073820512,0.0008264071,0.007428164552185946,0.11148399284631307
8636195796.0,0.0073248885,0.000810725,0.007369617803051746,0.11023220256806943
8636205405.0,0.0073426121,0.0007723869,0.007383124946413816,0.1048069437515243
8636215015.0,0.0073303778,0.0007085985,0.007364546864874653,0.09636661135543785
8636224625.0,0.0073342766,0.000677271,0.007365480924742699,0.09208211445418796
8636234234.0,0.007300102,0.0006438147,0.007328436844125771,0.0879649716098933
8636243844.0,0.0073250904,0.0006260315,0.007351793305525151,0.08525682458377813
8636253453.0,0.007284887,0.000587337,0.007308525388499243,0.08045002356916599
8636263063.0,0.0072878501,0.0005319414,0.007307237558277681,0.07286096038831043
8636272673.0,0.0072554915,0.0004932722,0.007272239982967083,0.06788159227491372
8636282282.0,0.0072771564,0.0004706261,0.007292358616803083,0.06458176733510072
8636291892.0,0.0072658916,0.0004403537,0.0072792233187376695,0.06053155812562839
8636301502.0,0.0072371048,0.0003969847,0.007247984736339965,0.05479915748427885
8636311111.0,0.0072514923,0.000363477,0.007260596126110327,0.05008252590574292
8636320721.0,0.0071716161,0.0003209616,0.007178794734107792,0.04472458671815832
8636330330.0,0.0072030095,0.0003104021,0.007209694537272344,0.04306674463475084
8636339940.0,0.0071773025,0.0002352832,0.007181157940103287,0.03276982869720968
8636349550.0,0.0072045846,0.0002337112,0.007208374309340671,0.03242786174267957
8636359159.0,0.007196023,0.0002006034,0.007198818565613428,0.027869763549115408
8636368769.0,0.0071429438,0.0001675349,0.007144908262019635,0.023450301932445274
8636378378.0,0.0071273985,0.0001272372,0.0071285341187979235,0.017849947108767868
8636387988.0,0.0071333615,8.01291e-05,0.0071338115311766585,0.011232534621053246
8636397598.0,0.0071223828,4.52129e-05,0.007122526304343302,0.006347916696922915
8636407207.0,0.0071006357,1.51802e-05,0.007100651926590018,0.0021378616668361926
8636416817.0,0.0071001586,1.2097e-05,0.007100168905213661,0.0017037631095881884
8636426426.0,0.0070707505,-5.79375e-05,0.007070987865012674,-0.00819378415200265
8636436036.0,0.0070478941,-9.85613e-05,0.007048583231733347,-0.013983592015512055
8636445646.0,0.0070634308,-0.0001102305,0.007064290865297018,-0.015604534945962732
8636455255.0,0.0070270642,-0.0001549717,0.007028772830211723,-0.022049974065835788
8636464865.0,0.0070347748,-0.0001836514,0.00703717161389695,-0.026100294701802886
8636474474.0,0.0069853804,-0.0002205607,0.006988861592211471,-0.031564128898400635
8636484084.0,0.0069867313,-0.0002716762,0.006992011314067371,-0.03886501234651558
8636493694.0,0.0069859746,-0.0003015871,0.006992481382937789,-0.043143580166865605
8636503303.0,0.0069320992,-0.0003317449,0.006940032708663313,-0.04781985666651153
8636512913.0,0.0069589543,-0.0003699605,0.006968781509062309,-0.053113230888656576
8636522523.0,0.0069133564,-0.000387323,0.006924197846664259,-0.05596681138159251
8636532132.0,0.0068968891,-0.0004168701,0.006909476097214088,-0.06036976121556885
8636541742.0,0.0068838293,-0.0004457517,0.006898246183602856,-0.06466317359432096
8636551351.0,0.0068526714,-0.0004537238,0.0068676757788253525,-0.06611472832353069
8636560961.0,0.0068484396,-0.0005294664,0.006868876154333918,-0.07715849147995342
8636570571.0,0.0068225072,-0.0005427793,0.006844064133434193,-0.07938994685287663
8636580180.0,0.0067916244,-0.0005836272,0.00681665480270603,-0.08572278007115158
8636589790.0,0.0068264772,-0.0006331852,0.006855779639079635,-0.09248967763046224
8636599399.0,0.006784967,-0.0006650534,0.006817482909105131,-0.09770655119652688
8636609009.0,0.0067550251,-0.0006849502,0.006789662795611433,-0.10105322875042619
8636618619.0,0.0067225635,-0.0006817187,0.006757040801820124,-0.10106207210779315
8636628228.0,0.0067144622,-0.0007315209,0.006754193176269513,-0.10851905395523853
8636637838.0,0.0067303395,-0.0007797959,0.006775363564482504,-0.11534846994184976
8636647447.0,0.0066774559,-0.0008006487,0.00672528479971343,-0.11933355364367307
8636657057.0,0.0066592509,-0.0008230133,0.006709916053210182,-0.12296592633237996
8636666667.0,0.0066300178,-0.0008789108,0.00668802065058665,-0.13179691291239878
8636676276.0,0.0066354348,-0.0008953435,0.006695568308070891,-0.13412357430364588
8636685886.0,0.0065905082,-0.0009340141,0.006656363922838508,-0.14078356018179544
8636695495.0,0.0065951843,-0.0009326214,0.006660798647812772,-0.14047803125497102
8636705105.0,0.0065395756,-0.0009607365,0.006609770317533553,-0.1458676963739519
8636714715.0,0.0065328895,-0.0009918074,0.006607747508637494,-0.15066704512962414
8636724324.0,0.0064737772,-0.0010098896,0.006552073583181739,-0.15474972849250607
8636733934.0,0.0064981755,-0.0010823807,0.0065877031512153565,-0.16505156833645157
8636743544.0,0.0064814236,-0.0010758382,0.006570105000318961,-0.16448822937829005
8636753153.0,0.0064559452,-0.001103957,0.006549652623097812,-0.16936045888427867
8636762763.0,0.0064231098,-0.0011273863,0.0065212989022344105,-0.17375048240053753
8636772372.0,0.0064181408,-0.0011535111,0.006520975324784465,-0.1778281775742158
8636781982.0,0.0063838035,-0.001175149,0.006491064804699862,-0.18204486073497123
8636791592.0,0.0063575775,-0.0012181192,0.006473222231154659,-0.18930686012331133
8636801201.0,0.0063457445,-0.0012343533,0.006464681069356874,-0.19211764265595477
8636810811.0,0.0063323652,-0.0012472994,0.0064540378693815695,-0.19448244904403092
8636820420.0,0.0062848569,-0.0013014157,0.006418185808909252,-0.20418588620483066
8636830030.0,0.0062713689,-0.0013080051,0.006406320724215516,-0.20562001353036422
8636839640.0,0.0062518161,-0.0013500195,0.006395917228873389,-0.21267481085292922
8636849249.0,0.0062095531,-0.0013451114,0.006353571781299836,-0.21332376106580647
8636858859.0,0.0061657899,-0.0014031238,0.006323426404179024,-0.2237553987255824
8636868468.0,0.0061703881,-0.0014332342,0.00633465465330757,-0.2282291335433968
8636878078.0,0.0061403571,-0.0014214541,0.006302738854968308,-0.22748659541344837
8636887688.0,0.0061183147,-0.0014282475,0.006282807150429842,-0.22933124808273078
8636897297.0,0.0060994776,-0.0014734046,0.0062749141913019755,-0.23702178673549365
8636906907.0,0.0060789765,-0.0014915967,0.0062592983634751865,-0.24061601761972357
8636916517.0,0.0060382645,-0.001507392,0.006223573636876506,-0.24463975637865643
8636926126.0,0.005981544,-0.001549884,0.006179078332356048,-0.2535351934512782
8636935736.0,0.0059557886,-0.0015723757,0.00615985252987768,-0.2581185736704263
8636945345.0,0.0059727271,-0.0015801056,0.006178203842398353,-0.25862844188894757
8636954955.0,0.0059345484,-0.0016298979,0.006154301900001898,-0.2680367442609145
8636964565.0,0.0059183004,-0.0016448123,0.006142612402461305,-0.27107860583203475
8636974174.0,0.0059083106,-0.0016512626,0.006134721046651683,-0.2725276907931579
8636983784.0,0.0058751974,-0.0016933518,0.006114358904049548,-0.28061510433723635
8636993393.0,0.0058498305,-0.0016814847,0.006086699243026908,-0.2798958899689106
8637003003.0,0.0058030983,-0.0017132704,0.006050722712451716,-0.2870783608041764
8637012613.0,0.005756727,-0.0017323228,0.006011725878308893,-0.2923019730177701
8637022222.0,0.0057486629,-0.0017486112,0.006008724179607669,-0.29528451169684894
8637031832.0,0.0057468468,-0.0017647064,0.006011691677129758,-0.2979338683721725
8637041441.0,0.0057120303,-0.0017821926,0.0059836026448631145,-0.30243553290390535
8637051051.0,0.0056811784,-0.0018102286,0.005962609797469941,-0.3084652568167261
8637060661.0,0.005658113,-0.0018393169,0.005949565478200455,-0.3143006622708832
8637070270.0,0.0056200924,-0.0018592203,0.005919640082679846,-0.3194838574764838
8637079880.0,0.0055978899,-0.0018823272,0.005905889181180244,-0.32437914697975606
8637089489.0,0.0055572405,-0.0019114019,0.005876766049296489,-0.33127316515930455
8637099099.0,0.0055422007,-0.0018865812,0.0058545005955481745,-0.3280996148841863
8637108709.0,0.0054917059,-0.0019177089,0.005816909928581843,-0.3359627907314468
8637118318.0,0.0054768773,-0.0019211951,0.005804065434806822,-0.337372142233823
8637127928.0,0.0054461716,-0.0019463475,0.00578351568575748,-0.34323337737476706
8637137538.0,0.0054412095,-0.001970597,0.005787055672731968,-0.34746783612856
8637147147.0,0.0053935043,-0.0019839252,0.0057468119712857785,-0.3524751832553746
8637156757.0,0.0053937612,-0.0019921389,0.005749893675496847,-0.35380043306527015
8637166366.0,0.005338441,-0.0020207302,0.005708090998895607,-0.3618569731324843
8637175976.0,0.00530304,-0.0020214773,0.005675262435871604,-0.36418833559581326
8637185586.0,0.0053006194,-0.0020547645,0.005684947068717228,-0.36981131893125024
8637195195.0,0.0052319352,-0.0020606599,0.00562311881080838,-0.37520373131836987
8637204805.0,0.0052275893,-0.0020641134,0.0056203428736629635,-0.37605881411559056
8637214414.0,0.0051958013,-0.0020593757,0.005589041011017201,-0.37735917300598365
8637224024.0,0.0051493477,-0.0020813729,0.005554088123567153,-0.3841229098256097
8637233634.0,0.0051400795,-0.002130243,0.005564023050398808,-0.3928904254949053
8637243243.0,0.0051084975,-0.0021011848,0.005523741872250847,-0.3902196499776167
8637252853.0,0.0050881693,-0.0021286911,0.005515504747952058,-0.39623386004461597
8637262462.0,0.0050328409,-0.0021295458,0.00546483786026726,-0.4002856463453509
8637272072.0,0.0050310972,-0.0021431561,0.005468551645985896,-0.40270199041491733
8637281682.0,0.0049986418,-0.0021572008,0.0054442570784477,-0.40741167773907944
8637291291.0,0.0049666613,-0.0021686421,0.0054194771912805485,-0.41168822712056075
8637300901.0,0.004938819,-0.0021715335,0.005395135851522485,-0.4142444411139205
8637310511.0,0.0049000304,-0.0021837176,0.005364598817942859,-0.41923382397715986
8637320120.0,0.0048853666,-0.0021926047,0.00535484100481589,-0.4218644455818446
8637329730.0,0.0048767788,-0.0022033467,0.005351421133169238,-0.42435287066092536
8637339339.0,0.0048493304,-0.0021991219,0.005324672990844017,-0.4257522580845778
8637348949.0,0.0047908512,-0.0022017118,0.005272550622877003,-0.4307803876157925
8637358559.0,0.0047682825,-0.0022009154,0.005251718442354217,-0.4324371027042248
8637368168.0,0.0047578449,-0.0022215484,0.005250939476512614,-0.43683783644898444
8637377778.0,0.004725421,-0.0022396125,0.0052292894141936,-0.44259114680422557
8637387387.0,0.0046975963,-0.0022429978,0.005205617170766452,-0.4454680311559022
8637396997.0,0.0046636052,-0.0022282239,0.005168577677659324,-0.4457222583533892
8637406607.0,0.00462844,-0.0022589759,0.005150284356264303,-0.4540534623842701
8637416216.0,0.0046120989,-0.0022606642,0.005136346842702783,-0.4557442828596005
8637425826.0,0.0045950271,-0.002279669,0.005129440983118474,-0.4605360269514691
8637435435.0,0.0045786596,-0.0022845395,0.005116956562228412,-0.46281028020553344
8637445045.0,0.0045398964,-0.0022912056,0.005085300622795502,-0.46738647171084585
8637454655.0,0.0044928942,-0.0022654979,0.005031757051696559,-0.46703401774885894
8637464264.0,0.0044573738,-0.0022733725,0.00500363904740167,-0.4716354834947091
8637473874.0,0.0044399758,-0.0022739647,0.004988416638717312,-0.4733258445610747
8637483483.0,0.0044196781,-0.0022888349,0.004977179894988489,-0.4778440839319586
8637493093.0,0.0043942499,-0.0022936473,0.004956838722456814,-0.48106527871806
8637502703.0,0.0043427134,-0.0022813035,0.004905456689611254,-0.4836958943429273
8637512312.0,0.0043316127,-0.0022997511,0.004904255672857248,-0.4880785834950536
8637521922.0,0.0043192308,-0.0023035877,0.004895127270588572,-0.48995695493609787
8637531532.0,0.0042924528,-0.0022826413,0.004861646053004427,-0.48874733998556347
8637541141.0,0.0042577656,-0.0022862276,0.00483274296270194,-0.49277255254141583
8637550751.0,0.0042217618,-0.0022857771,0.004800838431651668,-0.496237668822871
8637560360.0,0.0042169266,-0.0023123027,0.004809284117851103,-0.5015665998867611
8637569970.0,0.0041798461,-0.0022771701,0.00475989675140325,-0.4988402692153321
8637579580.0,0.0041615473,-0.002299455,0.004754573506337061,-0.5047974106586655
8637589189.0,0.0040977495,-0.0022918756,0.004695129894968361,-0.509956076355036
8637598799.0,0.0041058662,-0.0022800532,0.0046964646115064766,-0.5069154301552241
8637608408.0,0.0040668693,-0.0022676986,0.004656380873996935,-0.5086617155706519
8637618018.0,0.0040515702,-0.0023077433,0.004662713826112742,-0.5177607738622454
8637627628.0,0.0040189259,-0.0022843731,0.0046227833444467655,-0.5168629961302058
8637637237.0,0.0039856626,-0.0022721248,0.004587816198128888,-0.5181247925601535
8637646847.0,0.0039797259,-0.0022846809,0.004588898021742869,-0.5211425731857326
8637656456.0,0.0039594247,-0.0022816848,0.004569806284901049,-0.5227857542252113
8637666066.0,0.003933195,-0.0022743993,0.004543447488842089,-0.5242788918305996
8637675676.0,0.0039283783,-0.002269587,0.004536869098671449,-0.5238921162455723
8637685285.0,0.0038535855,-0.0022889914,0.004482142661170459,-0.5359886918622004
8637694895.0,0.0038637192,-0.0022853225,0.004488989305562544,-0.5341331324970199
8637704505.0,0.0038438433,-0.002266082,0.00446209131973774,-0.53268946533288
8637714114.0,0.0037941792,-0.0022667089,0.004419701917443285,-0.5385184099821776
8637723724.0,0.0037809889,-0.00224336,0.004396423677436379,-0.5354978868226746
8637733333.0,0.003765247,-0.0022511834,0.0043869022865165985,-0.5388626471729683
8637742943.0,0.0037532162,-0.0022311244,0.004366296821359927,-0.5363335516765974
8637752553.0,0.0037496529,-0.0021966264,0.0043456949285074495,-0.5299287180298164
8637762162.0,0.0036995592,-0.0022367448,0.00432316615163374,-0.5437932695010701
8637771772.0,0.0036942646,-0.0022158449,0.00430784859943675,-0.5402774038417336
8637781381.0,0.0036739499,-0.0022318955,0.004298751608389377,-0.5459101854095486
8637790991.0,0.003648018,-0.0021937257,0.004256814275390047,-0.5414095581863048
8637800601.0,0.0036170219,-0.0022018727,0.004234511874122553,-0.5468306370235195
8637810210.0,0.0035912851,-0.0021913234,0.004207044914529624,-0.5478697803526741
8637819820.0,0.0035711178,-0.0021982851,0.004193487775391607,-0.5517918953350561
8637829429.0,0.0035660242,-0.0021657581,0.00417217410263537,-0.545792728286772
8637839039.0,0.0035609422,-0.002173707,0.004171967338509476,-0.5480535574474688
8637848649.0,0.0035226601,-0.0021682142,0.004136458267311982,-0.5517421503188585
8637858258.0,0.0034888708,-0.0021461298,0.004096107002696667,-0.551474588837286
8637867868.0,0.0034878214,-0.0021261438,0.004084774850169394,-0.5474417226338313
8637877477.0,0.0034879157,-0.002130248,0.0040869930843849605,-0.5482871668273195
8637887087.0,0.0034238356,-0.0021421065,0.00403872139088222,-0.5590631850040295
8637896697.0,0.0034546668,-0.0021242938,0.004055532868531666,-0.5513074339848134
8637906306.0,0.0033988927,-0.0021225529,0.004007206308566069,-0.5582279172314917
8637915916.0,0.0033588315,-0.0021257856,0.003975011127350414,-0.564256046363018
8637925526.0,0.0033553265,-0.0020868589,0.003951353690839566,-0.5564059689378354
8637935135.0,0.0033585,-0.0020971583,0.003959494309284823,-0.5581914959885858
8637944745.0,0.0033373244,-0.0020892489,0.003937346202327981,-0.5593361389580416
8637954354.0,0.0033262383,-0.0020809831,0.003923563672335713,-0.5590497645964954
8637963964.0,0.0033054115,-0.0020487479,0.0038888447053188765,-0.5548630178960375
