frequency,Re(S21),Im(S21),Amplitude,phase
7811500000.0,-0.0082257269,0.00718224,0.010920034544404319,2.4238150891964034
7811501001.0,-0.0082083691,0.0071843923,0.010908382831663642,2.4226198889767576
7811502002.0,-0.008224696,0.0072141911,0.010940300613773608,2.421553191596241
7811503003.0,-0.0081930079,0.0072365926,0.010931315149964215,2.418101030983771
7811504004.0,-0.0081755676,0.0072589001,0.010933047893609072,2.4155157451283715
7811505005.0,-0.0081751115,0.0072678064,0.010938622303805596,2.414879209735733
7811506006.0,-0.0081532474,0.0072908202,0.01093761867841144,2.4119785266781473
7811507007.0,-0.0081524274,0.0072832951,0.010931992500269782,2.412441649095696
7811508008.0,-0.0081239198,0.0073143062,0.010931475111081326,2.408588633694674
7811509009.0,-0.0080792837,0.007320937,0.01090279522246725,2.405397332831786
7811510010.0,-0.0081278868,0.0073012125,0.010925669215373971,2.4097222171958257
7811511011.0,-0.0080844962,0.0073087447,0.010898478237698716,2.406547484375132
7811512012.0,-0.0080698233,0.0073195904,0.010894881904683275,2.404905860042462
7811513013.0,-0.0080482257,0.0073468848,0.010897277328884106,2.4017190952796517
7811514014.0,-0.0080633637,0.007334763,0.010900301941902649,2.403476713407347
7811515015.0,-0.008026003,0.0073378143,0.010874752542347503,2.4009573886315434
7811516016.0,-0.0080132427,0.0073463005,0.010871071226213336,2.399589238213984
7811517017.0,-0.0080343259,0.00736578,0.010899775579148903,2.399579022874084
7811518018.0,-0.0079875614,0.0073540706,0.010857416428808206,2.397463314987208
7811519019.0,-0.0079632972,0.0073683487,0.01084927024551972,2.3949802891450003
7811520020.0,-0.0079781958,0.0073600258,0.010854565306810001,2.3964752766092063
7811521021.0,-0.0079659297,0.0073587552,0.010844690593966668,2.395794461674774
7811522022.0,-0.0079520192,0.0073803446,0.010849151845739731,2.3934627100707435
7811523023.0,-0.0079409216,0.0073594374,0.010826797989334858,2.3941808202319197
7811524024.0,-0.007931491,0.0073816964,0.010835035358726522,2.3920824167633072
7811525025.0,-0.0079143013,0.0073859391,0.010825352717398658,2.3907137074214444
7811526026.0,-0.007924599,0.0073827698,0.010830722932038886,2.3915763436835418
7811527027.0,-0.0079055594,0.0073907518,0.010822249377838768,2.3898374613878572
7811528028.0,-0.0078851102,0.0073575108,0.010784615340301233,2.3907941071190004
7811529029.0,-0.0078732306,0.0073794169,0.010790901438933726,2.388558791094167
7811530030.0,-0.0078693975,0.0073843878,0.010791505927987765,2.3879798040251865
7811531031.0,-0.007855709,0.0074050576,0.010795695528866993,2.3857159740905125
7811532032.0,-0.0078307845,0.007397569,0.010772428370390831,2.384634773747706
7811533033.0,-0.0078497589,0.0074174983,0.010799907213426978,2.3844998463382825
7811534034.0,-0.0078139935,0.0074179618,0.010774258753357536,2.3821886904672507
7811535035.0,-0.007831704,0.0074111879,0.010782453043381287,2.3837751795566624
7811536036.0,-0.0077895139,0.0074016741,0.010745292284572999,2.381719522661011
7811537037.0,-0.0077799938,0.0074257666,0.01075501339495744,2.3794858701466137
7811538038.0,-0.0077852811,0.0074469604,0.010773477665321694,2.3784016671797112
7811539039.0,-0.0077953408,0.0074540114,0.010785621175411021,2.3785739598078846
7811540040.0,-0.0077664019,0.0074250013,0.010744656475538216,2.378663984177632
7811541041.0,-0.0077518139,0.0074119003,0.010725058731651462,2.378606986133719
7811542042.0,-0.0077357269,0.0074052076,0.010708808069551035,2.3780205415800735
7811543043.0,-0.0077126153,0.00743058,0.010709713063485598,2.3748168939156256
7811544044.0,-0.0077304953,0.0074161586,0.010712607804063213,2.3769443922724123
7811545045.0,-0.0076997517,0.0074287599,0.010699189216641647,2.3741052291320783
7811546046.0,-0.0076674258,0.0074477272,0.010689156133396382,2.3707284568912304
7811547047.0,-0.0076656961,0.0074376814,0.010680917624692232,2.3712902778416356
7811548048.0,-0.0076657309,0.0074365765,0.010680173232282661,2.371366795322193
7811549049.0,-0.0076657928,0.0074649563,0.010699997748291423,2.369467111742589
7811550050.0,-0.0076551868,0.0074393028,0.010674507533979359,2.3704956880255534
7811551051.0,-0.0076280419,0.0074500233,0.010662545212035374,2.368000403407491
7811552052.0,-0.0075904136,0.0074385379,0.01062761613480659,2.3662996881742386
7811553053.0,-0.0076167373,0.0074656253,0.010665376140446776,2.3662132749123033
7811554054.0,-0.0075921035,0.0074411951,0.01063068295411806,2.3662324290013954
7811555055.0,-0.0076023899,0.0074551178,0.010647775054136843,2.365974820851292
7811556056.0,-0.0075904129,0.007452273,0.01063723370331852,2.365377425869783
7811557057.0,-0.0075835361,0.0074509366,0.010631391065952882,2.365013958931362
7811558058.0,-0.0075527561,0.0074533675,0.010611164488223876,2.3628175961589735
7811559059.0,-0.0075603342,0.0074707206,0.010628749667715107,2.3621563165223423
7811560060.0,-0.0075499688,0.0074647353,0.01061717014934015,2.361871097863898
7811561061.0,-0.0075411268,0.0074548759,0.01060395058919453,2.361946019493911
7811562062.0,-0.0075023273,0.0074597575,0.010579834444599383,2.3590396608822264
7811563063.0,-0.0075216663,0.0074697331,0.01060058378174482,2.359658675947875
7811564064.0,-0.0075012045,0.0074709343,0.01058692251155815,2.3582162560309348
7811565065.0,-0.0074809033,0.0074589348,0.01056407225148531,2.3576649535279626
7811566066.0,-0.0074692062,0.0074793598,0.010570234825961743,2.355515254576132
7811567067.0,-0.007476878,0.0074647453,0.010565326640514058,2.357006496832441
7811568068.0,-0.0074767098,0.0074862031,0.010580379307372002,2.3555600349368975
7811569069.0,-0.0074384763,0.0074810831,0.01054976464262437,2.3533387299763127
7811570070.0,-0.0074286435,0.0074807651,0.010542608345730684,2.352698617950191
7811571071.0,-0.0074197729,0.0074959274,0.010547130295660767,2.351088874180175
7811572072.0,-0.0074353201,0.0074923185,0.010555511427444255,2.352376195515825
7811573073.0,-0.0074092183,0.0074830042,0.010530520769376628,2.351239870676868
7811574074.0,-0.0074065589,0.0074715334,0.01052050027738628,2.3518273922046022
7811575075.0,-0.0073776611,0.0074714238,0.010500097947431713,2.349880198469112
7811576076.0,-0.007369406,0.0075102427,0.010521971783165896,2.34672971737814
7811577077.0,-0.0073450269,0.0074726923,0.010478098604813895,2.3475789779452034
7811578078.0,-0.0073288264,0.0074868742,0.01047687843243218,2.345527306133303
7811579079.0,-0.0073322019,0.0075178818,0.01050141568842672,2.3436915152449878
7811580080.0,-0.0073317442,0.0074855552,0.010477977365239949,2.3458143614266427
7811581081.0,-0.0073229202,0.0074997602,0.010481963714546625,2.344264690328115
7811582082.0,-0.007297947,0.007510701,0.010472376040145332,2.3418286031894726
7811583083.0,-0.0073025126,0.0074994211,0.01046747376917105,2.3428923845488847
7811584084.0,-0.0072720843,0.0075039459,0.010449517411652717,2.340504039564184
7811585085.0,-0.0072904218,0.0074952093,0.010456022784630958,2.342344935512789
7811586086.0,-0.0072724738,0.0074967101,0.01044459369698642,2.341012942317315
7811587087.0,-0.007267591,0.0074800039,0.010429205975878326,2.34179226293323
7811588088.0,-0.0072238296,0.0075068278,0.01041806976885301,2.3369853413069537
7811589089.0,-0.0072391488,0.007480661,0.010409878209924573,2.3397886714249005
7811590090.0,-0.0072065813,0.0075095328,0.010408068836618324,2.33561101876954
7811591091.0,-0.0072275854,0.0075010417,0.010416506962481812,2.337630310124192
7811592092.0,-0.0072018491,0.0074952024,0.010394454746456717,2.3362371299153724
7811593093.0,-0.0071860376,0.0075123363,0.010395880581889706,2.333998489776091
7811594094.0,-0.0071634268,0.0074978788,0.010369805688557896,2.3333865621020053
7811595095.0,-0.0071645656,0.0074967702,0.010369790917290058,2.333539817407704
7811596096.0,-0.0071277179,0.0074895005,0.010339099583691062,2.331449101355295
7811597097.0,-0.007128206,0.0075006097,0.010347486006280467,2.3307431280802757
7811598098.0,-0.0071353773,0.0075005927,0.010352415180268254,2.3312463913711063
7811599099.0,-0.0071343602,0.0074804892,0.010337156965755172,2.3325155389121477
7811600100.0,-0.0071234666,0.0075130773,0.010353265519491464,2.3295817379464463
7811601101.0,-0.0071085707,0.0075149957,0.010344415777022739,2.3284091747922138
7811602102.0,-0.0070691087,0.0075042639,0.010309523485266371,2.3263437512107683
7811603103.0,-0.0070853902,0.00751237,0.010326589819643076,2.3269531483706887
7811604104.0,-0.007075256,0.0075249425,0.010328795045591827,2.3254041975966455
7811605105.0,-0.0070626249,0.0075150157,0.010312910910569649,2.3251712491979806
7811606106.0,-0.0070317071,0.0075081213,0.010286728838445393,2.3234400586673725
7811607107.0,-0.00704477,0.0075245977,0.010307684264651555,2.323272379834301
7811608108.0,-0.0070111118,0.0074851262,0.010255866755278448,2.323507005044937
7811609109.0,-0.0069859008,0.0075140406,0.010259805852251249,2.3197870031449526
7811610110.0,-0.00696782,0.0075249891,0.010255533945510532,2.317768892768618
7811611111.0,-0.0069918737,0.0075156321,0.010265038903935148,2.320107582485296
7811612112.0,-0.0069509958,0.0075010226,0.010226518599079961,2.3181540276875894
7811613113.0,-0.0069429794,0.0075190875,0.010234336313678608,2.3163797352572173
7811614114.0,-0.0069501984,0.0075194612,0.010239509487161383,2.316872944939364
7811615115.0,-0.0069206782,0.0075097106,0.010212322950421593,2.315398251791462
7811616116.0,-0.0069365774,0.0075079928,0.010221842393181505,2.3166559233247055
7811617117.0,-0.0068718955,0.0075304752,0.010194655683285007,2.3104991484802078
7811618118.0,-0.0068951312,0.0075167659,0.0102002256769454,2.3130877701218755
7811619119.0,-0.0069012148,0.0075180061,0.010205252639468376,2.313444918321216
7811620120.0,-0.0068570703,0.0075107985,0.010170128180448088,2.3107265328194107
7811621121.0,-0.0068700156,0.0075118815,0.010179660014670707,2.3115939595643566
7811622122.0,-0.006868312,0.0075186825,0.010183530638494209,2.311019799628119
7811623123.0,-0.0068334367,0.007522775,0.010163070443204253,2.3082146146368054
7811624124.0,-0.0068527533,0.0075297498,0.010181225851598663,2.3091583685918304
7811625125.0,-0.0068110924,0.0075261522,0.010150563857190526,2.306361498373051
7811626126.0,-0.0068139089,0.0075364468,0.010160087837549903,2.3058871478280873
7811627127.0,-0.0068071553,0.0075254004,0.01014736490221172,2.3061235344536883
7811628128.0,-0.0067847122,0.0075054349,0.010117503282676356,2.305802249355615
7811629129.0,-0.0067570592,0.0075107712,0.010102946750876899,2.3034175751502586
7811630130.0,-0.0067385576,0.0075129722,0.010092220261493038,2.301908827856569
7811631131.0,-0.0067649212,0.0075264764,0.010119881710868285,2.302957178080572
7811632132.0,-0.0067274632,0.0075023127,0.010076877341514858,2.3017955291031833
7811633133.0,-0.0067231523,0.0075041874,0.01007539604101566,2.3013527599966457
7811634134.0,-0.0066868495,0.0075072117,0.010053466255191148,2.298462557799776
7811635135.0,-0.0066962217,0.0075132584,0.010064215659489886,2.2987583241802185
7811636136.0,-0.0066978158,0.0075053774,0.010059394932457935,2.299397892177158
7811637137.0,-0.0066842998,0.0074999556,0.010046352463369549,2.298753440154468
7811638138.0,-0.006664291,0.0075216814,0.010049301747673167,2.2958286112820017
7811639139.0,-0.0066360739,0.0075187329,0.010028400731313225,2.293917582294881
7811640140.0,-0.0066624226,0.0075383116,0.010060517714297078,2.294593392903385
7811641141.0,-0.0066341751,0.0074990545,0.010012397198045545,2.295075960001321
7811642142.0,-0.0066248368,0.0075157725,0.0100187473717222,2.2932721953601582
7811643143.0,-0.0066041066,0.0075082222,0.009999381210291786,2.292216269666754
7811644144.0,-0.0065888628,0.0075064586,0.009987994478910057,2.291186901703833
7811645145.0,-0.006568285,0.0074906827,0.009962564687534245,2.290679182124728
7811646146.0,-0.0065814925,0.007495142,0.009974627668626045,2.2913800096422388
7811647147.0,-0.0065756611,0.0074932687,0.009969372834459192,2.291064464440236
7811648148.0,-0.006559867,0.0075150329,0.009975348342076652,2.2884353132550546
7811649149.0,-0.0065249931,0.0074914608,0.009934662544494616,2.2873510870025875
7811650150.0,-0.0065195571,0.00750003,0.009937558793841696,2.286372243736557
7811651151.0,-0.0065105215,0.0075133766,0.009941716055862278,2.2848055745637623
7811652152.0,-0.006486941,0.007528573,0.009937797288826634,2.2820109440602683
7811653153.0,-0.0065045391,0.0075058413,0.009932103630360211,2.2848472052991307
7811654154.0,-0.0064603752,0.0074969181,0.00989647557077178,2.2820652495939453
7811655155.0,-0.0064800529,0.0075235388,0.009929487482337839,2.281816360115376
7811656156.0,-0.0064571648,0.0075076148,0.009902487426881091,2.2811145039118284
7811657157.0,-0.0064321142,0.0074812137,0.009866136604918327,2.280934420708157
7811658158.0,-0.0064422047,0.0074864735,0.009876704251059881,2.2813619192035484
7811659159.0,-0.0064080524,0.0075200323,0.009879980837744022,2.2765262273174676
7811660160.0,-0.0064250857,0.0075092117,0.009882812687072511,2.2785482063076756
7811661161.0,-0.0063583018,0.0074832615,0.009819735457600958,2.2750987003285714
7811662162.0,-0.0063728981,0.0074907983,0.009834932097593074,2.2757334999792564
7811663163.0,-0.0063938762,0.0075056438,0.009859834771100622,2.2763783730532356
7811664164.0,-0.0063431227,0.0075108569,0.00983098046786448,2.27210453633728
7811665165.0,-0.0063439623,0.0075077997,0.009829186843230796,2.2723704803074285
7811666166.0,-0.0063373,0.0074855597,0.009807903716506606,2.2733151588207154
7811667167.0,-0.0063165427,0.0074920893,0.009799495587023742,2.2712679728556484
7811668168.0,-0.0062874447,0.0074997736,0.00978665238510161,2.2684887076239137
7811669169.0,-0.006299245,0.0074904005,0.009787062236464283,2.2700279487963244
7811670170.0,-0.0062842176,0.0074861661,0.009774153350594566,2.269130107367487
7811671171.0,-0.0062686547,0.0074764905,0.009756738284099986,2.2685459984190883
7811672172.0,-0.0062588997,0.0074931526,0.00976325567326529,2.266683865125648
7811673173.0,-0.0062401934,0.0074647184,0.009729441631496749,2.2670817726741324
7811674174.0,-0.0062155696,0.0074803074,0.009725651867661052,2.2641112253610816
7811675175.0,-0.0062341004,0.0074717301,0.00973091765891204,2.2661392261594955
7811676176.0,-0.0062183515,0.0074469409,0.009701794892989907,2.2665297341619506
7811677177.0,-0.0061960109,0.0074882904,0.009719312948333898,2.262038538852176
7811678178.0,-0.0061858176,0.0074715126,0.009699888654640759,2.2623315611196424
7811679179.0,-0.0061588966,0.0074639985,0.009676945847605731,2.2606838828700058
7811680180.0,-0.006136784,0.0074623297,0.009661598336411947,2.259028490516346
7811681181.0,-0.0061405148,0.0074803805,0.009677913743870592,2.2581415411926136
7811682182.0,-0.0061300532,0.0074803011,0.009671217957501085,2.257310648924983
7811683183.0,-0.0061300904,0.0074616098,0.009656791864777256,2.2585404738013666
7811684184.0,-0.006100049,0.0074870823,0.009657484101430054,2.2544625657343977
7811685185.0,-0.0060842627,0.0074720043,0.009635823828912076,2.2541808399200143
7811686186.0,-0.0060839422,0.0074653508,0.009630462878802943,2.2545912700358746
7811687187.0,-0.0060547778,0.00746642,0.009612895600378318,2.2521691940017226
7811688188.0,-0.0060369095,0.0074552892,0.009592998142751144,2.251453294734184
7811689189.0,-0.0060427892,0.0074485453,0.009591461223493985,2.2523721773624734
7811690190.0,-0.0060187414,0.0074575623,0.00958334406658006,2.249830689128104
7811691191.0,-0.0059963937,0.0074679894,0.009577452849474751,2.2473311515450947
7811692192.0,-0.0060127908,0.0074405276,0.009566352709937389,2.2504649820897176
7811693193.0,-0.0059952054,0.0074530837,0.009565089880779733,2.248209952434909
7811694194.0,-0.0059709099,0.0074673413,0.009561012034539214,2.2452952628774425
7811695195.0,-0.0059592182,0.0074699089,0.009555721873804743,2.244171858985178
7811696196.0,-0.0059244784,0.0074337376,0.00950578239903062,2.2436880073752286
7811697197.0,-0.0059269759,0.0074485736,0.009518943848652421,2.242921805221773
7811698198.0,-0.0059153599,0.0074429477,0.009507310514097207,2.242334199455977
7811699199.0,-0.0059028235,0.007429697,0.009489137093748896,2.242168762265348
7811700200.0,-0.0059063997,0.0074468724,0.0095048127786949,2.241339277501717
7811701201.0,-0.005887746,0.0074235357,0.009474937216134495,2.241327331292271
7811702202.0,-0.0058788546,0.007411501,0.009459983006377029,2.2413814591833985
7811703203.0,-0.0058752702,0.0074196748,0.009464162618043028,2.2405480213057407
7811704204.0,-0.0058387798,0.0074237374,0.00944474597525242,2.2372520432890903
7811705205.0,-0.0058384048,0.0074137501,0.009436665785854293,2.2378750845996893
7811706206.0,-0.005817028,0.0074470312,0.009449660758278968,2.23391883597423
7811707207.0,-0.0058302871,0.007440121,0.009452388489850985,2.235474309708935
7811708208.0,-0.0057973663,0.0074020316,0.009402102308727248,2.2352170575378993
7811709209.0,-0.0057936399,0.0074179458,0.009412342066808327,2.233862830447013
7811710210.0,-0.0057749579,0.007415874,0.00939921943198734,2.23243205449335
7811711211.0,-0.0057543462,0.0074139771,0.00938507094425923,2.2308234438186036
7811712212.0,-0.0057440497,0.0073949606,0.009363735858706312,2.2311999773201645
7811713213.0,-0.0057031559,0.007394977,0.009338718972655393,2.2277406392718766
7811714214.0,-0.0057056191,0.0074038591,0.009347257292218804,2.227369002534825
7811715215.0,-0.0056882961,0.007398617,0.009332536955938841,2.226241597280997
7811716216.0,-0.0056712594,0.0073792287,0.00930678244018802,2.2260601285646935
7811717217.0,-0.0056783927,0.0074038517,0.009330657192878011,2.225058207914777
7811718218.0,-0.0056802549,0.0073858014,0.00931747594841092,2.2263957581961007
7811719219.0,-0.0056721598,0.0073756197,0.009304470041639349,2.2263732174708517
7811720220.0,-0.0056116123,0.0073891423,0.009278449037159206,2.2203118886740065
7811721221.0,-0.0056123818,0.0073686678,0.00926261812965039,2.2217149269556975
7811722222.0,-0.005595905,0.0073672156,0.009251487365062353,2.2203932110059785
7811723223.0,-0.0055993693,0.0073560938,0.009244731069759734,2.221419299499334
7811724224.0,-0.0055646083,0.0073750166,0.009238816773954576,2.217184895933145
7811725225.0,-0.0055508939,0.0073671323,0.009224264817033416,2.216512870327134
7811726226.0,-0.0055292756,0.0073910583,0.00923041881253252,2.213082485000702
7811727227.0,-0.0055349152,0.0073786176,0.00922384323144213,2.2143800042075465
7811728228.0,-0.0055292129,0.0073545708,0.009201190517848169,2.215452486376724
7811729229.0,-0.0055066606,0.0073593955,0.009191518540970943,2.2131758774783563
7811730230.0,-0.005499389,0.0073562584,0.0091846511648996,2.212746604157149
7811731231.0,-0.0054960911,0.0073285261,0.009160475543217198,2.2142709325972736
7811732232.0,-0.0054711417,0.0073372642,0.009152531750400024,2.2115173094469136
7811733233.0,-0.0054304067,0.0073300507,0.009122442665863973,2.2084102656498663
7811734234.0,-0.0054441078,0.0073322081,0.009132337343732241,2.2094751443142697
7811735235.0,-0.005424748,0.007338695,0.009126025157018196,2.2073481768091425
7811736236.0,-0.0054300513,0.0073205648,0.009114610584749671,2.208998463615837
7811737237.0,-0.0053908591,0.0073131847,0.009085374636874744,2.2060177110318997
7811738238.0,-0.0053842236,0.0073210991,0.009087813587811855,2.2049132387328823
7811739239.0,-0.0053403805,0.0073098426,0.00905281518211628,2.201748395384546
7811740240.0,-0.005361222,0.0072972501,0.009054974343157137,2.2044272904351603
7811741241.0,-0.0053431516,0.0073061851,0.009051497651551626,2.2022339702263642
7811742242.0,-0.0053604545,0.0072928235,0.009050952825461114,2.2046485227279327
7811743243.0,-0.0053309129,0.0073201311,0.009055548115303326,2.200233953584279
7811744244.0,-0.0052857967,0.0072921403,0.009006384230567502,2.1980141750830975
7811745245.0,-0.0052808431,0.0072787177,0.008992610032860922,2.198444183752667
7811746246.0,-0.005243157,0.0072808078,0.008972227011572425,2.194907602864104
7811747247.0,-0.0052687502,0.0072897684,0.008994467855056162,2.196634451727048
7811748248.0,-0.0052430292,0.0072970818,0.008985363542336164,2.1938376573337672
7811749249.0,-0.0052112988,0.0072504053,0.00892894238961981,2.1940020218124037
7811750250.0,-0.0051990263,0.0072787242,0.00894481416507673,2.1910401347845894
7811751251.0,-0.0052004231,0.0072615786,0.00893168092707031,2.192283151505296
