frequency,Re(S21),Im(S21),Amplitude,phase
8220000000.0,-0.0057875739,0.0077507496,0.009673165511344327,2.212189474644366
8220008002.0,-0.0057233954,0.0077682818,0.00964901326711454,2.2057728586259926
8220016003.0,-0.0056839892,0.0077765385,0.00963235611196445,2.201970778902681
8220024005.0,-0.0056763837,0.0078136617,0.009657879739967389,2.1990667896364404
8220032006.0,-0.005659543,0.0078236914,0.009656115890526739,2.1970452913949865
8220040008.0,-0.0056037833,0.0078393632,0.009636285729204646,2.191403702787823
8220048010.0,-0.0055879876,0.0078408387,0.009628310180772712,2.1899799582120667
8220056011.0,-0.0055668346,0.0078700719,0.009639900371628679,2.1864330171177215
8220064013.0,-0.0055331942,0.0079149044,0.00965722267093666,2.180908209668167
8220072014.0,-0.0055099571,0.0079235597,0.009651032357385634,2.1784210237627892
8220080016.0,-0.0054916725,0.0079345474,0.00964963778025388,2.176215254175561
8220088018.0,-0.005469971,0.0079519226,0.009651614153976099,2.1733418761563494
8220096019.0,-0.0054304752,0.0079739993,0.009647524331879941,2.1686720393749197
8220104021.0,-0.005410801,0.0079742367,0.009636660127306964,2.1669707220030427
8220112022.0,-0.0054093821,0.0079928944,0.009651309527382893,2.165763624577814
8220120024.0,-0.0053647142,0.0079968074,0.00962959433415429,2.1616943206550627
8220128026.0,-0.0053159341,0.0080356098,0.009634841992134527,2.155246212788943
8220136027.0,-0.0052889495,0.00802895,0.009614417554696188,2.153287580307852
8220144029.0,-0.0052761687,0.0080397205,0.009616395471744074,2.1515615588223285
8220152030.0,-0.0052677207,0.0080620292,0.009630430737763556,2.1495571955079646
8220160032.0,-0.0052269606,0.0080511338,0.00959905581708195,2.146623328610826
8220168034.0,-0.0052107508,0.008090058,0.009622939381658011,2.143007878113553
8220176035.0,-0.0051640264,0.0080901059,0.009597759224585277,2.1389123901758516
8220184037.0,-0.0051418668,0.0080934697,0.009588693653139635,2.1367756470473434
8220192038.0,-0.0050990029,0.0081335933,0.009599748462538657,2.130765468448374
8220200040.0,-0.0050754277,0.0081464583,0.00959816384375502,2.1279724338130404
8220208042.0,-0.0050743555,0.0081451643,0.009596498591380856,2.127948906962727
8220216043.0,-0.0050591654,0.0081676695,0.009607600096058714,2.125368350970928
8220224045.0,-0.0050235094,0.0081688155,0.009589848453699808,2.122144566752506
8220232046.0,-0.0050114225,0.0082071446,0.009616214325752907,2.1189859359616126
8220240048.0,-0.0049713246,0.0082069901,0.009595246467916454,2.1154277276416824
8220248050.0,-0.0049361653,0.00821055,0.009580128348379478,2.112096159870523
8220256051.0,-0.0049012921,0.0082374883,0.00958534703295396,2.1075300405202757
8220264053.0,-0.0048757082,0.0082403894,0.009574787095031387,2.1050788291046842
8220272054.0,-0.0048508739,0.0082553007,0.009575017871582367,2.1020536149699125
8220280056.0,-0.0048464397,0.0082574596,0.009574634030153227,2.1015400940413045
8220288058.0,-0.0048010318,0.0082966698,0.009585647401967344,2.095384144064042
8220296059.0,-0.0047953422,0.008295359,0.00958166414324682,2.094938709977246
8220304061.0,-0.0047560407,0.0082930508,0.009560053070534553,2.0915004143815334
8220312062.0,-0.0047458973,0.0082987758,0.009559980175754181,2.0902820828483413
8220320064.0,-0.004699764,0.0083273242,0.009562013908565582,2.0846117473997343
8220328066.0,-0.0046755738,0.0083368854,0.009558485681946676,2.081916126989738
8220336067.0,-0.0046503533,0.0083709649,0.009575951084453851,2.0778781480298907
8220344069.0,-0.0046325888,0.008351549,0.009550353380335538,2.077239407283875
8220352070.0,-0.0046043094,0.0083732016,0.009555635514457995,2.0735522905781187
8220360072.0,-0.0045674476,0.0083857215,0.009548921544044018,2.0695378931874364
8220368074.0,-0.0045629313,0.0083977957,0.00955736965213014,2.068518628412228
8220376075.0,-0.0045331147,0.008411688,0.00955539763132336,2.065082704258256
8220384077.0,-0.0045131324,0.0084392119,0.009570196526353646,2.0618802562501153
8220392078.0,-0.004466513,0.0084341366,0.00954381467583212,2.057823523175381
8220400080.0,-0.0044439532,0.0084498813,0.009547209750910468,2.0549634941155106
8220408082.0,-0.0044403434,0.0084590093,0.009553611246403637,2.0541843412150906
8220416083.0,-0.0043785109,0.0084783709,0.00954222881822615,2.047503779124068
8220424085.0,-0.0043510893,0.0084775371,0.009528935584757139,2.044987043494918
8220432086.0,-0.0043297155,0.0084804258,0.009521767591169503,2.0428514611279343
8220440088.0,-0.004314503,0.0084779161,0.009512623062838567,2.041547131747752
8220448090.0,-0.0042859159,0.0085232207,0.009540144978079805,2.0367226814202812
8220456091.0,-0.0042369176,0.0085380709,0.009531533215732742,2.0314300322402876
8220464093.0,-0.0042168616,0.0085431932,0.009527227918239428,2.0293053279895474
8220472094.0,-0.004209286,0.0085541958,0.009533748182878214,2.0280819871455593
8220480096.0,-0.0041742968,0.0085523003,0.009516648264797345,2.024871048932201
8220488098.0,-0.004118123,0.0085633753,0.009502122582443309,2.019047117919789
8220496099.0,-0.0041175121,0.0085844938,0.009520894899949525,2.0180279814463664
8220504101.0,-0.0041158059,0.008573571,0.009510309032755761,2.018362923683154
8220512102.0,-0.0040556984,0.0086034086,0.009511431493225218,2.0113081967806496
8220520104.0,-0.004030775,0.0086153556,0.009511650709265787,2.008402463442987
8220528106.0,-0.0040281776,0.0086373189,0.009530450805572577,2.0071790074873594
8220536107.0,-0.0039954517,0.0086184182,0.009499514016891818,2.0048977943271256
8220544109.0,-0.0039466183,0.0086320866,0.009491507523875986,1.9996243308438906
8220552110.0,-0.0039140744,0.0086407767,0.009485936979971892,1.996123292735242
8220560112.0,-0.0038903923,0.0086758891,0.009508217704880242,1.99233075929041
8220568114.0,-0.0038693673,0.0086786507,0.009502156664406233,1.9901928791469383
8220576115.0,-0.0038415066,0.0086877919,0.009499205285472526,1.9871222458474946
8220584117.0,-0.0038048703,0.008691097,0.009487476222011368,1.9834496641606683
8220592118.0,-0.0037728786,0.0087182063,0.00949956493844311,1.9792201667549498
8220600120.0,-0.0037628429,0.0087060962,0.009484466128029286,1.9787561916693586
8220608122.0,-0.0037416687,0.0087249846,0.009493441995967366,1.9759194702477612
8220616123.0,-0.0036978112,0.00871841,0.009470189047687773,1.9719368417336205
8220624125.0,-0.0036663934,0.0087432774,0.009480893431365756,1.967861932249673
8220632126.0,-0.003660722,0.0087398041,0.009475497942992801,1.967451717370349
8220640128.0,-0.0036269324,0.0087532282,0.009474895384934073,1.9636150085807782
8220648130.0,-0.0035968409,0.0087681536,0.009477224383389146,1.960078850266599
8220656131.0,-0.0035675858,0.0087810309,0.00947808905355486,1.9567075383752415
8220664133.0,-0.0035534866,0.0087708756,0.009463378139282766,1.9557311642871833
8220672134.0,-0.0035216776,0.0087765642,0.009456759078831574,1.952387795748734
8220680136.0,-0.0034873032,0.0088011608,0.009466874618171877,1.9480503759230778
8220688138.0,-0.0034723272,0.0088153819,0.009474598367567222,1.9460279674339571
8220696139.0,-0.0034348194,0.0087984049,0.009445099951560088,1.942991865443345
8220704141.0,-0.0033972012,0.0088171013,0.009448928580942028,1.9385636572029048
8220712142.0,-0.0033771311,0.0088429928,0.009465914436938411,1.9356017723257954
8220720144.0,-0.0033534068,0.0088554236,0.009469100501194568,1.932792844432564
8220728146.0,-0.0033226694,0.0088470315,0.009450402018098944,1.9300656169867327
8220736147.0,-0.003296571,0.0088264168,0.009421943211745824,1.9282417678791097
8220744149.0,-0.0032638114,0.0088548434,0.0094371985511217,1.923935926998739
8220752150.0,-0.0032408607,0.0088696578,0.009443199011241124,1.921112945693398
8220760152.0,-0.003223056,0.0088768515,0.009443864809080457,1.9190807086285842
8220768154.0,-0.0031935545,0.0088766749,0.009433670951690029,1.9161475994232633
8220776155.0,-0.0031562221,0.0088888596,0.00943257986624235,1.91198615742172
8220784157.0,-0.0031220841,0.0088934211,0.009425515794342398,1.9084111192175357
8220792158.0,-0.0031042689,0.0088874761,0.00941401704011515,1.9068347161536479
8220800160.0,-0.0030983545,0.0089135469,0.009436690041861599,1.9053320239104745
8220808162.0,-0.0030662704,0.0089250583,0.009437090644065843,1.9017202043482782
8220816163.0,-0.0030077843,0.0089428302,0.009435092918533368,1.8952456934518407
8220824165.0,-0.0030129096,0.0089517024,0.009445136320664616,1.8954605715885187
8220832166.0,-0.0029750094,0.008960443,0.00944140983573626,1.8913607081613464
8220840168.0,-0.0029342571,0.0089703369,0.009438051113890093,1.8869324621664434
8220848170.0,-0.0029344725,0.0089719037,0.009439607240522773,1.8869025470388823
8220856171.0,-0.0028796185,0.0089603733,0.0094117210105748,1.8817438800018198
8220864173.0,-0.0028472038,0.0089592835,0.009400815406766941,1.8784966254291653
8220872174.0,-0.0028118211,0.0089759995,0.009406109978221892,1.874373378553929
8220880176.0,-0.0027928057,0.0089780299,0.009402381855851552,1.872378898873721
8220888178.0,-0.0027706968,0.0089886997,0.009406034395764791,1.8697975380616358
8220896179.0,-0.0027633687,0.0089971646,0.009411969900697347,1.8687885640379118
8220904181.0,-0.0027141021,0.0090129527,0.009412739589602046,1.863292715831702
8220912182.0,-0.0026973353,0.0090138856,0.009408812429340562,1.8615577818685212
8220920184.0,-0.0026422525,0.0090171561,0.009396307913511745,1.8558418525359028
8220928186.0,-0.0026294038,0.0090170053,0.009392558167170568,1.8545335999431452
8220936187.0,-0.0025954523,0.0090262242,0.009391969758801447,1.8507883950098916
8220944189.0,-0.0025950298,0.0090130086,0.009379152610260802,1.8511344879160363
8220952190.0,-0.0025576875,0.0090362252,0.009391226289083406,1.8466294047782466
8220960192.0,-0.0025296951,0.0090528788,0.0093996793491296,1.843281429609711
8220968194.0,-0.0024883501,0.0090678993,0.009403120967801621,1.8386167932139008
8220976195.0,-0.0024624286,0.0090630794,0.009391643243905845,1.8360909379666426
8220984197.0,-0.0024479929,0.0090459152,0.009371299325282564,1.8350846388949127
8220992198.0,-0.0023985102,0.0090786947,0.009390183631607646,1.829086069289608
8221000200.0,-0.0023779384,0.0090548857,0.009361919999351577,1.8276111655119762
8221008202.0,-0.0023455933,0.0090701511,0.009368535045877563,1.8238579833020827
8221016203.0,-0.0023477825,0.0090757639,0.009374517216147692,1.8239341687977273
8221024205.0,-0.0022915444,0.0091066684,0.00939055829462391,1.8173119706046081
8221032206.0,-0.0022502845,0.0090849679,0.009359509713386201,1.813602680280922
8221040208.0,-0.0022642662,0.0090958207,0.009373412165855662,1.8147721866907245
8221048210.0,-0.002217076,0.0090798536,0.009346612615659694,1.8102854533089732
8221056211.0,-0.0021605236,0.0090819448,0.00933539413074799,1.8043473295434251
8221064213.0,-0.0021332984,0.0091139663,0.009360306820878163,1.8007259761032395
8221072214.0,-0.0021154383,0.0091102422,0.009352624879880927,1.7989573476783836
8221080216.0,-0.0020964623,0.0091157331,0.009353702161484345,1.7968484286549842
8221088218.0,-0.0020636063,0.0091129113,0.009343640795913944,1.7934891697008302
8221096219.0,-0.0020434814,0.0091359998,0.009361747090033248,1.7908478655930729
8221104221.0,-0.0020069508,0.0091224659,0.009340622870573644,1.7873474998182752
8221112222.0,-0.001963955,0.0091213156,0.009330354629746308,1.7828734378363378
8221120224.0,-0.0019538163,0.0091142152,0.009321283004289523,1.7819704524848592
8221128226.0,-0.0019203188,0.0091388005,0.009338377743079024,1.777911208786577
8221136227.0,-0.0018867124,0.00913942,0.009332131675920233,1.7743733638888548
8221144229.0,-0.0018727116,0.0091444193,0.009334208754414434,1.772796110513886
8221152230.0,-0.0018225842,0.0091362187,0.009316238795797334,1.7677014467618026
8221160232.0,-0.0018025611,0.0091782839,0.009353615443679113,1.7647223138829395
8221168234.0,-0.0017722849,0.0091529791,0.009322983437280408,1.7620587726922796
8221176235.0,-0.0017906045,0.009173009,0.009346141374358791,1.7635757511023349
8221184237.0,-0.0017093601,0.0091649261,0.009322970683743097,1.7551887544871638
8221192238.0,-0.0017012364,0.0091648377,0.009321397714722093,1.7543337562568546
8221200240.0,-0.0016757246,0.0091711729,0.00932300730970107,1.7515192595162394
8221208242.0,-0.0016550422,0.0091818078,0.00932977808738888,1.7491336601220535
8221216243.0,-0.0016484158,0.0091683382,0.009315347551179659,1.7486901033345206
8221224245.0,-0.0015740407,0.0091719395,0.009306023765116698,1.7407555216449855
8221232246.0,-0.001571055,0.0091738269,0.009307379534766411,1.740405055655881
8221240248.0,-0.0015315351,0.0091761562,0.009303087786822742,1.7361756942995337
8221248250.0,-0.0014956288,0.0091708277,0.009291985052209066,1.732458591839061
8221256251.0,-0.0014549876,0.0091704457,0.009285152839496087,1.7281452626343843
8221264253.0,-0.0014469798,0.0092078256,0.009320826295003217,1.726668320069596
8221272254.0,-0.0014142119,0.009172104,0.009280489592953467,1.7237778260893593
8221280256.0,-0.0013916012,0.0092094333,0.009313979579481067,1.7207678218031413
8221288258.0,-0.0013781604,0.0092039275,0.009306535741799115,1.7194281918549985
8221296259.0,-0.0013348654,0.0092022702,0.00929858282051223,1.7148498186344519
8221304261.0,-0.0013014731,0.009189228,0.009280934406944573,1.7114908674736715
8221312262.0,-0.0012905394,0.009202605,0.00929265466532451,1.7101240315667208
8221320264.0,-0.0012571516,0.0091994745,0.009284975025358595,1.7066097980987127
8221328266.0,-0.0011977201,0.0092182641,0.00929574776203038,1.7000015383049205
8221336267.0,-0.0011807469,0.0092047397,0.009280161431064424,1.6983755791610553
8221344269.0,-0.0011722146,0.0091994276,0.009273810178998433,1.6975358940396907
8221352270.0,-0.0011139253,0.0091946342,0.009261864156085951,1.6913582765737034
8221360272.0,-0.0011193737,0.0092483296,0.00931582513095259,1.6912456617747038
8221368274.0,-0.0011112854,0.0092079957,0.00927481213025211,1.6909024477655927
8221376275.0,-0.0010614574,0.009204536,0.009265536940043504,1.6856081262307945
8221384277.0,-0.0010217758,0.009225481,0.009281892342988398,1.6811025853150707
8221392278.0,-0.0009765563,0.0092091197,0.009260753093350334,1.6764438135219948
8221400280.0,-0.0009841681,0.009211721,0.009264145434463916,1.6772312635139677
8221408282.0,-0.0009609736,0.009195551,0.009245627531622608,1.6749225549568807
8221416283.0,-0.0009110572,0.0092153368,0.009260262283494245,1.6693392563739966
8221424285.0,-0.0008729363,0.0092290743,0.009270265919528857,1.6651012311864941
8221432286.0,-0.0008638922,0.0092051695,0.009245618165214867,1.6643708404318582
8221440288.0,-0.0008261837,0.0091959173,0.009232955891510852,1.660398210349392
8221448290.0,-0.0007957533,0.0092149785,0.009249273056296,1.656936962612492
8221456291.0,-0.0007681113,0.0092207559,0.009252693355805785,1.6539068605456317
8221464293.0,-0.0007707446,0.0092321984,0.009264315114210641,1.6540875876466552
8221472294.0,-0.0007538718,0.0092268532,0.009257599184733884,1.6523193514977907
8221480296.0,-0.0006946544,0.0092394806,0.009265556998541195,1.645838420694102
8221488298.0,-0.0006573428,0.0092088332,0.009232264535970256,1.6420572261142488
8221496299.0,-0.0006182118,0.0092013105,0.009222055126004696,1.6378828662059326
8221504301.0,-0.000633068,0.0092190401,0.009240750805969828,1.6393583156913265
8221512302.0,-0.0005728134,0.009199013,0.00921683000631934,1.6329850387618206
8221520304.0,-0.0005756775,0.0092267823,0.009244723694929964,1.6331075669611754
8221528306.0,-0.000529117,0.0092179912,0.009233164493442452,1.6281338768823057
8221536307.0,-0.0004798919,0.0092191742,0.009231655819279184,1.622803063723255
8221544309.0,-0.0004839588,0.0092172341,0.009229930691738712,1.6232540155710187
8221552310.0,-0.0004441417,0.0092136756,0.00922437422873304,1.6189636579401587
8221560312.0,-0.0004097307,0.009213475,0.009222581028223471,1.6152378560045888
8221568314.0,-0.0004093617,0.00921177,0.009220861322800972,1.6152060923996638
8221576315.0,-0.000355501,0.0092132036,0.00922005973603501,1.6093632292366455
8221584317.0,-0.0003056157,0.0091947616,0.009199839228862701,1.6040221180880148
8221592318.0,-0.0002841642,0.0092081099,0.009212493539918477,1.601646745222935
8221600320.0,-0.0002870369,0.0091940792,0.00919855871959484,1.602005944695855
8221608322.0,-0.0002636018,0.0092046045,0.009208378245401494,1.599426538145288
8221616323.0,-0.0002196099,0.0091986873,0.009201308415185272,1.5946658402815188
8221624325.0,-0.0001810627,0.0091990337,0.009200815437506992,1.5904765811951636
8221632326.0,-0.000138781,0.0091850766,0.009186124989016236,1.585904577551427
8221640328.0,-0.0001335067,0.0091900386,0.009191008296614407,1.5853226324073066
8221648330.0,-0.0001141017,0.0092079813,0.009208688224665475,1.5831873011725268
8221656331.0,-6.63918e-05,0.0091939031,0.00919414281394937,1.5780174868691712
8221664333.0,-4.25807e-05,0.0091915857,0.009191684328590542,1.5754288675543724
8221672334.0,-2.89765e-05,0.0091780099,0.009178055641695047,1.573953482217474
8221680336.0,4.9798e-06,0.0091892733,0.009189274649312695,1.5702544123964506
8221688338.0,5.24038e-05,0.0091906901,0.009190839497700547,1.5650945534196394
8221696339.0,8.62205e-05,0.0092022009,0.00920260481486525,1.5614270489434834
8221704341.0,8.42983e-05,0.0091982498,0.00919863607208063,1.5616319811984758
8221712342.0,0.0001244555,0.0091721416,0.00917298592073109,1.5572283000162972
8221720344.0,0.0001501964,0.0091837247,0.009184952820998214,1.5544431568283148
8221728346.0,0.0001807561,0.0091774649,0.009179244781484979,1.551103226954019
8221736347.0,0.0002029965,0.0091530559,0.009155306651747776,1.5486219590399677
8221744349.0,0.0002303998,0.0091664431,0.00916933820803757,1.5456664813809344
8221752350.0,0.000276189,0.0091514689,0.009155635608268178,1.5406257392898433
8221760352.0,0.0003060291,0.0091325805,0.009137706517448841,1.5372992630549547
8221768354.0,0.0003164737,0.0091463358,0.009151809338549036,1.5362089795429512
8221776355.0,0.0003249732,0.0091457506,0.00915152236614863,1.535278571031182
8221784357.0,0.0003541409,0.0091548332,0.009161680342430369,1.5321321148148581
8221792358.0,0.0004017894,0.0091585653,0.00916737438290356,1.5269540958487995
8221800360.0,0.0004259146,0.0091392603,0.009149179311700544,1.5242272773099002
8221808362.0,0.0004370942,0.0091417276,0.009152171045837997,1.523019626790207
8221816363.0,0.000481342,0.0091086945,0.009121403708601778,1.5180011981500718
8221824365.0,0.0005247275,0.0091410787,0.009156126842112332,1.5134560166078852
8221832366.0,0.0005343804,0.0091123888,0.009128044262286944,1.512220130323157
8221840368.0,0.0005779479,0.0091332687,0.009151536533364991,1.5076011724101257
8221848370.0,0.0006035565,0.0091124433,0.009132409503762253,1.5046586073899568
8221856371.0,0.0006288726,0.00911223,0.00913390476849473,1.501891457835295
8221864373.0,0.000641694,0.0091264796,0.009149010934459098,1.5006006201563455
8221872374.0,0.0006653405,0.0091001079,0.009124398159472363,1.497812714769863
8221880376.0,0.0006960291,0.0091011003,0.009127676767869625,1.4944674390460908
8221888378.0,0.0007244769,0.0091112687,0.009140026482578336,1.4914488894728333
8221896379.0,0.0007337334,0.0091176025,0.009147078224782043,1.4904949965181529
8221904381.0,0.0007916956,0.0090533735,0.009087923506146033,1.4835706361648995
8221912382.0,0.0007966707,0.0090899805,0.009124824913093882,1.4833769708033033
8221920384.0,0.0008379765,0.0090923319,0.009130865457025959,1.4788929589321755
8221928386.0,0.0008810512,0.0090611121,0.009103845544921543,1.473866700684728
8221936387.0,0.0008647345,0.0090677892,0.009108927858487348,1.4757205209343571
8221944389.0,0.0008816277,0.0090439826,0.009086852517264163,1.473621120464208
8221952390.0,0.0009662067,0.0090375233,0.009089025403483464,1.4642903180099804
8221960392.0,0.0009751596,0.0090405729,0.009093013505196534,1.463346958198899
8221968394.0,0.0009868852,0.0090426123,0.0090963058219307,1.4620893851427654
8221976395.0,0.0010160459,0.009053253,0.00911008996404074,1.4590340725149986
8221984397.0,0.0010468048,0.0090623447,0.009122603342846883,1.455794530694858
8221992398.0,0.001098325,0.0090369163,0.009103415513906343,1.4498519176463898
8222000400.0,0.0011116717,0.009025555,0.009093759235135153,1.448244227324259
8222008402.0,0.0011284213,0.0090250873,0.009095357904058255,1.4464101972773542
