frequency,Re(S21),Im(S21),Amplitude,phase
7480000000.0,0.0032929734,-0.015464691,0.015811399101236693,-1.3609948007216566
7480004001.0,0.0032408205,-0.0155115407,0.015846476340214462,-1.3648295108673376
7480008002.0,0.0032065262,-0.0155292013,0.015856793600447984,-1.3671743300304147
7480012002.0,0.0031351784,-0.015574252,0.015886682125583383,-1.3721460525214468
7480016003.0,0.0031390821,-0.0155635854,0.015876996785715917,-1.3717724337721946
7480020004.0,0.0030665393,-0.0155415061,0.015841151319736256,-1.3759858680223318
7480024005.0,0.0030390724,-0.0155734998,0.015867257389764678,-1.3780744917135088
7480028006.0,0.002969622,-0.0155919672,0.015872242941335032,-1.382591935054229
7480032006.0,0.0029507506,-0.0156010799,0.015877676881382377,-1.383866876810068
7480036007.0,0.0029180523,-0.0155824778,0.015853348025355027,-1.3856754304505492
7480040008.0,0.0029084324,-0.0156083561,0.015877019845354386,-1.3865709911556343
7480044009.0,0.0028491595,-0.015615972,0.015873761096892706,-1.390329720408653
7480048010.0,0.0028195807,-0.0156190284,0.015871486492569593,-1.392197664411604
7480052010.0,0.0027803448,-0.0156093494,0.015855034086944355,-1.3945245184777364
7480056011.0,0.0027412726,-0.0156417518,0.0158801440434372,-1.397304650902219
7480060012.0,0.0027057481,-0.015648646,0.015880843630423715,-1.3995829513827711
7480064013.0,0.0026739286,-0.0156381069,0.015865064814671436,-1.4014460792657966
7480068014.0,0.0026595985,-0.0156529812,0.015877319818809334,-1.4024936141751523
7480072014.0,0.002597331,-0.0156506391,0.015864697682654083,-1.406338346627151
7480076015.0,0.0025742047,-0.0156453537,0.01585571260573317,-1.4077226398875626
7480080016.0,0.0025545054,-0.0156496711,0.015856787296826692,-1.4089926885403972
7480084017.0,0.0024890548,-0.015680689,0.015877008575677094,-1.4133759366002843
7480088018.0,0.0024990845,-0.0156869295,0.015884746786653872,-1.4128139286828725
7480092018.0,0.0024820648,-0.0156527065,0.015848276450344412,-1.4135347376845417
7480096019.0,0.0024225662,-0.0156929835,0.01587887143737409,-1.4176327940619076
7480100020.0,0.0024027485,-0.0156989575,0.015881765233784893,-1.4189234020460229
7480104021.0,0.0023657275,-0.0156776418,0.015855129107432822,-1.421028086619247
7480108022.0,0.002334479,-0.0156969218,0.01586956666694955,-1.423156403644006
7480112022.0,0.0023053514,-0.0156867586,0.015855252771626062,-1.4248792198106999
7480116023.0,0.0022603937,-0.0156864173,0.01584844053491507,-1.4276826733440886
7480120024.0,0.0022339228,-0.0157289581,0.015886803768786074,-1.4297137748171105
7480124025.0,0.0021870182,-0.0157285944,0.015879915944577373,-1.4326349172795754
7480128026.0,0.0021752587,-0.0157074831,0.015857388680003755,-1.4331860765316913
7480132026.0,0.0021588798,-0.0157159538,0.015863542033057513,-1.43428205166379
7480136027.0,0.0021224018,-0.0157228485,0.015865451596301806,-1.4366190138743407
7480140028.0,0.0020995629,-0.0157396487,0.015879065009328102,-1.4381859244954622
7480144029.0,0.0020544838,-0.0157222901,0.015855955022420456,-1.4408592526670065
7480148030.0,0.002050351,-0.015728957,0.01586203100271368,-1.4411720627139761
7480152030.0,0.0020041119,-0.015745573,0.01587260323973514,-1.4441960822268867
7480156031.0,0.001997102,-0.0157362557,0.015862476472927753,-1.444560298690107
7480160032.0,0.0019768222,-0.0157576218,0.015881135689938805,-1.4459964964437426
7480164033.0,0.0019155279,-0.0157454242,0.015861514126136383,-1.449735068791243
7480168034.0,0.001885174,-0.0157642572,0.015876576648573452,-1.4517761980372255
7480172034.0,0.0019005671,-0.0157605755,0.015874756545938038,-1.4507858605776291
7480176035.0,0.0018306836,-0.0157541931,0.01586020184850737,-1.4551122211082095
7480180036.0,0.0018447909,-0.0157757749,0.015883271928673667,-1.4543868099708395
7480184037.0,0.0017846331,-0.0157462608,0.01584707053316897,-1.4579409562335124
7480188038.0,0.0017399793,-0.0157747594,0.015870430431853978,-1.4609389346158512
7480192038.0,0.0017224228,-0.0157791991,0.015872928669259514,-1.4620689984186401
7480196039.0,0.0016948206,-0.0157894935,0.015880192752379507,-1.4638672324574362
7480200040.0,0.0016690865,-0.0157800781,0.015868103685903426,-1.465416394728744
7480204041.0,0.0016484636,-0.0157780137,0.015863894495296942,-1.4666954854097625
7480208042.0,0.0016163216,-0.0157714432,0.015854050464327807,-1.4686688143435824
7480212042.0,0.001591089,-0.0157618162,0.015841919521589025,-1.4701913357712821
7480216043.0,0.0015663254,-0.0157766695,0.01585423210915355,-1.4718394883430352
7480220044.0,0.0015584375,-0.015807192,0.015883829713462375,-1.4725235043875713
7480224045.0,0.0015332922,-0.0157782931,0.0158526186518218,-1.4739231833290005
7480228046.0,0.0014976875,-0.0158145775,0.015885336929104224,-1.4763749597135658
7480232046.0,0.0014693682,-0.0158088695,0.015877008464292054,-1.478116787354247
7480236047.0,0.0014566599,-0.0157924144,0.015859451776325542,-1.4788186333186772
7480240048.0,0.0014087847,-0.0157839902,0.015846735340903823,-1.4817781801360648
7480244049.0,0.0013976845,-0.0157597653,0.01582162204935462,-1.4823408683622321
7480248050.0,0.0013663051,-0.0158025307,0.0158614868833514,-1.4845496555160118
7480252050.0,0.0013369221,-0.0158033552,0.015859804421203796,-1.4863999194532063
7480256051.0,0.0013204837,-0.0158044504,0.01585951858184938,-1.487438552217408
7480260052.0,0.0012880741,-0.0158043797,0.015856782542144635,-1.4894749805717657
7480264053.0,0.0012585585,-0.0158037518,0.015853786312863105,-1.4913273500223843
7480268054.0,0.001240511,-0.0158330917,0.015881613907966968,-1.492606798462242
7480272054.0,0.0012411509,-0.0158115065,0.015860144808800235,-1.4924602700145877
7480276055.0,0.0012097499,-0.0157983999,0.0158446500188824,-1.49437126529318
7480280056.0,0.0011532611,-0.0158173343,0.015859321408015215,-1.498013898629802
7480284057.0,0.0011301273,-0.0158067662,0.015847114734729086,-1.4994213515686623
7480288058.0,0.0010975321,-0.0158169304,0.01585496338655421,-1.5015176722097994
7480292058.0,0.0010820493,-0.0158201637,0.015857124902781974,-1.5025058388505328
7480296059.0,0.0010579606,-0.0158234133,0.015858741724795483,-1.504035235451147
7480300060.0,0.00103826,-0.0158225121,0.015856540385035017,-1.5052711038808686
7480304061.0,0.0010072937,-0.0158393688,0.01587136555500103,-1.5072875413701587
7480308062.0,0.0009806786,-0.0158190265,0.01584939525421081,-1.5088819497145942
7480312062.0,0.0009593949,-0.015823418,0.015852476014076477,-1.5102391287798145
7480316063.0,0.0009450974,-0.0158252101,0.01585340606319755,-1.5111461737675056
7480320064.0,0.0009118432,-0.0158293048,0.01585554630003928,-1.5132551635680107
7480324065.0,0.000888765,-0.0158365191,0.0158614387881393,-1.5147339010133005
7480328066.0,0.0008508924,-0.0158214344,0.015844298796408793,-1.5170670992790645
7480332066.0,0.0008237372,-0.0158215172,0.015842946363746852,-1.5187789319438787
7480336067.0,0.0008171997,-0.0158114224,0.0158325264459246,-1.5191581379487036
7480340068.0,0.0007872057,-0.0158212617,0.01584083377205882,-1.5210811362213772
7480344069.0,0.0007634162,-0.0158277444,0.01584614454957905,-1.5226008921534524
7480348070.0,0.0007315951,-0.0158246936,0.01584159584524946,-1.524597988516188
7480352070.0,0.0007071457,-0.0157940835,0.015809906029006015,-1.5260533854634941
7480356071.0,0.0007011308,-0.0158470779,0.01586258057087109,-1.5265816232821114
7480360072.0,0.000642417,-0.0158171373,0.015830177888101583,-1.5302033867678417
7480364073.0,0.0006497841,-0.0158364438,0.015849768818729543,-1.5297883940314438
7480368074.0,0.0006001635,-0.0158238194,0.015835196766398222,-1.5328866445519114
7480372074.0,0.0005979474,-0.0158404699,0.015851751567128876,-1.5330661560557592
7480376075.0,0.0005584252,-0.0158540635,0.015863895113307682,-1.5355880386956267
7480380076.0,0.0005630958,-0.0158458445,0.01585584639173065,-1.535275408104889
7480384077.0,0.0005254642,-0.0158030278,0.015811761453837284,-1.537557717046371
7480388078.0,0.0004840811,-0.0158151782,0.015822584997690244,-1.5401972401405957
7480392078.0,0.0004797957,-0.0158176966,0.015824971710666345,-1.540472782036508
7480396079.0,0.0004250883,-0.0158237326,0.01582944135018983,-1.54393881493252
7480400080.0,0.0004017553,-0.0158230573,0.015828156861749928,-1.5454112832107227
7480404081.0,0.0003680368,-0.015835898,0.01584017413264634,-1.54755984477938
7480408082.0,0.0003783465,-0.0158204563,0.015824979735035112,-1.5468858662765197
7480412082.0,0.0003549139,-0.0158212039,0.015825184255539918,-1.5483672887955453
7480416083.0,0.0002995883,-0.015812786,0.01581562373829413,-1.5518526402070654
7480420084.0,0.0002650254,-0.015839245,0.015841462073706142,-1.5540656889765807
7480424085.0,0.0002620431,-0.0158382901,0.01584045769155726,-1.554252925188435
7480428086.0,0.0002523767,-0.0158263946,0.015828406743371617,-1.5548511088793595
7480432086.0,0.0002103246,-0.0158290639,0.01583046115524271,-1.5575098668386307
7480436087.0,0.0001657858,-0.0158202228,0.015821091440640922,-1.560317351005655
7480440088.0,0.0001786647,-0.0158199716,0.015820980453177758,-1.5595031899219582
7480444089.0,0.0001270096,-0.0158227663,0.015823276045841703,-1.5627694830794507
7480448090.0,9.05787e-05,-0.015816046,0.015816305370566466,-1.5650693764729067
7480452090.0,7.82539e-05,-0.0158187925,0.015818986055715502,-1.5658494724966112
7480456091.0,4.56262e-05,-0.0158448754,0.01584494109145413,-1.5679167791341915
7480460092.0,3.43315e-05,-0.0157988955,0.01579893280167406,-1.5686232985625364
7480464093.0,1.55209e-05,-0.015823438,0.01582344561207137,-1.5698154467217853
7480468094.0,-9.5256e-06,-0.0158262548,0.01582625766666202,-1.57139821264661
7480472094.0,-3.6328e-05,-0.0158153266,0.015815368322876694,-1.5730933350721803
7480476095.0,-6.75025e-05,-0.015791097,0.015791241276445475,-1.5750710196070428
7480480096.0,-8.19431e-05,-0.0158120789,0.015812291225861697,-1.5759785907442556
7480484097.0,-0.000116046,-0.0158460178,0.01584644271727989,-1.578119550014579
7480488098.0,-0.0001195092,-0.0158281702,0.01582862136539543,-1.5783465949273232
7480492098.0,-0.0001633584,-0.0158148364,0.01581568007787258,-1.5811253992096939
7480496099.0,-0.0001663762,-0.0158180924,0.015818967356147625,-1.5813140340368628
7480500100.0,-0.0002190547,-0.015840719,0.015842233535665138,-1.5846240285770032
7480504101.0,-0.0002408501,-0.0158341758,0.015836007452510736,-1.5860059297854063
7480508102.0,-0.0002737616,-0.0158226329,0.01582500102059387,-1.5880964998614684
7480512102.0,-0.0002865321,-0.0158130687,0.015815664461389226,-1.5889142994868275
7480516103.0,-0.0003102641,-0.0158076435,0.015810688056970862,-1.590421280216735
7480520104.0,-0.000341869,-0.0158051117,0.0158088086288195,-1.5924232348997147
7480524105.0,-0.0003500114,-0.0158174013,0.01582127339582284,-1.5929209654348342
7480528106.0,-0.0003691774,-0.015793684,0.01579799817206366,-1.5941670732062079
7480532106.0,-0.0004136161,-0.0157757598,0.01578118105673575,-1.597008779953111
7480536107.0,-0.0004103066,-0.0158070511,0.015812375406118295,-1.5967476875587048
7480540108.0,-0.0004451769,-0.0158068116,0.01581307925200491,-1.598952495420539
7480544109.0,-0.0004804414,-0.0158010992,0.015808401559521273,-1.6011925302612269
7480548110.0,-0.0004851191,-0.0158085377,0.015815979411769165,-1.6014738578877634
7480552110.0,-0.0005278816,-0.0157881507,0.01579697317556528,-1.6042191786638513
7480556111.0,-0.0005628781,-0.015803576,0.01581359687557627,-1.6063984121908021
7480560112.0,-0.0005615156,-0.0157838613,0.01579384618472274,-1.60635663006723
7480564113.0,-0.000595663,-0.0158248773,0.015836083984673243,-1.6084194886097278
7480568114.0,-0.0006352278,-0.0157784709,0.015791252588064054,-1.6110337455654564
7480572114.0,-0.0006566376,-0.0157805076,0.015794163258982464,-1.6123830128390246
7480576115.0,-0.0006793424,-0.0157928945,0.015807498941469773,-1.6137855240833208
7480580116.0,-0.0006933784,-0.0157809734,0.015796198753405648,-1.6147057046405249
7480584117.0,-0.0007146889,-0.0157769098,0.01579308909178693,-1.6160650548553972
7480588118.0,-0.0007506777,-0.015751539,0.01576941653574406,-1.618417714948861
7480592118.0,-0.0007586854,-0.0158014645,0.015819667628649264,-1.6187730952864938
7480596119.0,-0.0007983739,-0.0157861699,0.015806345592700017,-1.6213275364470838
7480600120.0,-0.0008298119,-0.015765156,0.01578697980912491,-1.6233836168887246
7480604121.0,-0.0008721963,-0.0157649193,0.01578902805498952,-1.6260651182687902
7480608122.0,-0.0008815729,-0.0157617095,0.015786344008047102,-1.6266694123738483
7480612122.0,-0.000871417,-0.0157572152,0.015781292673510625,-1.626042779762291
7480616123.0,-0.0009040967,-0.0157712052,0.015797097970939405,-1.6280594386168972
7480620124.0,-0.0009531397,-0.0157452881,0.01577411083515384,-1.631257462503804
7480624125.0,-0.0009542431,-0.0157594907,0.015788354157963525,-1.6312728663639602
7480628126.0,-0.0009975751,-0.0157567192,0.015788266403496894,-1.634023031889813
7480632126.0,-0.0010150102,-0.0157326749,0.015765383129350014,-1.6352230976130295
7480636127.0,-0.0010373616,-0.0157428902,0.015777031119269893,-1.6365951777523884
7480640128.0,-0.0010560525,-0.0157630607,0.015798396422252507,-1.637691758590922
7480644129.0,-0.0010934909,-0.0157570417,0.015794938603360308,-1.6400822105647987
7480648130.0,-0.0011163831,-0.015738287,0.015777832199650704,-1.6416119315205302
7480652130.0,-0.0011228313,-0.0157559228,0.01579588090002642,-1.6419401305132357
7480656131.0,-0.0011768512,-0.0157328932,0.015776847187874633,-1.6454592363201792
7480660132.0,-0.0012007806,-0.0157507701,0.015796475328135398,-1.6468854556959165
7480664133.0,-0.0012277689,-0.0157464357,0.015794228494169688,-1.6486101178816932
7480668134.0,-0.0012366822,-0.015740703,0.01578920877681988,-1.649201152076004
7480672134.0,-0.0012586478,-0.0157263904,0.015776677384597083,-1.6506602143970843
7480676135.0,-0.0012894038,-0.0157305951,0.01578335149325385,-1.6525813868031105
7480680136.0,-0.0013058221,-0.0157405181,0.015794590257847022,-1.653566076801078
7480684137.0,-0.0013267096,-0.0157489993,0.015804782102709695,-1.6548387809876757
7480688138.0,-0.0013480684,-0.0157267733,0.015784444457777772,-1.6563053610863727
7480692138.0,-0.0013568517,-0.0157177793,0.015776236327442024,-1.6569087585306121
7480696139.0,-0.0014034388,-0.0156940259,0.01575665222739958,-1.65998412559154
7480700140.0,-0.0014087656,-0.0157192274,0.015782228314425505,-1.6601780741527759
7480704141.0,-0.0014456102,-0.0157246812,0.01579099071280765,-1.6624712001165942
7480708142.0,-0.0014910813,-0.0157100164,0.015780619085811513,-1.665425630277797
7480712142.0,-0.0014838449,-0.0157012927,0.015771251952154255,-1.6650211133575124
7480716143.0,-0.0015338876,-0.0156954744,0.015770248184809557,-1.6682149895256229
7480720144.0,-0.0015414354,-0.0156908899,0.015766421564397396,-1.6687197281934683
7480724145.0,-0.0015533119,-0.0156849061,0.01576163244161273,-1.6695067420402194
7480728146.0,-0.0016055157,-0.0157012712,0.015783142841617314,-1.6726960293864521
7480732146.0,-0.0016211685,-0.0156902123,0.015773742400726074,-1.673754532600807
7480736147.0,-0.00164019,-0.0156942844,0.015779758745436617,-1.6749270638224039
7480740148.0,-0.0016687768,-0.0156802355,0.015768785664840475,-1.6768227235224509
7480744149.0,-0.0017093713,-0.0156595228,0.015752542796798982,-1.679524418934786
7480748150.0,-0.0017072486,-0.0156744442,0.01576714618315932,-1.6792878925552275
7480752150.0,-0.0017556201,-0.0156740119,0.015772027484659848,-1.6823397504349542
7480756151.0,-0.0017578694,-0.0156762349,0.01577448716971282,-1.6824657687643445
7480760152.0,-0.0018058006,-0.0156653462,0.01576908327623438,-1.6855633581810805
7480764153.0,-0.0018098095,-0.0156505971,0.015754891304379688,-1.6859233431773368
7480768154.0,-0.001834622,-0.0156529948,0.01576014226115079,-1.6874698282848364
7480772154.0,-0.0018573521,-0.015636196,0.015746122766376186,-1.6890277424270619
7480776155.0,-0.0018831509,-0.0156553807,0.01576823395863035,-1.6905089323102866
7480780156.0,-0.0019156893,-0.0156488245,0.01576564536344563,-1.6926077067441017
7480784157.0,-0.001936308,-0.0156437116,0.015763089839712217,-1.6939454644828642
7480788158.0,-0.0019733598,-0.0156388891,0.015762899516978304,-1.6963158163431225
7480792158.0,-0.0019708724,-0.0156529542,0.015776543132270116,-1.6960477827773026
7480796159.0,-0.0020002112,-0.0156361967,0.01576361291346931,-1.6980271771231903
7480800160.0,-0.0020240086,-0.0156228178,0.01575338207575982,-1.6996333514707769
7480804161.0,-0.002027702,-0.0156062032,0.015737380777006517,-1.7000017385553086
7480808162.0,-0.0020795688,-0.0156246861,0.015762468782442255,-1.7031137571646486
7480812162.0,-0.0021379435,-0.0156167165,0.01576238042462383,-1.7068515184715312
7480816163.0,-0.0021057187,-0.0156258544,0.01576709792490454,-1.7047479954161266
7480820164.0,-0.0021387234,-0.0155663579,0.015712594822390093,-1.707335405664189
7480824165.0,-0.0021860194,-0.0156210888,0.015773303272132375,-1.7098336869813973
7480828166.0,-0.0022094467,-0.0155944567,0.01575019791902044,-1.7115411051882425
7480832166.0,-0.0022400405,-0.0156014724,0.015761463209029866,-1.7134005221911068
7480836167.0,-0.0022501422,-0.0155990914,0.015760545435541715,-1.7140564355165617
7480840168.0,-0.0022695984,-0.0155645103,0.015729114971163784,-1.7155946059879528
7480844169.0,-0.002272885,-0.0155686459,0.015733681749126992,-1.7157633820249816
7480848170.0,-0.0023227793,-0.0155547176,0.015727191207976658,-1.7190305333296665
7480852170.0,-0.0023550696,-0.0155892762,0.015766162667584356,-1.7207324168277947
7480856171.0,-0.0023653781,-0.0155700302,0.015748677848786915,-1.721562182780563
7480860172.0,-0.0023846476,-0.0155460491,0.01572787928475408,-1.723002476818112
7480864173.0,-0.0024154334,-0.015557135,0.01574353098634676,-1.7248285643939487
7480868174.0,-0.0024418311,-0.0155353004,0.015726032482453016,-1.7267003098361031
7480872174.0,-0.0024579425,-0.015572372,0.015765159404195386,-1.7273447542830307
7480876175.0,-0.0024901362,-0.0155443748,0.015742565426811014,-1.729642034361804
7480880176.0,-0.0024835426,-0.0155557511,0.01575275773098685,-1.729114502787575
7480884177.0,-0.0025240704,-0.0155453199,0.015748901618128554,-1.7317601196387427
7480888178.0,-0.0025978442,-0.0155374404,0.015753121870633317,-1.73646288677889
7480892178.0,-0.0025720267,-0.015540031,0.015751440722247406,-1.734819148210764
7480896179.0,-0.0026116203,-0.015525077,0.015743207311323226,-1.7374554631148045
7480900180.0,-0.0026397076,-0.0154953974,0.015718632154148288,-1.7395308135289984
7480904181.0,-0.0026579154,-0.0154951954,0.015721501033862457,-1.7406746700236775
7480908182.0,-0.0026713209,-0.0154770961,0.01570593706339778,-1.7417107398335425
7480912182.0,-0.0026771305,-0.0154931938,0.015722788615204007,-1.741900718779646
7480916183.0,-0.0027386834,-0.0155000012,0.015740089706397387,-1.7456805640495652
7480920184.0,-0.0027662011,-0.0155034363,0.015748282624902275,-1.7473633055766897
7480924185.0,-0.0027726278,-0.0154940485,0.015740171658456748,-1.7478700190739445
7480928186.0,-0.0027793479,-0.0154707415,0.01571841650132279,-1.7485520562312962
7480932186.0,-0.0028002018,-0.0154614006,0.015712925845761623,-1.7499634407899995
7480936187.0,-0.0028337431,-0.015505402,0.01576222037463002,-1.7515598468411975
7480940188.0,-0.0028560442,-0.0154731785,0.015734555645623295,-1.7533222683757606
7480944189.0,-0.0028895835,-0.0154434304,0.01571143645002316,-1.755765195555546
7480948190.0,-0.0029153296,-0.0154586515,0.01573114912760948,-1.7571959573585862
7480952190.0,-0.0029470856,-0.0154413649,0.015720084716968907,-1.759384847196859
7480956191.0,-0.002973863,-0.0154615663,0.015744964070840705,-1.7608148555532575
7480960192.0,-0.0029881369,-0.01542895,0.01571564380595468,-1.762098764627048
7480964193.0,-0.0030092883,-0.0154318016,0.015722478071038274,-1.7633850346875863
7480968194.0,-0.0030295747,-0.0154328906,0.015727442103992895,-1.7646378077674458
7480972194.0,-0.0030661517,-0.0154250841,0.015726872090135586,-1.7670156339051166
7480976195.0,-0.0030704635,-0.0154190775,0.01572182231981517,-1.767359113291357
7480980196.0,-0.0030889209,-0.0154028631,0.01570953926771242,-1.7687129816478981
7480984197.0,-0.0031235388,-0.0154102889,0.015723660471295118,-1.7707787863085869
