frequency,Re(S21),Im(S21),Amplitude,phase
7990000000.0,0.0119723724,-0.0092671057,0.015139912448203069,-0.6587105757346358
7990001200.0,0.0119095343,-0.009302354,0.015111942204236771,-0.6631002825827027
7990002400.0,0.0119001395,-0.0093728615,0.015148064325769234,-0.6671502618566069
7990003601.0,0.0119011941,-0.009367164,0.015145368348401791,-0.6668116486343484
7990004801.0,0.0119046738,-0.0093720132,0.015151101930400332,-0.6669211028428104
7990006001.0,0.011898844,-0.0093946912,0.015160564345686259,-0.6683343040393734
7990007201.0,0.0118967654,-0.0094390034,0.015186435136919023,-0.6707092359455974
7990008402.0,0.0118586314,-0.0094423682,0.015158675928505009,-0.6724467100380197
7990009602.0,0.0118982721,-0.0094450282,0.015191360592930235,-0.6709582746789854
7990010802.0,0.0118557593,-0.0094512691,0.015161975998534995,-0.6730239574019105
7990012002.0,0.0118417564,-0.0094594175,0.015156113422518557,-0.6740202761255037
7990013203.0,0.011854619,-0.0094539066,0.015162728700226901,-0.6732068517441462
7990014403.0,0.0118474175,-0.0094587126,0.015160097145754213,-0.673750882988338
7990015603.0,0.0118460311,-0.0094649366,0.015162898062843619,-0.6741287117916537
7990016803.0,0.011818753,-0.0095101371,0.015169892225583062,-0.677578999653583
7990018004.0,0.0118234846,-0.0094810279,0.01515535146827732,-0.6758868541445163
7990019204.0,0.0118064384,-0.0094801425,0.01514150222115695,-0.6765455190759605
7990020404.0,0.0118094239,-0.0094775676,0.015142218478890765,-0.6762894810212905
7990021604.0,0.0117932759,-0.0095162753,0.015153905504486654,-0.6789485508027626
7990022805.0,0.0117982159,-0.0095175149,0.015158528566280265,-0.6788075411512969
7990024005.0,0.0117987899,-0.0094887183,0.01514091206239231,-0.6773034422035706
7990025205.0,0.0117868527,-0.009533855,0.015159956719348585,-0.6801170715504529
7990026405.0,0.0117865587,-0.0095363149,0.01516127527157619,-0.6802554149229886
7990027606.0,0.0117791377,-0.009507704,0.015137520282634712,-0.6790944112396476
7990028806.0,0.0117503019,-0.0095101401,0.01511662526699566,-0.6804179258598126
7990030006.0,0.0117689601,-0.0095194717,0.015136999811141338,-0.680121654227214
7990031206.0,0.0117508213,-0.0095330904,0.015131477581489054,-0.6815752969416911
7990032406.0,0.0117395634,-0.0095428575,0.01512889546820672,-0.682545468150877
7990033607.0,0.0117380418,-0.009545602,0.015129446217259614,-0.682749667872939
7990034807.0,0.0117464387,-0.0095839183,0.015160155411932049,-0.6843610969001039
7990036007.0,0.0117184843,-0.0095571415,0.01512156830293633,-0.6841577367911585
7990037207.0,0.0117192587,-0.0095586152,0.015123099848218842,-0.6842008899515588
7990038408.0,0.0117316957,-0.0095763135,0.015143924994785226,-0.6845874468759884
7990039608.0,0.0116930569,-0.009554647,0.015100293340238349,-0.6850939784581997
7990040808.0,0.0117061201,-0.0095939274,0.015135279672080552,-0.6865575442396816
7990042008.0,0.0116869701,-0.0095861911,0.015115565815543037,-0.6869647578995067
7990043209.0,0.0116564439,-0.0096121499,0.01510847808662134,-0.6895745667391744
7990044409.0,0.0116906998,-0.0096026887,0.01512891576031897,-0.6876515337262397
7990045609.0,0.0116678212,-0.0096053095,0.015112909122533612,-0.6887464121277159
7990046809.0,0.0116617898,-0.0096130079,0.015113148653568073,-0.6893933240042301
7990048010.0,0.0116514867,-0.0096220287,0.015110942347315755,-0.6902876576660868
7990049210.0,0.0116905827,-0.0096117082,0.015134551806627329,-0.688116961702462
7990050410.0,0.0116415804,-0.0096230229,0.01510393868974542,-0.6907560465350704
7990051610.0,0.0116506047,-0.0096617054,0.015135558830517334,-0.6923460470721026
7990052811.0,0.0116291382,-0.0096629572,0.015119841173892373,-0.6933160708107231
7990054011.0,0.0116156805,-0.009639921,0.015094770960975898,-0.6927120763453715
7990055211.0,0.0116371778,-0.0096642425,0.015126846672311421,-0.6930417589476827
7990056411.0,0.0116277574,-0.0096644406,0.015119727321092239,-0.6934498950497477
7990057612.0,0.0116248307,-0.0096580172,0.01511337106800327,-0.6932468194344319
7990058812.0,0.0116171337,-0.0096719382,0.015116354849906605,-0.694280558468054
7990060012.0,0.0115973123,-0.0096708755,0.01510044653380262,-0.6950663419275872
7990061212.0,0.0115950052,-0.0096714227,0.015099025221189026,-0.6951920325940418
7990062412.0,0.0115921094,-0.0096841211,0.01510493964969849,-0.6959604135343912
7990063613.0,0.0115979235,-0.0096922501,0.015114613508548681,-0.696126541105092
7990064813.0,0.0115822394,-0.0096982101,0.01510640753662678,-0.697095052858455
7990066013.0,0.0115685511,-0.0096970269,0.015095155025790057,-0.697617115958101
7990067213.0,0.0115402653,-0.0097033697,0.01507756965592473,-0.699144655394457
7990068414.0,0.0115781986,-0.0096933729,0.015100204005227756,-0.6970212415691459
7990069614.0,0.0115499689,-0.009707854,0.015087882915647352,-0.6989582389949808
7990070814.0,0.0115519359,-0.0097188462,0.015096462979683792,-0.6994317977926602
7990072014.0,0.0115211807,-0.0097214653,0.015074630751735069,-0.7008781907020063
7990073215.0,0.0115450781,-0.0097436397,0.015107195071836324,-0.7009798768069103
7990074415.0,0.0115083531,-0.0097175384,0.015062295430303914,-0.7012281469060475
7990075615.0,0.0115078224,-0.0097466649,0.015080698029694573,-0.7027265196901518
7990076815.0,0.011503266,-0.0097585833,0.015084928792997164,-0.7035246363165635
7990078016.0,0.0114980857,-0.0097335983,0.015064823617630159,-0.7024823705847597
7990079216.0,0.0114995058,-0.0097430197,0.015071996102667415,-0.702898589419054
7990080416.0,0.011468874,-0.0097632701,0.015061756666253442,-0.7052390791835161
7990081616.0,0.0114726756,-0.0097573892,0.015060840926824503,-0.7047781283015344
7990082817.0,0.0114455064,-0.009763833,0.015044336196865914,-0.7062744107714843
7990084017.0,0.0114647026,-0.0097735534,0.015065249807723013,-0.7059383211757718
7990085217.0,0.0114449346,-0.0097571321,0.015039553012477717,-0.7059601165681155
7990086417.0,0.0114317784,-0.0097878784,0.015049522283444519,-0.7080819712600552
7990087618.0,0.0114705246,-0.0097885791,0.015079430207940949,-0.7064461383405376
7990088818.0,0.0114193798,-0.0098065687,0.015052276395431614,-0.7095608928883492
7990090018.0,0.0114144244,-0.0098361821,0.015067832050022184,-0.7112661552293797
7990091218.0,0.0114357843,-0.0098204776,0.015073783295783055,-0.7095518982134327
7990092418.0,0.011418638,-0.009832635,0.015068709460941538,-0.7109052970965323
7990093619.0,0.0114472465,-0.0098272089,0.015086864723858348,-0.7093954159809814
7990094819.0,0.0113897338,-0.0098253865,0.01504208283148463,-0.7117939948518917
7990096019.0,0.0114002047,-0.0098591215,0.015072058384761663,-0.7130349886788689
7990097219.0,0.01141508,-0.0098349031,0.015067493832512081,-0.7111734483811706
7990098420.0,0.0114054514,-0.0098254979,0.015054060270261523,-0.7111176139141456
7990099620.0,0.0113739338,-0.009860791,0.015053290976808475,-0.7142604634048143
7990100820.0,0.0113566787,-0.0098694693,0.015045948802208392,-0.7154475099267404
7990102020.0,0.0113630235,-0.0098576586,0.015042996248610387,-0.7145782269707965
7990103221.0,0.0113847643,-0.0098603657,0.015061197492373937,-0.7137680747941779
7990104421.0,0.0113281352,-0.0098754282,0.0150283308867896,-0.7169926612019404
7990105621.0,0.0113562271,-0.0099169337,0.015076785730286483,-0.7178434040396957
7990106821.0,0.0113440753,-0.0098876027,0.015048346472789537,-0.7169064317120287
7990108022.0,0.0113532334,-0.0098722944,0.015045202070931013,-0.7157394533343178
7990109222.0,0.0113065105,-0.0098867243,0.015019470598886659,-0.718505689384128
7990110422.0,0.011304648,-0.0099094253,0.015033022855706171,-0.7197240142390702
7990111622.0,0.0112915533,-0.0099008555,0.015017526945493426,-0.7198696669241607
7990112823.0,0.0113051112,-0.0099108628,0.015034318763575198,-0.7197756062961668
7990114023.0,0.0113116432,-0.0098988781,0.015031335919430643,-0.7188895945934248
7990115223.0,0.0113026041,-0.0099182541,0.015037307732220673,-0.7202551227030247
7990116423.0,0.0112728923,-0.0099496614,0.015035752817270218,-0.7231285516219409
7990117624.0,0.0112897241,-0.0099360509,0.01503938089621749,-0.7217094441604444
7990118824.0,0.0112717762,-0.0099186522,0.01501441308101823,-0.7216293083075948
7990120024.0,0.0112376357,-0.0099639428,0.015018808616118201,-0.7253948983039011
7990121224.0,0.0112693499,-0.0099325954,0.015021807432820167,-0.7224328347989393
7990122424.0,0.0112420577,-0.0099438557,0.015008801668106345,-0.7241980261097529
7990123625.0,0.0112539455,-0.0099607258,0.015028883783560104,-0.724514759207706
7990124825.0,0.0112558246,-0.0099904768,0.015050023724808657,-0.7259122831604712
7990126025.0,0.0112350579,-0.0099905208,0.015034527989650524,-0.7268313821016756
7990127225.0,0.0112225467,-0.0099874868,0.015023163681923165,-0.7272338604305861
7990128426.0,0.0111877343,-0.0100212285,0.015019667753203089,-0.7304529174302579
7990129626.0,0.0112299911,-0.0100068411,0.01504159462645927,-0.7278660338176985
7990130826.0,0.0112044525,-0.0099983104,0.015016856085063358,-0.7285733245721198
7990132026.0,0.0111738183,-0.009996777,0.014992990555227598,-0.7298574130379084
7990133227.0,0.0111695419,-0.0099947365,0.014988443013211474,-0.7299461897390392
7990134427.0,0.0112001097,-0.0100046855,0.01501786233942582,-0.7290825903746676
7990135627.0,0.0111827161,-0.0099931662,0.014997216744250303,-0.7292823898963233
7990136827.0,0.0111626502,-0.010017549,0.014998534843609261,-0.7313860441276765
7990138028.0,0.011158208,-0.0100398871,0.015010161183412068,-0.732691298339157
7990139228.0,0.0111756033,-0.010033125,0.015018578707207813,-0.7315818701809611
7990140428.0,0.0111790417,-0.0100390435,0.015025091271777058,-0.731722105668296
7990141628.0,0.0111314065,-0.0100286888,0.014982750405565985,-0.7333321842885275
7990142829.0,0.0111225443,-0.0100566145,0.01499488202377974,-0.7351114090540363
7990144029.0,0.0111524831,-0.0100503404,0.015012901833145308,-0.7334639652765779
7990145229.0,0.0111597077,-0.0100389343,0.01501063882148777,-0.7325772860052002
7990146429.0,0.0111048543,-0.0100739139,0.01499338288342033,-0.7367585419602399
7990147630.0,0.0110930365,-0.0100829897,0.01499073514143447,-0.7377366304984588
7990148830.0,0.011087295,-0.0100868937,0.014989113880817794,-0.7381870073467396
7990150030.0,0.0111209154,-0.0100735926,0.0150050667177701,-0.7360235052413023
7990151230.0,0.0110633187,-0.0101044827,0.01498324368394137,-0.7401321952926216
7990152430.0,0.0110921739,-0.0100933623,0.014997075859876903,-0.7382871276486265
7990153631.0,0.0111029417,-0.0100982581,0.015008335385638692,-0.7380455337012958
7990154831.0,0.0110839605,-0.0100868073,0.014986589400957562,-0.7383324731189468
7990156031.0,0.0110390116,-0.0100950508,0.01495893805587533,-0.7407624563613796
7990157231.0,0.0110573005,-0.0101282063,0.014994814343720964,-0.7415710668794021
7990158432.0,0.011065992,-0.0101229917,0.014997704487765216,-0.7409232384152632
7990159632.0,0.0110648823,-0.0101202003,0.014995001648048373,-0.7408358353584104
7990160832.0,0.0110327805,-0.0101387644,0.014983884313484524,-0.7431959865341101
7990162032.0,0.0110222385,-0.0101288896,0.014969440406370254,-0.7431867861630257
7990163233.0,0.0110428263,-0.0101370551,0.014990126710351973,-0.7426585653927965
7990164433.0,0.0110028461,-0.0101387973,0.014961879326834997,-0.7445513764858998
7990165633.0,0.0110066003,-0.0101481516,0.014970979629287546,-0.7448409416263619
7990166833.0,0.0110289732,-0.0101743866,0.015005212178858978,-0.7451156648718092
7990168034.0,0.0109830463,-0.010160459,0.014962026370736842,-0.7465128109845852
7990169234.0,0.0109980212,-0.0101516844,0.0149670694016181,-0.7454030212488821
7990170434.0,0.010974267,-0.0101628262,0.014957191332556238,-0.7470275830745845
7990171634.0,0.0109732243,-0.0101833411,0.014970373659233083,-0.7480803624011967
7990172835.0,0.0109529793,-0.0102061618,0.014971088612188752,-0.7501175435148097
7990174035.0,0.0109582256,-0.010172333,0.014951891751995275,-0.7482230678308525
7990175235.0,0.0109474577,-0.0101803047,0.014949429215797217,-0.7491039214339622
7990176435.0,0.0109526625,-0.0102198533,0.014980194168048262,-0.7508006316090505
7990177636.0,0.0109255809,-0.0102042821,0.014949772278493917,-0.7512749502143853
7990178836.0,0.01093261,-0.0101998133,0.014951861180701114,-0.7507356363760719
7990180036.0,0.0109377692,-0.010222074,0.014970824691176656,-0.7515877774386562
7990181236.0,0.0109119173,-0.0102168465,0.014948374211485394,-0.7525131241836835
7990182436.0,0.0109239537,-0.010231712,0.014967320898901303,-0.7526884954261017
7990183637.0,0.0109221387,-0.0102417762,0.014972878598082738,-0.7532619411864481
7990184837.0,0.0109065965,-0.0102461563,0.014964543632795554,-0.7541858798756725
7990186037.0,0.0108854052,-0.0102757899,0.014969432335166523,-0.7565979591098466
7990187237.0,0.0108737759,-0.0102536977,0.014945812752955461,-0.756057208511965
7990188438.0,0.0109047617,-0.0102634263,0.014975037467376119,-0.7551102957124429
7990189638.0,0.010880121,-0.0102640944,0.014957562195316198,-0.7562718809401917
7990190838.0,0.0108390613,-0.0102841045,0.01494148771816508,-0.7591317801486878
7990192038.0,0.0108610903,-0.0102664504,0.014945343298847781,-0.757260342372301
7990193239.0,0.0108605223,-0.0102407442,0.014927283289287134,-0.7560349985620618
7990194439.0,0.0108621853,-0.0102541817,0.014937714411118958,-0.7566131141334075
7990195639.0,0.0108333188,-0.0103008801,0.01494887711692786,-0.7602102630026086
7990196839.0,0.0108155922,-0.010294652,0.014931741172341717,-0.7607260426177231
7990198040.0,0.0108306135,-0.0103154546,0.01495696467840462,-0.7610410574963922
7990199240.0,0.0108241019,-0.0102864122,0.014932228831955812,-0.7599334366557594
7990200440.0,0.0107915961,-0.0102974844,0.014916324324503627,-0.7619727079772776
7990201640.0,0.0108062428,-0.0103046372,0.014931859605426768,-0.7616421079394274
7990202841.0,0.0107978835,-0.0102921458,0.014917189857611582,-0.7614228152918949
7990204041.0,0.0107856507,-0.0103283911,0.014933382863134854,-0.7637448893409644
7990205241.0,0.0107796202,-0.0103206762,0.01492369152996317,-0.763650997473969
7990206441.0,0.0107765466,-0.0103295277,0.01492759522250784,-0.7642216968098553
7990207642.0,0.010753646,-0.0103262535,0.01490880322626797,-0.7651260576614457
7990208842.0,0.0107602464,-0.0103436944,0.014925646265046761,-0.7656626115724074
7990210042.0,0.0107477261,-0.0103613805,0.0149288921955516,-0.7670978877250356
7990211242.0,0.0107536455,-0.0103279557,0.014909981907461617,-0.7652084276308178
7990212442.0,0.0107279146,-0.0103572427,0.014911761398694537,-0.7678202190313919
7990213643.0,0.0107419875,-0.0103497799,0.014916710073893648,-0.7668050130252292
7990214843.0,0.010688813,-0.0103638862,0.014888279300023876,-0.769965415292506
7990216043.0,0.0106831751,-0.010363282,0.014883811475182827,-0.7701999536526981
7990217243.0,0.0107024395,-0.0103898178,0.014916116289716874,-0.7705776154474864
7990218444.0,0.0107010917,-0.0103714619,0.014902368453201005,-0.7697568261228787
7990219644.0,0.0106763662,-0.0103689724,0.0148828889624449,-0.7707929366279481
7990220844.0,0.0106602589,-0.0104063458,0.014897421009161513,-0.7733458745155063
7990222044.0,0.0106571945,-0.010393344,0.014886147725760558,-0.7728646748166229
7990223245.0,0.0106739819,-0.0103911143,0.014896615253042958,-0.7719707098934764
7990224445.0,0.010654231,-0.0104211803,0.014903477347467237,-0.7743406709300344
7990225645.0,0.01066025,-0.0104137283,0.014902572501709926,-0.7737007775204628
7990226845.0,0.0106488245,-0.010418908,0.014898023598594018,-0.7744853908380002
7990228046.0,0.0106425331,-0.010412402,0.014888976667125233,-0.7744685673044147
7990229246.0,0.0106571798,-0.0104481473,0.014924451859013962,-0.7754942341926899
7990230446.0,0.0106265664,-0.0104353047,0.014893605931252883,-0.77631746767113
7990231646.0,0.0106089436,-0.0104586382,0.014897409080322666,-0.7782638443611518
7990232847.0,0.0106305988,-0.0104627115,0.014915695182551623,-0.7774390639232436
7990234047.0,0.0106003809,-0.0104366566,0.014875882367490285,-0.777615651504795
7990235247.0,0.0106149352,-0.0104511959,0.014896454109632125,-0.7776256871904932
7990236447.0,0.0105936396,-0.01046208,0.014888932732103002,-0.7791500801910934
7990237648.0,0.0105962098,-0.0104706026,0.014896750683714311,-0.7794359082052721
7990238848.0,0.010575365,-0.0104455348,0.014864304293885942,-0.779221998226626
7990240048.0,0.0105609293,-0.0104805423,0.014878675834283364,-0.7815777742899264
7990241248.0,0.0105474432,-0.0104754597,0.014865524342704845,-0.7819741253837738
7990242448.0,0.0105259742,-0.0105111553,0.014875500616778708,-0.7846937470677897
7990243649.0,0.0105563565,-0.010500074,0.014889197982449165,-0.7827252333411346
7990244849.0,0.0105480817,-0.010500899,0.01488391438291943,-0.7831566001765199
7990246049.0,0.0105381567,-0.0105019089,0.014877595140937734,-0.7836753662908426
7990247249.0,0.0104878493,-0.0105171736,0.014852808605514562,-0.7867942238106521
7990248450.0,0.0105291814,-0.0105371406,0.014896140204035216,-0.7857759796874152
7990249650.0,0.010516554,-0.0104928032,0.014855868437383464,-0.7842676771262089
7990250850.0,0.0105003187,-0.0105418355,0.014879078886497978,-0.7873711907658759
7990252050.0,0.0104817447,-0.0105231475,0.014852730565883647,-0.787369263557634
7990253251.0,0.0104890358,-0.0105457014,0.014873859285055899,-0.788092062654915
7990254451.0,0.010480313,-0.0105363864,0.01486110355754491,-0.7880661973204571
7990255651.0,0.0104945693,-0.0105474703,0.014879015912414523,-0.7879122204732968
7990256851.0,0.0104443271,-0.0105648668,0.014855987987122789,-0.7911355742630709
7990258052.0,0.0104374699,-0.0105669431,0.014852645030163605,-0.7915621804643941
7990259252.0,0.0104753984,-0.010571524,0.014882576770213504,-0.7899653362034645
7990260452.0,0.0104512424,-0.0105469616,0.0148481267066062,-0.7899565788224614
7990261652.0,0.0104184514,-0.0105978359,0.014861300593739794,-0.7939334551591456
7990262853.0,0.0104034676,-0.0105927372,0.014847162001288786,-0.7944123864597185
7990264053.0,0.0104469674,-0.0106030144,0.014884993860370588,-0.7928111931594058
7990265253.0,0.0104132591,-0.0105913266,0.01485301869087898,-0.7938755138621446
7990266453.0,0.0103988303,-0.0106030777,0.014851293826479744,-0.7951230398792007
7990267654.0,0.0103996559,-0.0105995052,0.0148493216452211,-0.7949148895985377
7990268854.0,0.0104150939,-0.0105993513,0.014860027891179373,-0.7941660693095118
7990270054.0,0.010384664,-0.0106240696,0.014856382509162186,-0.7967931975985066
7990271254.0,0.0103607062,-0.0106094339,0.014829171272906238,-0.797258648628863
7990272454.0,0.0103725214,-0.0105954464,0.014827430141758581,-0.7960294560152865
7990273655.0,0.0103633903,-0.0106326773,0.014847682818408717,-0.7982230523747079
7990274855.0,0.0103526043,-0.0106393509,0.014844938644727006,-0.7990571467786077
7990276055.0,0.0103488929,-0.0106333549,0.014838053129876048,-0.7989546029474468
7990277255.0,0.0103474725,-0.0106655365,0.014860143201567356,-0.800533535600255
7990278456.0,0.0103487347,-0.0106329657,0.01483766388176928,-0.7989439490112902
7990279656.0,0.0103238985,-0.0106313742,0.014819210424942615,-0.8000700620267871
7990280856.0,0.0102912378,-0.0106411263,0.014803484197603635,-0.8021117996489457
7990282056.0,0.0102888451,-0.0106725081,0.014824397547163918,-0.803699470615721
7990283257.0,0.0102832916,-0.0106579232,0.014810044330376894,-0.8032859337811926
7990284457.0,0.010296514,-0.0106742565,0.01483097948147688,-0.8034090254053696
7990285657.0,0.0102770756,-0.0106700363,0.014814450969625335,-0.804155623330928
7990286857.0,0.0102723269,-0.0106817793,0.01481961905564283,-0.8049361143112211
7990288058.0,0.0102629406,-0.0107008403,0.014826865241352686,-0.8062835194264207
7990289258.0,0.0103038783,-0.0106854191,0.014844126426430612,-0.8035740354257398
7990290458.0,0.0102667892,-0.010689456,0.014821316744917525,-0.8055644430847583
7990291658.0,0.0102393685,-0.0107130853,0.014819408352693044,-0.808003444488176
7990292859.0,0.0102373365,-0.0107078184,0.014814197025205611,-0.8078569514246131
7990294059.0,0.0102431621,-0.0107104024,0.014820090734432167,-0.8076933141726462
7990295259.0,0.010210366,-0.0107176403,0.01480268176561734,-0.8096324349977153
7990296459.0,0.0102216636,-0.0107320148,0.014820882174114468,-0.8097495115886901
