Frequenza (Hz),Re(S21),Im(S21)
4000000000.000,0.146,-0.908
4000110110.110,0.143,-0.909
4000220220.220,0.142,-0.908
4000330330.330,0.139,-0.909
4000440440.440,0.138,-0.909
4000550550.551,0.135,-0.910
4000660660.661,0.134,-0.909
4000770770.771,0.131,-0.909
4000880880.881,0.129,-0.909
4000990990.991,0.126,-0.909
4001101101.101,0.126,-0.910
4001211211.211,0.124,-0.911
4001321321.321,0.121,-0.910
4001431431.431,0.120,-0.912
4001541541.542,0.116,-0.912
4001651651.652,0.114,-0.913
4001761761.762,0.112,-0.911
4001871871.872,0.111,-0.910
4001981981.982,0.111,-0.912
4002092092.092,0.106,-0.914
4002202202.202,0.104,-0.914
4002312312.312,0.102,-0.912
4002422422.422,0.100,-0.913
4002532532.533,0.096,-0.913
4002642642.643,0.095,-0.914
4002752752.753,0.094,-0.913
4002862862.863,0.091,-0.913
4002972972.973,0.090,-0.914
4003083083.083,0.087,-0.914
4003193193.193,0.085,-0.914
4003303303.303,0.083,-0.914
4003413413.413,0.080,-0.915
4003523523.524,0.079,-0.915
4003633633.634,0.076,-0.917
4003743743.744,0.076,-0.916
4003853853.854,0.072,-0.915
4003963963.964,0.071,-0.915
4004074074.074,0.068,-0.915
4004184184.184,0.067,-0.915
4004294294.294,0.065,-0.916
4004404404.404,0.064,-0.917
4004514514.515,0.061,-0.916
4004624624.625,0.059,-0.915
4004734734.735,0.057,-0.915
4004844844.845,0.054,-0.917
4004954954.955,0.053,-0.916
4005065065.065,0.049,-0.916
4005175175.175,0.047,-0.918
4005285285.285,0.045,-0.915
4005395395.395,0.045,-0.917
4005505505.506,0.042,-0.915
4005615615.616,0.039,-0.917
4005725725.726,0.037,-0.917
4005835835.836,0.036,-0.916
4005945945.946,0.034,-0.917
4006056056.056,0.030,-0.918
4006166166.166,0.032,-0.918
4006276276.276,0.028,-0.916
4006386386.386,0.027,-0.916
4006496496.496,0.022,-0.916
4006606606.607,0.020,-0.916
4006716716.717,0.017,-0.917
4006826826.827,0.017,-0.917
4006936936.937,0.014,-0.917
4007047047.047,0.013,-0.916
4007157157.157,0.010,-0.916
4007267267.267,0.009,-0.915
4007377377.377,0.007,-0.915
4007487487.487,0.007,-0.916
4007597597.598,0.002,-0.915
4007707707.708,0.001,-0.916
4007817817.818,-0.002,-0.916
4007927927.928,-0.004,-0.917
4008038038.038,-0.006,-0.915
4008148148.148,-0.007,-0.917
4008258258.258,-0.008,-0.917
4008368368.368,-0.013,-0.916
4008478478.478,-0.015,-0.915
4008588588.589,-0.015,-0.916
4008698698.699,-0.017,-0.914
4008808808.809,-0.020,-0.914
4008918918.919,-0.023,-0.914
4009029029.029,-0.026,-0.916
4009139139.139,-0.024,-0.915
4009249249.249,-0.030,-0.914
4009359359.359,-0.030,-0.914
4009469469.469,-0.032,-0.915
4009579579.580,-0.034,-0.915
4009689689.690,-0.035,-0.914
4009799799.800,-0.038,-0.915
4009909909.910,-0.040,-0.914
4010020020.020,-0.042,-0.916
4010130130.130,-0.044,-0.914
4010240240.240,-0.047,-0.914
4010350350.350,-0.049,-0.914
4010460460.460,-0.051,-0.915
4010570570.571,-0.053,-0.912
4010680680.681,-0.055,-0.914
4010790790.791,-0.056,-0.913
4010900900.901,-0.058,-0.912
4011011011.011,-0.062,-0.913
4011121121.121,-0.062,-0.913
4011231231.231,-0.065,-0.911
4011341341.341,-0.067,-0.913
4011451451.451,-0.067,-0.912
4011561561.562,-0.071,-0.912
4011671671.672,-0.074,-0.912
4011781781.782,-0.076,-0.911
4011891891.892,-0.076,-0.910
4012002002.002,-0.080,-0.910
4012112112.112,-0.081,-0.909
4012222222.222,-0.083,-0.912
4012332332.332,-0.085,-0.909
4012442442.442,-0.087,-0.908
4012552552.553,-0.089,-0.910
4012662662.663,-0.092,-0.910
4012772772.773,-0.093,-0.909
4012882882.883,-0.095,-0.908
4012992992.993,-0.095,-0.910
4013103103.103,-0.101,-0.907
4013213213.213,-0.101,-0.907
4013323323.323,-0.104,-0.907
4013433433.433,-0.107,-0.908
4013543543.544,-0.106,-0.906
4013653653.654,-0.110,-0.905
4013763763.764,-0.113,-0.905
4013873873.874,-0.115,-0.907
4013983983.984,-0.115,-0.905
4014094094.094,-0.119,-0.906
4014204204.204,-0.118,-0.904
4014314314.314,-0.123,-0.904
4014424424.424,-0.124,-0.906
4014534534.535,-0.127,-0.903
4014644644.645,-0.128,-0.903
4014754754.755,-0.129,-0.905
4014864864.865,-0.132,-0.903
4014974974.975,-0.134,-0.902
4015085085.085,-0.135,-0.902
4015195195.195,-0.139,-0.903
4015305305.305,-0.139,-0.901
4015415415.415,-0.143,-0.903
4015525525.526,-0.145,-0.899
4015635635.636,-0.148,-0.901
4015745745.746,-0.147,-0.900
4015855855.856,-0.150,-0.900
4015965965.966,-0.152,-0.900
4016076076.076,-0.156,-0.899
4016186186.186,-0.156,-0.898
4016296296.296,-0.160,-0.898
4016406406.406,-0.161,-0.899
4016516516.517,-0.164,-0.897
4016626626.627,-0.164,-0.898
4016736736.737,-0.164,-0.895
4016846846.847,-0.166,-0.895
4016956956.957,-0.171,-0.895
4017067067.067,-0.173,-0.896
4017177177.177,-0.174,-0.894
4017287287.287,-0.177,-0.895
4017397397.397,-0.179,-0.894
4017507507.508,-0.181,-0.895
4017617617.618,-0.182,-0.893
4017727727.728,-0.184,-0.893
4017837837.838,-0.186,-0.891
4017947947.948,-0.188,-0.892
4018058058.058,-0.191,-0.889
4018168168.168,-0.193,-0.890
4018278278.278,-0.195,-0.891
4018388388.388,-0.196,-0.889
4018498498.498,-0.198,-0.889
4018608608.609,-0.200,-0.889
4018718718.719,-0.202,-0.888
4018828828.829,-0.204,-0.886
4018938938.939,-0.207,-0.886
4019049049.049,-0.207,-0.886
4019159159.159,-0.210,-0.887
4019269269.269,-0.212,-0.886
4019379379.379,-0.213,-0.885
4019489489.489,-0.217,-0.885
4019599599.600,-0.216,-0.884
4019709709.710,-0.220,-0.886
4019819819.820,-0.223,-0.884
4019929929.930,-0.223,-0.883
4020040040.040,-0.226,-0.882
4020150150.150,-0.229,-0.883
4020260260.260,-0.231,-0.882
4020370370.370,-0.233,-0.879
4020480480.480,-0.231,-0.879
4020590590.591,-0.236,-0.878
4020700700.701,-0.239,-0.878
4020810810.811,-0.238,-0.877
4020920920.921,-0.240,-0.877
4021031031.031,-0.245,-0.877
4021141141.141,-0.247,-0.877
4021251251.251,-0.247,-0.875
4021361361.361,-0.250,-0.875
4021471471.471,-0.251,-0.875
4021581581.582,-0.253,-0.873
4021691691.692,-0.254,-0.873
4021801801.802,-0.256,-0.873
4021911911.912,-0.260,-0.871
4022022022.022,-0.261,-0.871
4022132132.132,-0.261,-0.871
4022242242.242,-0.265,-0.871
4022352352.352,-0.267,-0.871
4022462462.462,-0.268,-0.868
4022572572.573,-0.270,-0.868
4022682682.683,-0.274,-0.867
4022792792.793,-0.275,-0.866
4022902902.903,-0.278,-0.866
4023013013.013,-0.277,-0.865
4023123123.123,-0.280,-0.864
4023233233.233,-0.283,-0.864
4023343343.343,-0.283,-0.862
4023453453.453,-0.286,-0.861
4023563563.564,-0.287,-0.862
4023673673.674,-0.289,-0.859
4023783783.784,-0.293,-0.860
4023893893.894,-0.294,-0.860
4024004004.004,-0.295,-0.858
4024114114.114,-0.297,-0.859
4024224224.224,-0.301,-0.857
4024334334.334,-0.303,-0.857
4024444444.444,-0.304,-0.857
4024554554.555,-0.305,-0.854
4024664664.665,-0.308,-0.856
4024774774.775,-0.308,-0.853
4024884884.885,-0.310,-0.852
4024994994.995,-0.313,-0.851
4025105105.105,-0.315,-0.853
4025215215.215,-0.316,-0.851
4025325325.325,-0.318,-0.851
4025435435.435,-0.321,-0.850
4025545545.546,-0.322,-0.850
4025655655.656,-0.324,-0.849
4025765765.766,-0.328,-0.847
4025875875.876,-0.329,-0.846
4025985985.986,-0.329,-0.846
4026096096.096,-0.331,-0.844
4026206206.206,-0.333,-0.845
4026316316.316,-0.335,-0.842
4026426426.426,-0.338,-0.842
4026536536.537,-0.340,-0.843
4026646646.647,-0.339,-0.840
4026756756.757,-0.344,-0.838
4026866866.867,-0.345,-0.839
4026976976.977,-0.347,-0.839
4027087087.087,-0.348,-0.838
4027197197.197,-0.351,-0.837
4027307307.307,-0.353,-0.835
4027417417.417,-0.352,-0.836
4027527527.528,-0.356,-0.835
4027637637.638,-0.359,-0.834
4027747747.748,-0.359,-0.833
4027857857.858,-0.361,-0.830
4027967967.968,-0.362,-0.831
4028078078.078,-0.366,-0.829
4028188188.188,-0.368,-0.831
4028298298.298,-0.369,-0.828
4028408408.408,-0.372,-0.828
4028518518.519,-0.374,-0.825
4028628628.629,-0.374,-0.825
4028738738.739,-0.378,-0.826
4028848848.849,-0.377,-0.825
4028958958.959,-0.381,-0.823
4029069069.069,-0.383,-0.822
4029179179.179,-0.384,-0.821
4029289289.289,-0.385,-0.820
4029399399.399,-0.389,-0.820
4029509509.510,-0.390,-0.818
4029619619.620,-0.391,-0.817
4029729729.730,-0.393,-0.817
4029839839.840,-0.394,-0.816
4029949949.950,-0.397,-0.813
4030060060.060,-0.397,-0.814
4030170170.170,-0.399,-0.812
4030280280.280,-0.403,-0.812
4030390390.390,-0.405,-0.812
4030500500.501,-0.407,-0.810
4030610610.611,-0.408,-0.808
4030720720.721,-0.407,-0.810
4030830830.831,-0.409,-0.804
4030940940.941,-0.412,-0.807
4031051051.051,-0.413,-0.804
4031161161.161,-0.416,-0.805
4031271271.271,-0.419,-0.802
4031381381.381,-0.420,-0.801
4031491491.491,-0.424,-0.802
4031601601.602,-0.424,-0.800
4031711711.712,-0.426,-0.799
4031821821.822,-0.426,-0.797
4031931931.932,-0.428,-0.796
4032042042.042,-0.429,-0.795
4032152152.152,-0.434,-0.794
4032262262.262,-0.435,-0.793
4032372372.372,-0.437,-0.795
4032482482.482,-0.437,-0.792
4032592592.593,-0.438,-0.790
4032702702.703,-0.441,-0.790
4032812812.813,-0.443,-0.788
4032922922.923,-0.445,-0.787
4033033033.033,-0.446,-0.787
4033143143.143,-0.447,-0.786
4033253253.253,-0.450,-0.786
4033363363.363,-0.451,-0.784
4033473473.473,-0.453,-0.782
4033583583.584,-0.455,-0.781
4033693693.694,-0.457,-0.780
4033803803.804,-0.460,-0.781
4033913913.914,-0.461,-0.778
4034024024.024,-0.462,-0.777
4034134134.134,-0.464,-0.776
4034244244.244,-0.465,-0.775
4034354354.354,-0.468,-0.774
4034464464.464,-0.469,-0.774
4034574574.575,-0.470,-0.771
4034684684.685,-0.471,-0.772
4034794794.795,-0.475,-0.769
4034904904.905,-0.477,-0.768
4035015015.015,-0.478,-0.767
4035125125.125,-0.480,-0.766
4035235235.235,-0.482,-0.764
4035345345.345,-0.482,-0.764
4035455455.455,-0.485,-0.763
4035565565.566,-0.485,-0.761
4035675675.676,-0.488,-0.759
4035785785.786,-0.490,-0.759
4035895895.896,-0.490,-0.758
4036006006.006,-0.493,-0.757
4036116116.116,-0.495,-0.754
4036226226.226,-0.498,-0.755
4036336336.336,-0.498,-0.753
4036446446.446,-0.500,-0.753
4036556556.557,-0.501,-0.750
4036666666.667,-0.504,-0.751
4036776776.777,-0.504,-0.749
4036886886.887,-0.507,-0.748
4036996996.997,-0.509,-0.748
4037107107.107,-0.510,-0.745
4037217217.217,-0.509,-0.745
4037327327.327,-0.513,-0.742
4037437437.437,-0.516,-0.742
4037547547.548,-0.516,-0.739
4037657657.658,-0.519,-0.740
4037767767.768,-0.520,-0.740
4037877877.878,-0.523,-0.737
4037987987.988,-0.524,-0.736
4038098098.098,-0.525,-0.734
4038208208.208,-0.526,-0.736
4038318318.318,-0.529,-0.732
4038428428.428,-0.531,-0.730
4038538538.539,-0.530,-0.729
4038648648.649,-0.533,-0.729
4038758758.759,-0.534,-0.728
4038868868.869,-0.535,-0.727
4038978978.979,-0.538,-0.724
4039089089.089,-0.539,-0.723
4039199199.199,-0.540,-0.722
4039309309.309,-0.541,-0.721
4039419419.419,-0.544,-0.720
4039529529.530,-0.547,-0.718
4039639639.640,-0.548,-0.717
4039749749.750,-0.550,-0.715
4039859859.860,-0.550,-0.715
4039969969.970,-0.552,-0.714
4040080080.080,-0.551,-0.712
4040190190.190,-0.554,-0.711
4040300300.300,-0.558,-0.709
4040410410.410,-0.559,-0.708
4040520520.521,-0.559,-0.709
4040630630.631,-0.561,-0.707
4040740740.741,-0.564,-0.704
4040850850.851,-0.565,-0.704
4040960960.961,-0.566,-0.702
4041071071.071,-0.568,-0.698
4041181181.181,-0.569,-0.700
4041291291.291,-0.572,-0.698
4041401401.401,-0.572,-0.695
4041511511.512,-0.574,-0.696
4041621621.622,-0.575,-0.693
4041731731.732,-0.579,-0.693
4041841841.842,-0.578,-0.689
4041951951.952,-0.581,-0.690
4042062062.062,-0.581,-0.690
4042172172.172,-0.584,-0.687
4042282282.282,-0.584,-0.686
4042392392.392,-0.586,-0.684
4042502502.503,-0.587,-0.685
4042612612.613,-0.589,-0.682
4042722722.723,-0.590,-0.680
4042832832.833,-0.594,-0.680
4042942942.943,-0.594,-0.676
4043053053.053,-0.594,-0.675
4043163163.163,-0.598,-0.675
4043273273.273,-0.601,-0.673
4043383383.383,-0.601,-0.671
4043493493.493,-0.601,-0.672
4043603603.604,-0.603,-0.671
4043713713.714,-0.604,-0.668
4043823823.824,-0.606,-0.666
4043933933.934,-0.606,-0.664
4044044044.044,-0.609,-0.665
4044154154.154,-0.608,-0.662
4044264264.264,-0.612,-0.662
4044374374.374,-0.614,-0.659
4044484484.484,-0.615,-0.658
4044594594.595,-0.616,-0.657
4044704704.705,-0.617,-0.655
4044814814.815,-0.618,-0.652
4044924924.925,-0.621,-0.651
4045035035.035,-0.622,-0.650
4045145145.145,-0.623,-0.649
4045255255.255,-0.625,-0.649
4045365365.365,-0.626,-0.646
4045475475.475,-0.627,-0.646
4045585585.586,-0.630,-0.644
4045695695.696,-0.631,-0.643
4045805805.806,-0.632,-0.643
4045915915.916,-0.632,-0.639
4046026026.026,-0.635,-0.637
4046136136.136,-0.638,-0.639
4046246246.246,-0.639,-0.636
4046356356.356,-0.639,-0.634
4046466466.466,-0.643,-0.632
4046576576.577,-0.640,-0.631
4046686686.687,-0.643,-0.628
4046796796.797,-0.646,-0.627
4046906906.907,-0.646,-0.626
4047017017.017,-0.649,-0.626
4047127127.127,-0.648,-0.624
4047237237.237,-0.652,-0.623
4047347347.347,-0.650,-0.622
4047457457.457,-0.653,-0.618
4047567567.568,-0.654,-0.616
4047677677.678,-0.656,-0.616
4047787787.788,-0.656,-0.614
4047897897.898,-0.659,-0.613
4048008008.008,-0.661,-0.611
4048118118.118,-0.661,-0.610
4048228228.228,-0.663,-0.609
4048338338.338,-0.664,-0.608
4048448448.448,-0.666,-0.604
4048558558.559,-0.667,-0.604
4048668668.669,-0.667,-0.600
4048778778.779,-0.671,-0.602
4048888888.889,-0.670,-0.597
4048998998.999,-0.672,-0.598
4049109109.109,-0.674,-0.596
4049219219.219,-0.674,-0.592
4049329329.329,-0.676,-0.592
4049439439.439,-0.677,-0.591
4049549549.550,-0.678,-0.590
4049659659.660,-0.679,-0.589
4049769769.770,-0.683,-0.587
4049879879.880,-0.685,-0.586
4049989989.990,-0.686,-0.584
4050100100.100,-0.685,-0.583
4050210210.210,-0.685,-0.579
4050320320.320,-0.688,-0.580
4050430430.430,-0.687,-0.577
4050540540.541,-0.691,-0.575
4050650650.651,-0.691,-0.574
4050760760.761,-0.695,-0.573
4050870870.871,-0.693,-0.571
4050980980.981,-0.696,-0.571
4051091091.091,-0.696,-0.567
4051201201.201,-0.698,-0.565
4051311311.311,-0.700,-0.563
4051421421.421,-0.701,-0.562
4051531531.532,-0.702,-0.562
4051641641.642,-0.702,-0.559
4051751751.752,-0.702,-0.556
4051861861.862,-0.706,-0.558
4051971971.972,-0.705,-0.554
4052082082.082,-0.709,-0.554
4052192192.192,-0.710,-0.552
4052302302.302,-0.711,-0.550
4052412412.412,-0.713,-0.548
4052522522.523,-0.713,-0.547
4052632632.633,-0.713,-0.546
4052742742.743,-0.716,-0.542
4052852852.853,-0.717,-0.542
4052962962.963,-0.717,-0.543
4053073073.073,-0.721,-0.538
4053183183.183,-0.719,-0.536
4053293293.293,-0.722,-0.537
4053403403.403,-0.723,-0.533
4053513513.514,-0.725,-0.531
4053623623.624,-0.726,-0.532
4053733733.734,-0.725,-0.528
4053843843.844,-0.726,-0.527
4053953953.954,-0.728,-0.526
4054064064.064,-0.729,-0.525
4054174174.174,-0.731,-0.520
4054284284.284,-0.732,-0.520
4054394394.394,-0.732,-0.519
4054504504.505,-0.735,-0.517
4054614614.615,-0.734,-0.514
4054724724.725,-0.737,-0.513
4054834834.835,-0.737,-0.511
4054944944.945,-0.737,-0.510
4055055055.055,-0.739,-0.508
4055165165.165,-0.741,-0.506
4055275275.275,-0.741,-0.505
4055385385.385,-0.743,-0.503
4055495495.495,-0.747,-0.504
4055605605.606,-0.746,-0.501
4055715715.716,-0.746,-0.498
4055825825.826,-0.748,-0.497
4055935935.936,-0.749,-0.497
4056046046.046,-0.749,-0.494
4056156156.156,-0.751,-0.492
4056266266.266,-0.752,-0.490
4056376376.376,-0.753,-0.490
4056486486.486,-0.753,-0.487
4056596596.597,-0.754,-0.484
4056706706.707,-0.755,-0.484
4056816816.817,-0.757,-0.481
4056926926.927,-0.758,-0.479
4057037037.037,-0.759,-0.478
4057147147.147,-0.759,-0.477
4057257257.257,-0.762,-0.475
4057367367.367,-0.762,-0.474
4057477477.477,-0.763,-0.470
4057587587.588,-0.767,-0.469
4057697697.698,-0.766,-0.468
4057807807.808,-0.765,-0.466
4057917917.918,-0.767,-0.465
4058028028.028,-0.768,-0.460
4058138138.138,-0.770,-0.461
4058248248.248,-0.768,-0.459
4058358358.358,-0.775,-0.458
4058468468.468,-0.772,-0.456
4058578578.579,-0.774,-0.453
4058688688.689,-0.774,-0.453
4058798798.799,-0.777,-0.450
4058908908.909,-0.776,-0.449
4059019019.019,-0.778,-0.449
4059129129.129,-0.778,-0.445
4059239239.239,-0.778,-0.444
4059349349.349,-0.781,-0.440
4059459459.459,-0.782,-0.441
4059569569.570,-0.780,-0.438
4059679679.680,-0.784,-0.435
4059789789.790,-0.785,-0.435
4059899899.900,-0.784,-0.433
4060010010.010,-0.786,-0.431
4060120120.120,-0.787,-0.429
4060230230.230,-0.789,-0.428
4060340340.340,-0.790,-0.425
4060450450.450,-0.788,-0.423
4060560560.561,-0.791,-0.422
4060670670.671,-0.792,-0.420
4060780780.781,-0.792,-0.418
4060890890.891,-0.797,-0.417
4061001001.001,-0.793,-0.415
4061111111.111,-0.794,-0.413
4061221221.221,-0.797,-0.412
4061331331.331,-0.796,-0.409
4061441441.441,-0.798,-0.407
4061551551.552,-0.799,-0.406
4061661661.662,-0.801,-0.405
4061771771.772,-0.801,-0.404
4061881881.882,-0.803,-0.401
4061991991.992,-0.803,-0.400
4062102102.102,-0.803,-0.398
4062212212.212,-0.804,-0.395
4062322322.322,-0.805,-0.394
4062432432.432,-0.805,-0.392
4062542542.543,-0.809,-0.391
4062652652.653,-0.807,-0.388
4062762762.763,-0.812,-0.387
4062872872.873,-0.812,-0.386
4062982982.983,-0.810,-0.383
4063093093.093,-0.812,-0.381
4063203203.203,-0.813,-0.379
4063313313.313,-0.813,-0.377
4063423423.423,-0.814,-0.376
4063533533.534,-0.813,-0.373
4063643643.644,-0.818,-0.372
4063753753.754,-0.818,-0.372
4063863863.864,-0.820,-0.369
4063973973.974,-0.819,-0.366
4064084084.084,-0.820,-0.365
4064194194.194,-0.820,-0.362
4064304304.304,-0.822,-0.362
4064414414.414,-0.823,-0.359
4064524524.525,-0.824,-0.357
4064634634.635,-0.825,-0.355
4064744744.745,-0.824,-0.354
4064854854.855,-0.824,-0.352
4064964964.965,-0.827,-0.349
4065075075.075,-0.828,-0.348
4065185185.185,-0.828,-0.347
4065295295.295,-0.829,-0.345
4065405405.405,-0.831,-0.342
4065515515.516,-0.832,-0.339
4065625625.626,-0.833,-0.339
4065735735.736,-0.830,-0.338
4065845845.846,-0.833,-0.335
4065955955.956,-0.835,-0.333
4066066066.066,-0.833,-0.331
4066176176.176,-0.836,-0.329
4066286286.286,-0.838,-0.330
4066396396.396,-0.837,-0.325
4066506506.507,-0.840,-0.325
4066616616.617,-0.839,-0.321
4066726726.727,-0.838,-0.319
4066836836.837,-0.838,-0.318
4066946946.947,-0.841,-0.316
4067057057.057,-0.840,-0.313
4067167167.167,-0.841,-0.311
4067277277.277,-0.844,-0.310
4067387387.387,-0.844,-0.308
4067497497.497,-0.843,-0.308
4067607607.608,-0.847,-0.304
4067717717.718,-0.844,-0.302
4067827827.828,-0.846,-0.300
4067937937.938,-0.847,-0.300
4068048048.048,-0.848,-0.297
4068158158.158,-0.849,-0.295
4068268268.268,-0.848,-0.293
4068378378.378,-0.851,-0.292
4068488488.488,-0.851,-0.288
4068598598.599,-0.853,-0.286
4068708708.709,-0.851,-0.287
4068818818.819,-0.852,-0.283
4068928928.929,-0.852,-0.281
4069039039.039,-0.854,-0.280
4069149149.149,-0.856,-0.278
4069259259.259,-0.855,-0.276
4069369369.369,-0.856,-0.274
4069479479.479,-0.857,-0.271
4069589589.590,-0.857,-0.270
4069699699.700,-0.859,-0.269
4069809809.810,-0.858,-0.264
4069919919.920,-0.860,-0.264
4070030030.030,-0.860,-0.262
4070140140.140,-0.861,-0.261
4070250250.250,-0.860,-0.258
4070360360.360,-0.862,-0.255
4070470470.470,-0.860,-0.253
4070580580.581,-0.863,-0.252
4070690690.691,-0.863,-0.250
4070800800.801,-0.861,-0.249
4070910910.911,-0.866,-0.245
4071021021.021,-0.864,-0.244
4071131131.131,-0.865,-0.243
4071241241.241,-0.866,-0.241
4071351351.351,-0.867,-0.238
4071461461.461,-0.866,-0.236
4071571571.572,-0.866,-0.234
4071681681.682,-0.869,-0.233
4071791791.792,-0.870,-0.231
4071901901.902,-0.870,-0.230
4072012012.012,-0.870,-0.228
4072122122.122,-0.871,-0.224
4072232232.232,-0.871,-0.223
4072342342.342,-0.873,-0.221
4072452452.452,-0.871,-0.219
4072562562.563,-0.873,-0.216
4072672672.673,-0.873,-0.214
4072782782.783,-0.873,-0.211
4072892892.893,-0.875,-0.210
4073003003.003,-0.874,-0.208
4073113113.113,-0.876,-0.207
4073223223.223,-0.876,-0.204
4073333333.333,-0.877,-0.202
4073443443.443,-0.878,-0.202
4073553553.554,-0.875,-0.199
4073663663.664,-0.876,-0.197
4073773773.774,-0.878,-0.196
4073883883.884,-0.879,-0.193
4073993993.994,-0.878,-0.191
4074104104.104,-0.879,-0.189
4074214214.214,-0.879,-0.187
4074324324.324,-0.880,-0.184
4074434434.434,-0.879,-0.183
4074544544.545,-0.881,-0.181
4074654654.655,-0.882,-0.179
4074764764.765,-0.881,-0.177
4074874874.875,-0.882,-0.173
4074984984.985,-0.885,-0.173
4075095095.095,-0.884,-0.171
4075205205.205,-0.884,-0.168
4075315315.315,-0.885,-0.165
4075425425.425,-0.883,-0.166
4075535535.536,-0.885,-0.163
4075645645.646,-0.886,-0.160
4075755755.756,-0.886,-0.159
4075865865.866,-0.884,-0.158
4075975975.976,-0.886,-0.157
