frequency,Re(S21),Im(S21),Amplitude,phase
8396400000.0,0.0095451765,0.0033312562,0.010109780526113844,0.3357827020468225
8396402603.0,0.0095457644,0.0032860841,0.010095541921689006,0.33153892725406836
8396405205.0,0.0095715978,0.0032842054,0.010119362112028307,0.3305324284030786
8396407808.0,0.0095720352,0.0032363935,0.010104360482330453,0.32604268996283453
8396410410.0,0.0095428156,0.0031974726,0.010064251616655565,0.3233091004111105
8396413013.0,0.0095512365,0.0031851645,0.010068336087506837,0.32188425887295735
8396415616.0,0.0095128857,0.0031535316,0.010021963674523224,0.3201005941164207
8396418218.0,0.0095312025,0.0031185188,0.010028408677450262,0.3162118433617052
8396420821.0,0.0095302854,0.0030978167,0.01002111810689067,0.3142768778818187
8396423423.0,0.0095190119,0.0030687887,0.010001452476395082,0.3118651009192772
8396426026.0,0.0095082107,0.0030625163,0.009989248059957274,0.3115992491493924
8396428629.0,0.0094980588,0.0030522448,0.009976438206463491,0.31093122628656894
8396431231.0,0.0095055783,0.0029912788,0.009965127579552624,0.30487575450087234
8396433834.0,0.0095008433,0.00295973,0.009951182094809385,0.30199442683846656
8396436436.0,0.0094832621,0.0029579041,0.009933854071914548,0.3023453297822564
8396439039.0,0.0094664787,0.0029092083,0.009903419202999668,0.29815589865491054
8396441642.0,0.0094535814,0.0028781941,0.009882014094490087,0.29553930724399236
8396444244.0,0.0094488648,0.0028671376,0.009874286000821164,0.29460724877922173
8396446847.0,0.009457759,0.0028482627,0.009877337987043487,0.2925171846766713
8396449449.0,0.0094433257,0.002812258,0.00985318199034426,0.28944068913617704
8396452052.0,0.0094290166,0.0027748101,0.009828831320871142,0.28620467768515084
8396454655.0,0.0094400256,0.0027374533,0.009828923333627965,0.282242361819196
8396457257.0,0.0093976656,0.0027406919,0.009789152712065994,0.28376528710202936
8396459860.0,0.0094120998,0.0026847247,0.009787510886836864,0.27786281849976935
8396462462.0,0.0094205511,0.0026753371,0.009793069571199197,0.27670427152633437
8396465065.0,0.0093750986,0.0026624704,0.009745831026166938,0.27670835103353253
8396467668.0,0.0093796201,0.0025934784,0.009731567367674674,0.2697615448232356
8396470270.0,0.0093747715,0.0025675351,0.009720009113521666,0.2673219472473936
8396472873.0,0.0093675937,0.0025696115,0.009713635518651703,0.26772330696230684
8396475475.0,0.0093525754,0.0025340537,0.0096897933294353,0.2645944231625188
8396478078.0,0.0093412348,0.0025400536,0.009680420439196017,0.2654990187509509
8396480681.0,0.0093123883,0.0025003874,0.009642225521115738,0.26231434341457915
8396483283.0,0.0093413984,0.0024522833,0.009657919933970329,0.25672497719916676
8396485886.0,0.0093095927,0.002425873,0.009620466519458517,0.2549091777172526
8396488488.0,0.0092822797,0.0024056631,0.009588948398011833,0.2535878997090501
8396491091.0,0.0092804957,0.0023674739,0.00957771022243311,0.2497748407284237
8396493694.0,0.0092681325,0.002336338,0.009558072781047457,0.24693810538169114
8396496296.0,0.0092416955,0.0022962486,0.009522693597282346,0.2435345295560117
8396498899.0,0.0092703648,0.0022721525,0.009544754607025542,0.24036019229652342
8396501502.0,0.0092457318,0.0022673515,0.009519686935087913,0.24048634817519987
8396504104.0,0.0092119829,0.0022575376,0.009484571944231652,0.24032889946737113
8396506707.0,0.0091989044,0.0021982012,0.009457903080282689,0.2345645787549467
8396509309.0,0.009197489,0.0021781671,0.009451889537052546,0.23253783845749265
8396511912.0,0.0091794567,0.0021435951,0.009426421657231279,0.22940981922710824
8396514515.0,0.0091688274,0.0021059118,0.00940756399927048,0.22576605241532213
8396517117.0,0.0091405225,0.0020887344,0.00937613795582966,0.22465628292962192
8396519720.0,0.0091598301,0.0020879286,0.009394782238006582,0.22411484087971345
8396522322.0,0.0091381407,0.0020306031,0.009361034366069066,0.21865905646757347
8396524925.0,0.0091059344,0.0020131123,0.009325806261633074,0.21757731454064985
8396527528.0,0.009096237,0.0020277537,0.009319512467293163,0.21933594072220805
8396530130.0,0.0090982251,0.0019778808,0.009310731036244073,0.2140612900016967
8396532733.0,0.0090657511,0.001923369,0.009267534263077326,0.20905786966010628
8396535335.0,0.0090570857,0.001922975,0.009258975873592581,0.20921047634888165
8396537938.0,0.0090601304,0.0018761132,0.009252338277658161,0.20418768879456164
8396540541.0,0.0090253647,0.0018676037,0.009216569402345961,0.20404845905128602
8396543143.0,0.0090219265,0.0018485947,0.00920936806389398,0.2021028365187713
8396545746.0,0.0090222707,0.0018118354,0.009202397301832367,0.19818208551565117
8396548348.0,0.0089955828,0.0017530056,0.009164798881878817,0.1924619327920243
8396550951.0,0.0089583552,0.0017528653,0.00912823447602608,0.19322692581022338
8396553554.0,0.0089505775,0.0017215715,0.009114639104929963,0.19002132042787875
8396556156.0,0.0089039387,0.0016865678,0.00906226435927327,0.18720033166698224
8396558759.0,0.008927229,0.001662688,0.009080746059866722,0.184139220413515
8396561361.0,0.0089088233,0.0016564442,0.009061508703209225,0.1838337356102023
8396563964.0,0.0088920408,0.0016422108,0.00904241372093211,0.18262545980599962
8396566567.0,0.0088919281,0.0016009442,0.009034899427613085,0.17813619942485034
8396569169.0,0.0088582748,0.0015797887,0.008998042274237365,0.1764850047972341
8396571772.0,0.008836639,0.0015546303,0.008972349981247895,0.17414793279104696
8396574374.0,0.0088177672,0.0015064898,0.008945531281645595,0.16921333115479245
8396576977.0,0.008794853,0.0014762193,0.008917884430362477,0.1663001638925823
8396579580.0,0.0087916528,0.0014624023,0.00891245081011913,0.16483068697066253
8396582182.0,0.0087842473,0.0014555088,0.008904016312565623,0.16420344945081503
8396584785.0,0.0087840046,0.0013970451,0.008894406771913188,0.15772319403052237
8396587387.0,0.008727902,0.0013655993,0.008834089357130393,0.15520528176626766
8396589990.0,0.0087232686,0.001364333,0.008829315919290405,0.1551447069309373
8396592593.0,0.0086723638,0.0013453541,0.008776096600080085,0.15390440783412174
8396595195.0,0.0086897045,0.0012956539,0.00878576594987059,0.14801177034525995
8396597798.0,0.008658821,0.0012741148,0.008752059736634574,0.14609803141902272
8396600400.0,0.0086475312,0.0012505469,0.008737486103226319,0.14361753659231988
8396603003.0,0.0086224881,0.001199256,0.008705487693873195,0.13819810448960657
8396605606.0,0.0085878183,0.0011807686,0.008668612209607766,0.13663671504785774
8396608208.0,0.0086016219,0.0011724162,0.008681155398711744,0.13546696627099752
8396610811.0,0.0085898501,0.0011677353,0.008668859813801126,0.13511534005886972
8396613413.0,0.0085355172,0.00109917,0.008605999567766422,0.12807118539979237
8396616016.0,0.0085221359,0.0010762778,0.008589829695683242,0.1256269392745968
8396618619.0,0.0084997726,0.0010387346,0.008563007872292768,0.12160436004950845
8396621221.0,0.0084934973,0.0010299279,0.00855571433980271,0.12067159844813652
8396623824.0,0.008466775,0.0010405292,0.008530473604476929,0.12228241356304678
8396626426.0,0.0084457507,0.0009762688,0.008501988335466237,0.11508214668833434
8396629029.0,0.0084479087,0.0009833614,0.008504949208933915,0.11588143261828482
8396631632.0,0.0083908138,0.0009535579,0.008444822608848742,0.11315760950834025
8396634234.0,0.0083762517,0.0009248098,0.008427150509390998,0.1099631739281139
8396636837.0,0.0083639348,0.0009113374,0.008413438131661146,0.10853220658761847
8396639439.0,0.008334523,0.0008722139,0.008380037632665035,0.10427118190851192
8396642042.0,0.0083250833,0.0008538506,0.00836875574975511,0.10220623105119664
8396644645.0,0.0083044863,0.0008264814,0.008345511620711678,0.09919563876609273
8396647247.0,0.0082729993,0.0007904778,0.008310678225637986,0.09525992597441538
8396649850.0,0.0082605765,0.0007892585,0.008298195773309671,0.09525604972234514
8396652452.0,0.0082166154,0.0007665125,0.008252291199671361,0.09301889318146433
8396655055.0,0.0082176782,0.0007301168,0.0082500488204857,0.08861441114827479
8396657658.0,0.0081916334,0.0007150309,0.00822278097409571,0.08706727186877686
8396660260.0,0.0081402794,0.0006834782,0.008168922276527033,0.0837660257480991
8396662863.0,0.0081315166,0.0006502402,0.008157473538649793,0.07979563283516679
8396665465.0,0.0081059526,0.0006099589,0.008128869380986264,0.07510672321872627
8396668068.0,0.0080717091,0.0005928209,0.00809344947562531,0.0733126559383713
8396670671.0,0.0080482796,0.0005822492,0.008069313394005516,0.0722187383584301
8396673273.0,0.008000011,0.0005415388,0.008018319042793598,0.06758914616911166
8396675876.0,0.0080208538,0.0005350169,0.008038677675106774,0.06660457072016147
8396678478.0,0.0079656829,0.0005155684,0.00798235020770393,0.06463353844548551
8396681081.0,0.0079466191,0.0005011689,0.007962407009617884,0.06298351774676184
8396683684.0,0.007936837,0.0004482787,0.007949486483883264,0.056420829732977344
8396686286.0,0.0078740619,0.0004273643,0.007885650959175539,0.05422174813789684
8396688889.0,0.0078640593,0.0004126549,0.007874878585756768,0.052425441413193094
8396691491.0,0.0078609559,0.0003680846,0.00786956885315212,0.046790230913211966
8396694094.0,0.0078207436,0.0003458275,0.007828385984141126,0.04419047317708905
8396696697.0,0.0078151316,0.0003549966,0.007823190174815522,0.0453930602347031
8396699299.0,0.007753591,0.0003462151,0.007761316788454715,0.04462258556800292
8396701902.0,0.0077592014,0.0003108837,0.007765426906531776,0.040045036595861054
8396704505.0,0.0076913154,0.0002704089,0.007696067408454552,0.03514321729431879
8396707107.0,0.0076704449,0.0002353883,0.007674055812652974,0.030678070655689445
8396709710.0,0.0076486537,0.000237835,0.007652350548017823,0.031084998687195522
8396712312.0,0.0076030746,0.0002230066,0.007606344412187021,0.029322700726873374
8396714915.0,0.0076010375,0.0002174297,0.007604146681308058,0.028597467692180974
8396717518.0,0.0075566973,0.0001807839,0.007558859497459025,0.023919103095406926
8396720120.0,0.0075212707,0.0001715575,0.007523227028242916,0.02280568849217209
8396722723.0,0.0075246866,0.0001069357,0.00752544641015761,0.014210359526098865
8396725325.0,0.0074878885,0.0001061996,0.007488641568633954,0.01418189921785736
8396727928.0,0.0074503429,0.0001162734,0.007451250152231368,0.015605182612531542
8396730531.0,0.0074136318,7.53386e-05,0.007414014592015664,0.010161822004915015
8396733133.0,0.0074009902,4.59745e-05,0.0074011329940182995,0.006211859145031883
8396735736.0,0.0073424119,2.40542e-05,0.007342451301425107,0.003276050741033762
8396738338.0,0.0073114044,-1.01066e-05,0.007311411385204837,-0.0013823053697968207
8396740941.0,0.0073116182,-9.1501e-06,0.00731162392542869,-0.001251445982681413
8396743544.0,0.0072764841,-2.96795e-05,0.00727654462848082,-0.00407880165792346
8396746146.0,0.0072310012,-5.49582e-05,0.007231210047989802,-0.007600211960739088
8396748749.0,0.0072008857,-7.31958e-05,0.007201257701929722,-0.010164482849591348
8396751351.0,0.0071784228,-8.99333e-05,0.007178986132735508,-0.012527625873165998
8396753954.0,0.0071352033,-0.0001229462,0.007136262460169562,-0.017229226585104968
8396756557.0,0.0071077035,-0.0001287379,0.007108869283564627,-0.018110466316012916
8396759159.0,0.0070716272,-0.0001308706,0.007072838070373462,-0.018504321399871175
8396761762.0,0.0070240367,-0.000156936,0.007025789668858789,-0.02233899117391552
8396764364.0,0.0070260994,-0.0001648925,0.007028034029174632,-0.02346426200296626
8396766967.0,0.0069636839,-0.0001814673,0.006966047935529047,-0.02605319865342339
8396769570.0,0.0069439334,-0.0002348334,0.006947903121762071,-0.03380561452125912
8396772172.0,0.0068865501,-0.0002398187,0.006890724583719749,-0.03481014763742338
8396774775.0,0.0068638115,-0.0002546,0.006868531827656639,-0.03707609517854059
8396777377.0,0.0068173272,-0.0002670755,0.006822556667009816,-0.03915596036226836
8396779980.0,0.0068269667,-0.0002998266,0.006833547417921123,-0.04388977836207933
8396782583.0,0.0067925057,-0.0003084751,0.006799506641797807,-0.04538285365395496
8396785185.0,0.0067340732,-0.0003196152,0.006741653783681663,-0.047426797664406356
8396787788.0,0.0067043947,-0.0003445284,0.006713241252315803,-0.05134327875577948
8396790390.0,0.0066815964,-0.0003414893,0.00669031728653488,-0.05106450723682902
8396792993.0,0.0066385131,-0.0003551437,0.0066480059586707125,-0.05344652794023335
8396795596.0,0.0065801576,-0.0003530746,0.006589623336276734,-0.05360606190342527
8396798198.0,0.0065813753,-0.0004025897,0.006593677221853992,-0.06109493170186411
8396800801.0,0.0065423714,-0.0003953605,0.006554306482038982,-0.060357362537866076
8396803403.0,0.0064996251,-0.0003860225,0.006511078237208969,-0.05932181831321358
8396806006.0,0.0064655843,-0.0004420939,0.006480681087418489,-0.0682702174461028
8396808609.0,0.0064187253,-0.0004523372,0.006434644000981245,-0.07035518710903288
8396811211.0,0.0064106612,-0.0004469705,0.006426224369647833,-0.06961034221576065
8396813814.0,0.0063597406,-0.0004759501,0.0063775253035153355,-0.07469872580243705
8396816416.0,0.0063175365,-0.0005021124,0.006337458819674177,-0.07931242167748812
8396819019.0,0.0062800239,-0.0004914717,0.006299225715631414,-0.07810034333337072
8396821622.0,0.0062347049,-0.0004924263,0.0062541209495032704,-0.07881787388109322
8396824224.0,0.0061986228,-0.0005197213,0.006220372564915508,-0.08364899122744196
8396826827.0,0.0061617711,-0.0005414042,0.006185510617287214,-0.08763995751383148
8396829429.0,0.0061179295,-0.0005292487,0.006140778904456823,-0.08629297995597465
8396832032.0,0.0060969853,-0.0005454488,0.0061213351600641445,-0.0892245203833574
8396834635.0,0.0060657509,-0.0005936725,0.006094733875905253,-0.09756215093485106
8396837237.0,0.0060018873,-0.0005675587,0.006028662707420857,-0.09428300530850149
8396839840.0,0.0059800724,-0.0005857485,0.006008690973456199,-0.09763860790456332
8396842442.0,0.0059554664,-0.0005893823,0.005984559427149358,-0.0986437234714636
8396845045.0,0.0059077946,-0.000620551,0.005940296337674592,-0.10465559432281393
8396847648.0,0.0058663621,-0.0006183096,0.0058988567578615245,-0.10501144215781341
8396850250.0,0.005853203,-0.0006314864,0.0058871691357216815,-0.10747163071856636
8396852853.0,0.0058046758,-0.0006431574,0.005840197991873255,-0.11034977812152987
8396855455.0,0.0057646344,-0.0006277114,0.005798709457056227,-0.10846272706545737
8396858058.0,0.0057079591,-0.000657909,0.00574574985006777,-0.11475529128332788
8396860661.0,0.0056841442,-0.0006785076,0.005724497170027373,-0.11880631514387517
8396863263.0,0.0056700904,-0.000686469,0.005711494098056406,-0.12048206549698302
8396865866.0,0.0055864396,-0.0006879022,0.005628633656689072,-0.12252108154092183
8396868468.0,0.0055648221,-0.0006832111,0.005606605248437919,-0.12216187021100877
8396871071.0,0.0055300071,-0.0007076526,0.005575100961268519,-0.1272742384641402
8396873674.0,0.0054832661,-0.0007221511,0.005530615637941261,-0.13094727490781657
8396876276.0,0.0054571241,-0.0007206808,0.005504505814175279,-0.13130257233050874
8396878879.0,0.0054258555,-0.0006965399,0.005470381681306365,-0.12767589985214609
8396881481.0,0.0053774985,-0.0007190514,0.0054253594381703605,-0.13292636519610426
8396884084.0,0.005332135,-0.0007358621,0.005382671891211781,-0.13713890712661592
8396886687.0,0.0052919945,-0.0007306948,0.005342201856798121,-0.13720794240276246
8396889289.0,0.0052567438,-0.0007274203,0.005306834807273591,-0.1375052550300321
8396891892.0,0.0052052505,-0.0007477105,0.005258678898693141,-0.1426695007065806
8396894494.0,0.0051683587,-0.0007451776,0.005221802496016816,-0.1431939042717057
8396897097.0,0.005117981,-0.0007200594,0.0051683861171442445,-0.13977465434853173
8396899700.0,0.0050976783,-0.0007522925,0.005152889292023179,-0.14651797385981863
8396902302.0,0.0050562035,-0.0007704619,0.005114567955630648,-0.1512162975471186
8396904905.0,0.0049973762,-0.0007645833,0.005055527322343865,-0.15181965037611353
8396907508.0,0.0049627379,-0.0007552616,0.005019879236448917,-0.15102762303407702
8396910110.0,0.0049686354,-0.0007736487,0.005028505747152414,-0.15446612566684695
8396912713.0,0.0049097627,-0.0007608624,0.004968368078357827,-0.15374630258409708
8396915315.0,0.0048639374,-0.0007520511,0.004921734235828867,-0.15340300528414502
8396917918.0,0.0048010977,-0.0007531449,0.004859811350797611,-0.1556012385824176
8396920521.0,0.0047651893,-0.0007779721,0.004828278125088995,-0.16183375400180763
8396923123.0,0.0047414828,-0.000796723,0.004807954521563702,-0.16647725849460568
8396925726.0,0.0047068084,-0.0007587819,0.00476757750708661,-0.1598342807524967
8396928328.0,0.0046394498,-0.0007850008,0.00470539272566283,-0.1676137601341613
8396930931.0,0.0046264753,-0.0007504754,0.00468694858383525,-0.16081247809571161
8396933534.0,0.0046009808,-0.0007614182,0.004663558941115666,-0.16400399383940362
8396936136.0,0.004545704,-0.00078694,0.004613317615254341,-0.1714183280510991
8396938739.0,0.0045152636,-0.0007811678,0.00458233875976469,-0.17131028795739078
8396941341.0,0.0044452025,-0.0007599155,0.004509689216913568,-0.16931510572393577
8396943944.0,0.0044075574,-0.0007604737,0.00447268179984743,-0.17085639453360357
8396946547.0,0.0043874021,-0.0007517032,0.004451331810590472,-0.1696846403491583
8396949149.0,0.0043582003,-0.0007590442,0.0044238058221935704,-0.1724349728604882
8396951752.0,0.0043141603,-0.0007368109,0.004376627628260702,-0.16915684508180343
8396954354.0,0.0042609454,-0.0007570463,0.004327675450183949,-0.17583608747259263
8396956957.0,0.0042178788,-0.0007400202,0.0042823044576369715,-0.17368073512930976
8396959560.0,0.0041901227,-0.0007284804,0.0042529768320835526,-0.17213600760922865
8396962162.0,0.0041471687,-0.0007258816,0.004210215234816179,-0.1732753977611525
8396964765.0,0.0041082711,-0.0007338519,0.004173299658810617,-0.17676359620017965
8396967367.0,0.004085907,-0.0007493187,0.004154047968767174,-0.1813755959152921
8396969970.0,0.0040462626,-0.0007299936,0.004111585057395714,-0.17849180538028864
8396972573.0,0.0040023632,-0.0007084253,0.0040645759422594544,-0.1751872744000375
8396975175.0,0.0039552098,-0.0007140688,0.0040191515041298805,-0.1786147723016525
8396977778.0,0.0038827099,-0.0006950732,0.003944434423452397,-0.1771411544883033
8396980380.0,0.0038856149,-0.0006869181,0.003945866144106972,-0.17497701632101306
8396982983.0,0.0038399758,-0.0006688094,0.0038977840060878182,-0.17244042251407307
8396985586.0,0.0037976136,-0.0006782882,0.003857712267285392,-0.17674532555092962
8396988188.0,0.0037647743,-0.0006642201,0.0038229195480920727,-0.17463308625698964
8396990791.0,0.0037104637,-0.000633136,0.003764093790477821,-0.16900752512211328
8396993393.0,0.0036896779,-0.0006585632,0.0037479899271666475,-0.1766279968491869
8396995996.0,0.0036460545,-0.0006614583,0.0037055688496652086,-0.1794656676209507
8396998599.0,0.0036008175,-0.0006580873,0.003660459747453527,-0.18076553735507586
8397001201.0,0.0035848085,-0.0006336021,0.0036403713550675924,-0.17493969610033816
8397003804.0,0.0035581728,-0.0006165038,0.0036111868700019222,-0.1715609061018978
8397006406.0,0.0034915894,-0.0006127108,0.0035449416162511055,-0.17371322464669556
8397009009.0,0.0034390193,-0.0006392814,0.0034979328830265525,-0.18379276769328376
8397011612.0,0.0034320667,-0.0005904636,0.0034824889226204078,-0.1703752555065284
8397014214.0,0.0033913298,-0.0005999845,0.0034439946592014757,-0.17510526864135684
8397016817.0,0.003343985,-0.0005709595,0.0033923782853427843,-0.1691114634142817
8397019419.0,0.0033153867,-0.0005482907,0.003360418376072149,-0.16389419012587023
8397022022.0,0.0032706146,-0.0005633167,0.0033187716954066076,-0.170562285632924
8397024625.0,0.003231,-0.0005176905,0.003272210942740436,-0.15887570194413078
8397027227.0,0.0032094835,-0.0005303145,0.0032530013534707455,-0.1637540151839807
8397029830.0,0.0031667182,-0.0005453999,0.00321334175106403,-0.17055549942548137
8397032432.0,0.0031214974,-0.0004860425,0.003159111161389072,-0.15446773503805292
8397035035.0,0.0030761043,-0.0004931574,0.0031153847090934455,-0.15896610498208455
8397037638.0,0.0030516983,-0.0004819966,0.0030895279957680348,-0.15664967410946498
8397040240.0,0.0030158439,-0.0004664627,0.0030517047497519317,-0.1534547140971988
