frequency,Re(S21),Im(S21),Amplitude,phase
7490000000.0,0.0059863428,0.005159344,0.00790285585275651,0.7113348840088092
7490003003.0,0.00598999,0.0051434758,0.007895272224900522,0.7095108701352534
7490006006.0,0.0059893459,0.0051373592,0.007890799950554535,0.7089759511249514
7490009009.0,0.006012079,0.0051342948,0.00790607848402405,0.7068097037399583
7490012012.0,0.005994471,0.0051014431,0.00787136609950132,0.7050886755156365
7490015015.0,0.0060100118,0.0050856698,0.007873009535798321,0.7022836155749673
7490018018.0,0.0060200151,0.005064503,0.007867005303241952,0.6994083322787666
7490021021.0,0.0060215134,0.0050464315,0.007856531964586654,0.6975254031031252
7490024024.0,0.0059863186,0.005009048,0.007805547530251159,0.6967508826830415
7490027027.0,0.0059702855,0.0050093666,0.007793462817304373,0.6981024329073502
7490030030.0,0.0060196095,0.0050102085,0.0078318508505948,0.6941367186049571
7490033033.0,0.0059999974,0.0049661049,0.0077885920857245295,0.6913952687794988
7490036036.0,0.0059994111,0.0049238397,0.007761258334709604,0.6872483177977494
7490039039.0,0.0060012148,0.0049383346,0.007771854842783426,0.6885427569137705
7490042042.0,0.0059809442,0.0049343986,0.007753707698075521,0.6898119465547461
7490045045.0,0.0059941998,0.004891993,0.007737055431775646,0.6844938795697929
7490048048.0,0.006002908,0.004880597,0.007736609821677257,0.6826410053519949
7490051051.0,0.0060200532,0.0048320616,0.007719446860820068,0.6763613658617937
7490054054.0,0.0059843548,0.0048336205,0.007692619158017853,0.6794242379545968
7490057057.0,0.0060148347,0.0047929251,0.007690927608717566,0.672817670775235
7490060060.0,0.0059931986,0.0047782631,0.0076648697126476695,0.6730807871720259
7490063063.0,0.0059776035,0.0047460449,0.007632606749730282,0.6710540058011549
7490066066.0,0.005982029,0.0047643713,0.007647477024555529,0.6725709508888928
7490069069.0,0.0060025797,0.0047232829,0.0076380864362930925,0.666686806941
7490072072.0,0.0059935571,0.0047115537,0.007623743501649573,0.6662095825008214
7490075075.0,0.005989739,0.0046993558,0.007613206829130195,0.6652599175051632
7490078078.0,0.0059592456,0.0046862602,0.00758113730143594,0.6663836832311351
7490081081.0,0.0059855371,0.0046463413,0.007577277997510854,0.6600976429483768
7490084084.0,0.0059771654,0.004651281,0.007573699304825757,0.6612906540198118
7490087087.0,0.0059841613,0.0046339601,0.007568604407208088,0.6589168862513783
7490090090.0,0.0059928786,0.0045958498,0.007552246639146394,0.6542203337016761
7490093093.0,0.0059888439,0.0046168883,0.007561872045548252,0.6567527523285742
7490096096.0,0.0060049859,0.0045534682,0.0075361746468357565,0.6487800741358261
7490099099.0,0.0059912575,0.0045466714,0.007521129386660237,0.6491628711847082
7490102102.0,0.0059586888,0.0045083086,0.007472002318527437,0.6477079721449346
7490105105.0,0.0059625665,0.0045119993,0.00747732150907815,0.6477886920125362
7490108108.0,0.0059761083,0.0044948211,0.007477786245563194,0.6448640660671099
7490111111.0,0.0059774403,0.0044740113,0.00746636254494729,0.6425293985263282
7490114114.0,0.005966175,0.0044529262,0.0074447159699528795,0.6411687087643582
7490117117.0,0.0059801685,0.0044361958,0.007445955174746212,0.6382439403853145
7490120120.0,0.00596198,0.004436079,0.0074312853810522585,0.6396895382329005
7490123123.0,0.0059438258,0.0043839202,0.007385649697942198,0.6354909871310357
7490126126.0,0.0059843913,0.0043706149,0.007410480000352049,0.6307967505739234
7490129129.0,0.005967714,0.0043618213,0.00739182625870831,0.6311667182639205
7490132132.0,0.00595702,0.0043549394,0.007379131687270011,0.631268947239994
7490135135.0,0.0059470176,0.0043268647,0.007354507221209036,0.6289899332306955
7490138138.0,0.0059387083,0.0042897779,0.00732601192353775,0.6255636950787763
7490141141.0,0.0059446884,0.0042917972,0.007332042237945879,0.6253093645995931
7490144144.0,0.0059375348,0.0042908665,0.007325698248087569,0.6257779549652744
7490147147.0,0.0059265414,0.0042596091,0.007298504137884473,0.623189035112564
7490150150.0,0.0059355021,0.0042110406,0.007277571580819578,0.6170511836352696
7490153153.0,0.0059370311,0.0042266944,0.007287886101837663,0.6186816059010112
7490156156.0,0.005938289,0.0041819327,0.007263046010789846,0.6135605400472032
7490159159.0,0.0059583731,0.0041926851,0.007285658401720851,0.6131799468635267
7490162162.0,0.0059287771,0.004147306,0.007235367645055807,0.6104046323204678
7490165165.0,0.0059268914,0.0041356594,0.007227151606283233,0.609233696238976
7490168168.0,0.0059306695,0.0041342462,0.007229442050424409,0.6087743352527168
7490171171.0,0.0059181281,0.0041067134,0.0072034252378815715,0.6066344398679838
7490174174.0,0.005926683,0.0040663457,0.007187540520539519,0.6013416249218753
7490177177.0,0.0059129514,0.0040767948,0.007182148014352601,0.6036229407175646
7490180180.0,0.0059096703,0.004076004,0.007178997956728926,0.603791682065002
7490183183.0,0.005903149,0.0040316442,0.007148518942521915,0.5992013579416657
7490186186.0,0.0058895141,0.0039922928,0.007115109144280968,0.5957149682154632
7490189189.0,0.0058785858,0.0039915719,0.0071056609292050555,0.5964939463165758
7490192192.0,0.0059028588,0.0039847632,0.007121943539007571,0.5937884804587104
7490195195.0,0.0058896679,0.0039622634,0.007098430757799218,0.5922010774012032
7490198198.0,0.0058785597,0.0039449548,0.007079557367555342,0.5910483612971515
7490201201.0,0.005877443,0.0039291259,0.007069820829151175,0.5892772580035813
7490204204.0,0.0058913483,0.0039102205,0.007070912893716987,0.5859615728734039
7490207207.0,0.0058773281,0.0038863368,0.007046034297254296,0.5842377290716894
7490210210.0,0.0058681856,0.0038760216,0.007032719650299869,0.5837312997706188
7490213213.0,0.0058499764,0.003847545,0.007001844500385735,0.5817710470408656
7490216216.0,0.0058529336,0.0038167566,0.006987450369745213,0.5778571032059661
7490219219.0,0.005835564,0.0037868301,0.006956571670324543,0.5756175375616709
7490222222.0,0.0058581273,0.0037971866,0.006981137553309263,0.575102609578598
7490225225.0,0.0058468567,0.0037614053,0.006952258848834886,0.5716655789120153
7490228228.0,0.0058138581,0.0037616676,0.006924672493325975,0.574275661175866
7490231231.0,0.0058200733,0.0037304277,0.006912983729353063,0.5699931490857799
7490234234.0,0.0058225842,0.0037237089,0.006911475583262148,0.5689786713728806
7490237237.0,0.0058039497,0.0036996774,0.006882836986606675,0.5674959054587666
7490240240.0,0.0058374405,0.0036922405,0.006907123243498736,0.563981669593765
7490243243.0,0.0058142807,0.0036625236,0.006871676591556783,0.5621284749767207
7490246246.0,0.0058212297,0.0036345279,0.00686268958033514,0.5581370948785868
7490249249.0,0.0057873377,0.0036270952,0.006830014439494571,0.5598420263047748
7490252252.0,0.0058104214,0.0035998675,0.006835206131722306,0.5546732132255358
7490255255.0,0.0057771649,0.0035854686,0.006799354334301013,0.555449013750639
7490258258.0,0.0057695083,0.0035773756,0.006788581752269339,0.5550308390332306
7490261261.0,0.0057946456,0.0035496626,0.006795441280994055,0.5496155010810818
7490264264.0,0.0057872844,0.0035436631,0.006786030422329756,0.5494282437047651
7490267267.0,0.0057727732,0.0035004185,0.006751136207615759,0.5450878858352012
7490270270.0,0.0057481043,0.003494665,0.006727063735828842,0.5462579278230113
7490273273.0,0.0057802615,0.0034735316,0.006743652184430986,0.5411029233565545
7490276276.0,0.0057666811,0.003448128,0.006718943191714096,0.5389032520280157
7490279279.0,0.0057594566,0.0034585727,0.006718114724271152,0.5407894923296973
7490282282.0,0.0057435335,0.0034228323,0.006686101855307436,0.5374328342167911
7490285285.0,0.0057306165,0.0033964309,0.006661509463218307,0.5350209384739256
7490288288.0,0.0057306649,0.0034006344,0.006663695260030682,0.5355598912867978
7490291291.0,0.0057418594,0.0033696903,0.0066576093372382895,0.530704644749359
7490294294.0,0.0057220084,0.0033723195,0.006641830993013207,0.5325587977689025
7490297297.0,0.0057103495,0.0033334032,0.006612085019562323,0.5283835330355052
7490300300.0,0.0057181961,0.0033318808,0.006618096123770329,0.5275871484878941
7490303303.0,0.0057059804,0.0033132746,0.006598181635889491,0.5260827615012097
7490306306.0,0.0056926579,0.0032923051,0.006576140725221627,0.5243425102999001
7490309309.0,0.005689935,0.0032730141,0.006564143630590651,0.5220061616241058
7490312312.0,0.0056853804,0.003243013,0.006545279490661431,0.5183799438731926
7490315315.0,0.0056746634,0.0032394498,0.006534205361788043,0.5187189158907506
7490318318.0,0.0056567337,0.0032412904,0.006519555169629892,0.5203275308523896
7490321321.0,0.00565703,0.0032148051,0.006506685811677556,0.5167731102243375
7490324324.0,0.005671702,0.0031903687,0.006507430830884312,0.51239432551518
7490327327.0,0.0056582951,0.0031809043,0.00649110588455022,0.512136129651004
7490330330.0,0.0056374756,0.0031459091,0.006455840395026675,0.5089912343078815
7490333333.0,0.0056252704,0.003123892,0.006434467211881662,0.5069275680770724
7490336336.0,0.0056295354,0.0031213639,0.006436969893985552,0.5062625351494855
7490339339.0,0.0056392699,0.0030994773,0.006434914493469303,0.5025543833107515
7490342342.0,0.0056106327,0.0030973175,0.006408788886374362,0.5044113349220724
7490345345.0,0.0055987706,0.0030632128,0.006381967164558918,0.5006312358519972
7490348348.0,0.0056018611,0.0030365346,0.006371922014642864,0.49672539953269074
7490351351.0,0.0056042168,0.0030398845,0.006375589675845089,0.4970112476223596
7490354354.0,0.0056009822,0.0030004618,0.006354035931435711,0.49180024490586766
7490357357.0,0.0055855893,0.0029860279,0.006333653799178867,0.49093904856303394
7490360360.0,0.0055898196,0.002977676,0.006333453838271829,0.48946120440378355
7490363363.0,0.0055600576,0.0029688112,0.006303021533880651,0.49043988848228776
7490366366.0,0.0055571007,0.0029419491,0.006287800306699578,0.48689285222350526
7490369369.0,0.0055768464,0.0029249982,0.006297366929058223,0.4830468368331467
7490372372.0,0.0055384631,0.0029274498,0.006264545940575554,0.4862393091495808
7490375375.0,0.0055127865,0.0028703726,0.006215291936619954,0.4800508291134051
7490378378.0,0.0055368153,0.0028772623,0.006239788618961012,0.47925174497470713
7490381381.0,0.0055245118,0.0028570306,0.0062195542024871524,0.47727747548859395
7490384384.0,0.0055278484,0.0028526736,0.006220518837003833,0.4764089289461486
7490387387.0,0.0054839146,0.0028437168,0.00617738169281253,0.47838196760956747
7490390390.0,0.0054928798,0.0028051069,0.00616768621264698,0.4721554985481647
7490393393.0,0.0054733363,0.0027952246,0.006145786427898618,0.4721697266615326
7490396396.0,0.0054873229,0.0027614783,0.0061430021170625765,0.46624176291253716
7490399399.0,0.0054804554,0.0027324744,0.006123871956372416,0.4625151941052087
7490402402.0,0.0054641363,0.0027388009,0.006112104046465382,0.46463285984056535
7490405405.0,0.005443382,0.0027077586,0.006079668102273179,0.46159790399849276
7490408408.0,0.0054319751,0.0026942691,0.006063451118813016,0.46044388803796
7490411411.0,0.0054350454,0.0026779539,0.006058973146547719,0.4578064192420437
7490414414.0,0.0054288856,0.0026750469,0.006052162817959127,0.4578253989394914
7490417417.0,0.0054254333,0.0026383341,0.006032920794770283,0.45261959685475356
7490420420.0,0.0054228249,0.0026334455,0.006028438031325383,0.4520795518887471
7490423423.0,0.0053961336,0.0026149659,0.005996357601678853,0.45125181591986124
7490426426.0,0.0053933422,0.0026148537,0.005993796789907423,0.4514380650273197
7490429429.0,0.0054067674,0.0025827173,0.005991958141494486,0.4456346083474691
7490432432.0,0.0053914073,0.0025810173,0.005977367562513834,0.44648560173497537
7490435435.0,0.0053473299,0.0025530427,0.005925534919942444,0.44543933186235213
7490438438.0,0.0053608785,0.002550824,0.005936810706999023,0.4441188116570476
7490441441.0,0.0053567963,0.0025192498,0.0059196187507721924,0.4395987065997429
7490444444.0,0.0053266412,0.0025208675,0.005893036520003392,0.44202482509123286
7490447447.0,0.0053367154,0.002485593,0.005887164327776672,0.43587689942552127
7490450450.0,0.0053214308,0.0024848566,0.005873000773178239,0.43686203397864737
7490453453.0,0.0053212485,0.0024515883,0.005858836982836196,0.4317301505350563
7490456456.0,0.0053063036,0.0024451408,0.005842565483346987,0.4317982179848402
7490459459.0,0.0053079791,0.002409295,0.005829180433222308,0.4260929449626921
7490462462.0,0.0053010245,0.0023928875,0.005816078690772375,0.42401834706852815
7490465465.0,0.0052796139,0.002399303,0.0057992221736093376,0.42654562764486587
7490468468.0,0.0052542811,0.0023824565,0.005769191351672213,0.42570388734125686
7490471471.0,0.0052582838,0.0023513305,0.005760061079673782,0.4204954270523312
7490474474.0,0.0052497388,0.0023250683,0.005741576444487205,0.4169273684219475
7490477477.0,0.0052336371,0.0023235542,0.005726243220020789,0.4178242973342841
7490480480.0,0.0052386161,0.0022889384,0.005716846826894505,0.4119367026705107
7490483483.0,0.0052099563,0.0022966939,0.005693720007008326,0.41520024749505163
7490486486.0,0.0051933744,0.0022741792,0.005669482224355942,0.41274621888473595
7490489489.0,0.0051972554,0.0022660851,0.005669797648353173,0.41116394817354
7490492492.0,0.0051827167,0.0022479253,0.005649223003815568,0.40924589265545414
7490495495.0,0.0051876114,0.0022277258,0.00564571291135102,0.40561850649726316
7490498498.0,0.0051657896,0.0022326849,0.005627633965900426,0.4079582687077004
7490501502.0,0.0051715912,0.0021857511,0.005614522545245379,0.39987489739523235
7490504505.0,0.0051499855,0.0021603025,0.005584734330450867,0.3971836674426522
7490507508.0,0.0051334689,0.0021930848,0.005582304531934661,0.4037436089670172
7490510511.0,0.0051421459,0.002173142,0.005582491433853778,0.3998478095898305
7490513514.0,0.0051227962,0.0021472796,0.00555462425257646,0.3969151201215779
7490516517.0,0.0051227445,0.0021137382,0.0055416965263734436,0.39133668471039623
7490519520.0,0.00509427,0.0021193464,0.005517537131374193,0.3942447053093006
7490522523.0,0.0050985354,0.0020996971,0.005513963287581952,0.39065738156799684
7490525526.0,0.0050842143,0.0020926122,0.005498023360073448,0.3904577291887451
7490528529.0,0.0050586252,0.002059567,0.005461822510990635,0.386646072970375
7490531532.0,0.0050450183,0.0020418234,0.005442540991496752,0.3845693205096595
7490534535.0,0.0050491096,0.0020139183,0.005435933652270514,0.37952843447727386
7490537538.0,0.0050328411,0.0020175761,0.005422186169539038,0.3812666094418409
7490540541.0,0.0050187929,0.0019921387,0.005399712841728539,0.37786205903277426
7490543544.0,0.0050386672,0.0019900323,0.005417415962190751,0.37614719745379366
7490546547.0,0.0049831488,0.0019671556,0.005357375581154713,0.3759823403765685
7490549550.0,0.0049957582,0.0019528388,0.005363877270375664,0.37263648308592273
7490552553.0,0.0049618883,0.0019647565,0.005336722178076084,0.3770269987484898
7490555556.0,0.0049642056,0.0019003704,0.00531551924991976,0.3656041666185487
7490558559.0,0.0049642498,0.0019198774,0.005322565669658835,0.3690239413235484
7490561562.0,0.0049567539,0.0019125298,0.0053129256969256826,0.3682429877243704
7490564565.0,0.0049509889,0.0018661504,0.00529101203961429,0.36045707952097433
7490567568.0,0.0049254563,0.0018435177,0.00525915176368043,0.3581424785126626
7490570571.0,0.0049362316,0.001866526,0.005277338507004697,0.3615099572580849
7490573574.0,0.0049246218,0.0018353968,0.0052555286400594835,0.35675097127855654
7490576577.0,0.0048962497,0.0018193374,0.005223337027206731,0.35576696256646106
7490579580.0,0.0048556317,0.0017956838,0.0051770299898327155,0.3542168895339592
7490582583.0,0.0048709865,0.0017682403,0.00518200571610321,0.34822194170022724
7490585586.0,0.0048601022,0.0017760772,0.005174460707629799,0.3503633362679815
7490588589.0,0.0048310205,0.0017627249,0.005142563382642965,0.3498656961798233
7490591592.0,0.0048320358,0.0017337304,0.005133652800138105,0.3444921099578985
7490594595.0,0.0048228057,0.0017359821,0.005125728111348953,0.3455137373230153
7490597598.0,0.0048028119,0.0017075,0.005097308936760809,0.3415847224958503
7490600601.0,0.004797234,0.0017266363,0.005098502423578289,0.3454876802286618
7490603604.0,0.0047755606,0.0016738636,0.005060414844227429,0.3371257061024692
7490606607.0,0.0047778364,0.0016964261,0.005070067275483252,0.34117687868655416
7490609610.0,0.0047660074,0.001651577,0.005044059191145933,0.33358250018840285
7490612613.0,0.0047644601,0.0016680735,0.005048024291333617,0.3367706379377919
7490615616.0,0.0047434039,0.0016173958,0.0050115715830857735,0.32861479503664104
7490618619.0,0.0047118887,0.0016314576,0.004986336232323834,0.333323746575939
7490621622.0,0.0047028848,0.0016099213,0.004970812009547809,0.3298223000107669
7490624625.0,0.0047004448,0.0015845294,0.00496033413565169,0.32513852189049874
7490627628.0,0.0046736741,0.0015690439,0.0049300231594930684,0.3238966356387575
7490630631.0,0.004662947,0.0015755565,0.004921935900588431,0.32584465080922165
7490633634.0,0.0046806676,0.0015350186,0.004925944709802955,0.31689653229484155
7490636637.0,0.0046557834,0.0015405347,0.0049040357084364355,0.3195465630156441
7490639640.0,0.0046314344,0.0015277942,0.004876919080634515,0.31863478854080435
7490642643.0,0.0046451736,0.0015002616,0.004881436534727408,0.31239666580691117
7490645646.0,0.0045920964,0.0014988842,0.004830528251848093,0.3155023400261941
7490648649.0,0.0045802433,0.0014745009,0.004811733740690116,0.3114493596356192
7490651652.0,0.0045957755,0.0014677987,0.004824477740659805,0.3091404184412919
7490654655.0,0.0045714358,0.0014732912,0.004802979516250207,0.31177154632083265
7490657658.0,0.0045653023,0.0014271003,0.004783157989931482,0.3029733352002791
7490660661.0,0.004563364,0.0014228052,0.004780027785865166,0.302236694329036
7490663664.0,0.0045307177,0.0014278194,0.0047503758920857675,0.3052899937705733
7490666667.0,0.0044944751,0.0013948563,0.00470594629401672,0.3009241309691582
7490669670.0,0.0044979988,0.0013686268,0.004701609567209902,0.29537382035352755
7490672673.0,0.0044996333,0.0013752562,0.00470510674162737,0.29662065834075324
7490675676.0,0.0044991693,0.0013581871,0.0046997017552892545,0.29317616389114853
7490678679.0,0.0044779946,0.0013282626,0.004670836881350913,0.2883529671387697
7490681682.0,0.0044398139,0.0013086195,0.004628653417832605,0.2866301058603319
7490684685.0,0.0044351341,0.0013105352,0.00462470723348212,0.28731352714739755
7490687688.0,0.0044223111,0.0012926349,0.004607357208843398,0.2843763076422558
7490690691.0,0.0043987856,0.0012576965,0.0045750535779244825,0.27848893814550235
7490693694.0,0.0043809253,0.0012700664,0.004561312875103948,0.28217279020599484
7490696697.0,0.0043609373,0.0012595192,0.004539180845670277,0.2811671978515537
7490699700.0,0.0043743961,0.001236741,0.00454586290386943,0.275531656919081
7490702703.0,0.0043435272,0.0012273254,0.004513596811260948,0.2753849222735543
7490705706.0,0.0043352392,0.0012339658,0.004507435026352158,0.27730260942425317
7490708709.0,0.0043255185,0.0012165455,0.004493338763927388,0.27416604182502324
7490711712.0,0.0042917069,0.0011954348,0.004455088380330816,0.27165925436701827
7490714715.0,0.0042950525,0.001198501,0.004459134515212257,0.27212033661213353
7490717718.0,0.0042986667,0.0011608538,0.004452652798351039,0.2637581888623082
7490720721.0,0.0042687339,0.0011745713,0.004427381488847883,0.2685120112666333
7490723724.0,0.00426126,0.0011306905,0.004408718384563733,0.2593650977613092
7490726727.0,0.0042329807,0.0011557283,0.004387919040957043,0.2665332645683635
7490729730.0,0.004234458,0.0011345966,0.004383827551181223,0.26179431968761835
7490732733.0,0.0041988861,0.0011221489,0.00434624695968193,0.2611461603887826
7490735736.0,0.0042132077,0.0011049497,0.004355689722979517,0.2564824225552564
7490738739.0,0.0041677703,0.0011027943,0.004311202215354156,0.2586724512525525
7490741742.0,0.0041573756,0.0010816235,0.0042957748166340855,0.2545270826505523
7490744745.0,0.0041427531,0.0010776863,0.00428063208051887,0.2544970434611797
7490747748.0,0.0041494835,0.001070945,0.004285456394574241,0.252579253630254
7490750751.0,0.0041210933,0.0010633596,0.004256071384060311,0.2525205257850966
7490753754.0,0.0041042302,0.0010363268,0.0042330460393185275,0.24733220357374627
7490756757.0,0.0041053377,0.0010178211,0.00422962852064416,0.24302597541246834
