frequency,Re(S21),Im(S21),Amplitude,phase
7989000000.0,0.0156758727,-0.0021018431,0.01581615406233838,-0.13328646905011235
7989005005.0,0.0156603503,-0.002086572,0.015798745337206183,-0.1324590078357622
7989010010.0,0.0156660145,-0.0020682808,0.015801955441712232,-0.13126427860163137
7989015015.0,0.0156812112,-0.0020775501,0.01581823628338556,-0.13171948093381694
7989020020.0,0.0156664106,-0.0020953931,0.015805919566141035,-0.13296156844819365
7989025025.0,0.015663423,-0.0021242502,0.015806810525502257,-0.13479612445943784
7989030030.0,0.0156376513,-0.0021496644,0.01578471397311396,-0.13661098736119592
7989035035.0,0.0156442365,-0.0021902797,0.015796818060361532,-0.1391013700241687
7989040040.0,0.0156189256,-0.0022110151,0.015774644993493937,-0.1406256238992985
7989045045.0,0.015615742,-0.0022490031,0.015776863222908843,-0.14303797035187873
7989050050.0,0.015610951,-0.0022763741,0.015776047355644942,-0.1447985158064714
7989055055.0,0.0156036154,-0.0023080671,0.01577339491958594,-0.14685386482009735
7989060060.0,0.0156122832,-0.0023571246,0.01578921857144702,-0.14984712267526953
7989065065.0,0.0155705221,-0.0023860145,0.015752276777050316,-0.15205636354419363
7989070070.0,0.0155750691,-0.0023984024,0.01575865195827678,-0.15278968937562498
7989075075.0,0.0155611755,-0.002440583,0.01575140083680462,-0.1555706367081639
7989080080.0,0.0155451527,-0.0024712009,0.015740349626182964,-0.15765005648233793
7989085085.0,0.0155489724,-0.0025006752,0.015748775163543886,-0.15946030002422645
7989090090.0,0.0155332064,-0.0025365591,0.015738952733037666,-0.1618703773027893
7989095095.0,0.0155149916,-0.0025921413,0.01573004007837349,-0.1655443230121325
7989100100.0,0.0155208508,-0.0026131879,0.015739299875044223,-0.166801897368097
7989105105.0,0.0155017202,-0.0026477929,0.015726224480159832,-0.16917379461684404
7989110110.0,0.0155023539,-0.0026780082,0.01573196441516801,-0.17106022626250925
7989115115.0,0.0155021949,-0.0027167157,0.015738443090477932,-0.17348547641099318
7989120120.0,0.015485138,-0.0027498006,0.015727393370129853,-0.175744757301101
7989125125.0,0.0154568681,-0.0027796048,0.015704807362873975,-0.1779280309494185
7989130130.0,0.0154486704,-0.0027879801,0.01569822442717112,-0.17854555253301163
7989135135.0,0.0154566669,-0.0028221936,0.015712203167393062,-0.18059806329863573
7989140140.0,0.0154219867,-0.002886672,0.01568982310322716,-0.1850378308216066
7989145145.0,0.0154218568,-0.0029198452,0.015695832668312606,-0.18711677965080503
7989150150.0,0.0153980062,-0.0029641674,0.015680716925908115,-0.1901769373588484
7989155155.0,0.0153926548,-0.0029836978,0.015679166889656093,-0.1914646255122561
7989160160.0,0.0153829495,-0.0030276129,0.015678060313437905,-0.19433229986093736
7989165165.0,0.0153848731,-0.0030619222,0.015686608551945078,-0.19645462259734997
7989170170.0,0.0153777208,-0.0030931497,0.0156857219173796,-0.19849615667834158
7989175175.0,0.0153526839,-0.0031170313,0.015665911625516688,-0.2003058081191262
7989180180.0,0.0153513902,-0.0031201084,0.01566525638157278,-0.20051474067410857
7989185185.0,0.015331206,-0.0031690201,0.01565530471784692,-0.2038332307329284
7989190190.0,0.0153259499,-0.0032184795,0.0156602474638567,-0.20699407031767256
7989195195.0,0.015301445,-0.0032489406,0.015642564818799803,-0.20922178065630928
7989200200.0,0.0152977745,-0.0032983753,0.015649318971523978,-0.2123605184351624
7989205205.0,0.0152781574,-0.0033025989,0.015631034931617802,-0.2128891704690675
7989210210.0,0.0152754055,-0.0033764452,0.01564411695743909,-0.21754017659803437
7989215215.0,0.0152573956,-0.0033534201,0.01562157312379209,-0.21634981092923092
7989220220.0,0.0152496726,-0.0034245068,0.01562945172520255,-0.22089812169131515
7989225225.0,0.0152493238,-0.0034365082,0.01563174542288588,-0.22165211324271478
7989230230.0,0.0152318568,-0.0034830742,0.015625020558655656,-0.2248051871660813
7989235235.0,0.0151966823,-0.0035101559,0.015596805678389345,-0.22700058930308756
7989240240.0,0.0151954929,-0.0035391131,0.0156021897824806,-0.22882610382855803
7989245245.0,0.0151767051,-0.0035857407,0.015594547574713494,-0.23201144647978286
7989250250.0,0.0151785565,-0.0036101386,0.015601976738057976,-0.23350603179376897
7989255255.0,0.0151755022,-0.0036545796,0.015609350373251956,-0.23632112094027688
7989260260.0,0.0151472649,-0.0036791229,0.015587673952969262,-0.23827601755127487
7989265265.0,0.0151225219,-0.0037012063,0.015568866262227936,-0.2400294856486045
7989270270.0,0.0151438368,-0.0037418682,0.015599274683497482,-0.24223657367425394
7989275275.0,0.0151048277,-0.0037666884,0.01556739417337988,-0.24438547931717242
7989280280.0,0.0150834325,-0.0037978083,0.015554204700517644,-0.24665959268705245
7989285285.0,0.0150921107,-0.0038404917,0.015573091596687644,-0.24918141953860373
7989290290.0,0.0150733621,-0.0038703371,0.015562318409072372,-0.25133709099336743
7989295295.0,0.0150477849,-0.0039124425,0.015548087879622826,-0.25436920551729447
7989300300.0,0.0150404444,-0.0039479906,0.015549970981554265,-0.25670048962779923
7989305305.0,0.0150426435,-0.0039863427,0.015561878151108094,-0.25904835005782756
7989310310.0,0.0150236379,-0.0039939127,0.015545450601559856,-0.259832239282423
7989315315.0,0.0150032699,-0.0040274662,0.015534432454531077,-0.2622565418291437
7989320320.0,0.014974259,-0.004068683,0.015517171583557681,-0.2653066432591063
7989325325.0,0.0149843881,-0.0040804197,0.015530026131966737,-0.2658649266614007
7989330330.0,0.0149684595,-0.0041359766,0.015529361939206898,-0.2695862783975497
7989335335.0,0.0149568713,-0.0041739956,0.015528368824624918,-0.27214496039714037
7989340340.0,0.0149425287,-0.0042066489,0.015523371377319907,-0.27441939156024736
7989345345.0,0.0149352489,-0.00423605,0.015524360834103645,-0.2763694717491781
7989350350.0,0.0148952982,-0.0042681295,0.015494735812387816,-0.27906479661770434
7989355355.0,0.0149021989,-0.0043074342,0.015512237796091538,-0.2813780234729035
7989360360.0,0.0148701674,-0.0043264667,0.015486774764625191,-0.2831329747305872
7989365365.0,0.0148561673,-0.0043833636,0.01548933772939935,-0.28691253112734016
7989370370.0,0.0148489084,-0.0043997084,0.015487011160214907,-0.28805741807593926
7989375375.0,0.0148431874,-0.0044187069,0.015486935877042507,-0.2893385624570527
7989380380.0,0.0148274434,-0.0044505715,0.015480977503272065,-0.29160147898624555
7989385385.0,0.0148010311,-0.0045024665,0.015470705420464494,-0.29530509464075266
7989390390.0,0.0147835488,-0.0045225287,0.015459837675871798,-0.2968757249638112
7989395395.0,0.0147831502,-0.004575182,0.015474941685476041,-0.3001369121015592
7989400400.0,0.0147660387,-0.004588973,0.01546268321102863,-0.30131610742560794
7989405405.0,0.0147295046,-0.0046161894,0.015435916245500088,-0.30370227855400106
7989410410.0,0.0147250595,-0.0046415454,0.015439278512249249,-0.3053555258560645
7989415415.0,0.0147150429,-0.0047087609,0.015450078212171264,-0.3096996879464599
7989420420.0,0.0146884966,-0.0047228608,0.015429107119479993,-0.31109443435562256
7989425425.0,0.0146703051,-0.0047563288,0.015422078828121565,-0.3135214725905964
7989430430.0,0.0146792973,-0.0047922707,0.015441749502043666,-0.3155559952381201
7989435435.0,0.0146509044,-0.0048213665,0.015423831387345415,-0.31792056954100045
7989440440.0,0.0146503426,-0.0048499895,0.015432269322672054,-0.3196937538623192
7989445445.0,0.0146233484,-0.004877135,0.01541521210480114,-0.32191582754461895
7989450450.0,0.0145908866,-0.00490455,0.015393134264228307,-0.3242725383030615
7989455455.0,0.0145839349,-0.0049355423,0.015396452025142914,-0.32632444188036824
7989460460.0,0.0145693011,-0.0049740715,0.015394996649222547,-0.3289997923207644
7989465465.0,0.014572214,-0.005012495,0.015410208531581298,-0.33129837096796827
7989470470.0,0.014536229,-0.0050315802,0.015382417002846887,-0.3332325442774212
7989475475.0,0.0145245423,-0.0050768595,0.015386254625711533,-0.336261953816116
7989480480.0,0.0144928243,-0.0051032829,0.015365072487564219,-0.3385664840312113
7989485485.0,0.0144769848,-0.0051324084,0.01535984065294369,-0.3406975594141317
7989490490.0,0.0144684291,-0.0051761455,0.015366454466105609,-0.34356628052737304
7989495495.0,0.0144392961,-0.0051893821,0.015343498898337225,-0.3450181279179217
7989500501.0,0.0144391386,-0.0052306508,0.015357357562469873,-0.34755046576217496
7989505506.0,0.0144012954,-0.0052525984,0.015329288931641406,-0.3497374301745715
7989510511.0,0.0143852501,-0.005305047,0.015332284373561529,-0.3533097328875304
7989515516.0,0.014368905,-0.0053320167,0.01532631178686196,-0.35532974666408423
7989520521.0,0.014365794,-0.0053543538,0.015331182011378328,-0.35676630028688594
7989525526.0,0.0143410664,-0.005392456,0.015321382679156113,-0.3596602311688634
7989530531.0,0.0143168039,-0.0054219535,0.01530909708856853,-0.3620215407124856
7989535536.0,0.0142876913,-0.0054645381,0.01529703563866043,-0.3652989830145477
7989540541.0,0.014296682,-0.0054826172,0.015311897582300497,-0.36619204369373265
7989545546.0,0.0142892022,-0.0055138691,0.015316136979160889,-0.3682720775368422
7989550551.0,0.0142562299,-0.005535353,0.015293143031969034,-0.3703588690767112
7989555556.0,0.0142405866,-0.005592148,0.015299229587335553,-0.37418954519403846
7989560561.0,0.0142309732,-0.0055771131,0.015284789457146928,-0.37350385207473824
7989565566.0,0.0141898406,-0.0056406713,0.015269864078244183,-0.3783621078694358
7989570571.0,0.0141631606,-0.005662081,0.015253008864874936,-0.3803126078576446
7989575576.0,0.0141736569,-0.0057020808,0.0152776397185117,-0.3824886931137217
7989580581.0,0.0141367622,-0.0057257061,0.015252270514350512,-0.3848285652736253
7989585586.0,0.0141145626,-0.0057733004,0.015249651632019629,-0.3882678061335387
7989590591.0,0.0141086372,-0.0057756578,0.01524506040210811,-0.3885580773183143
7989595596.0,0.0140823696,-0.0058262934,0.015240040299614949,-0.39228593896737085
7989600601.0,0.0140833754,-0.0058702632,0.015257832503163725,-0.3949236186087213
7989605606.0,0.0140588201,-0.0058519842,0.015228136513743683,-0.3944360578129733
7989610611.0,0.0140315867,-0.0059223701,0.015230229575452593,-0.3993898225863394
7989615616.0,0.0139924948,-0.0059350419,0.015199165539028208,-0.4011580547611878
7989620621.0,0.0139693997,-0.0059816222,0.0151961814980571,-0.4045734290120611
7989625626.0,0.0139706723,-0.0060114654,0.015209122287935766,-0.4063442777431443
7989630631.0,0.0139530586,-0.0060350063,0.015202274347480829,-0.40822464837334027
7989635636.0,0.0139215679,-0.0060647876,0.015185246176056027,-0.41084793952005405
7989640641.0,0.0139014401,-0.0060966057,0.015179546696629664,-0.41329920461715347
7989645646.0,0.0138823859,-0.0061249544,0.015173519851326462,-0.41551454965881496
7989650651.0,0.0138747188,-0.0061504152,0.015176805622773999,-0.41725333644224616
7989655656.0,0.0138522604,-0.0061858763,0.015170701492953773,-0.4199901955138204
7989660661.0,0.0138556413,-0.0062217632,0.01518845394209496,-0.4220568660503953
7989665666.0,0.0138034314,-0.0062481185,0.015151689780501323,-0.4250551975396449
7989670671.0,0.0137928553,-0.0062780528,0.015154431836473643,-0.4271425028500569
7989675676.0,0.0137734702,-0.0063062209,0.015148495086637645,-0.42936503480271593
7989680681.0,0.0137470534,-0.0063485429,0.015142175343575703,-0.4326325755505166
7989685686.0,0.0137356884,-0.0063675744,0.01513985269285768,-0.43408853154586763
7989690691.0,0.0136911506,-0.0063987739,0.01511264080745657,-0.4372010127230843
7989695696.0,0.0136802926,-0.0064197946,0.015111722877547877,-0.4387654170870925
7989700701.0,0.0136506729,-0.0064594188,0.01510181981936574,-0.4419739084184455
7989705706.0,0.01365674,-0.0065076894,0.01512800610637345,-0.4446865751679654
7989710711.0,0.0136188194,-0.00652456,0.015101063705693593,-0.44677532699003575
7989715716.0,0.0136067618,-0.0065621262,0.0151064710288891,-0.44936286294585354
7989720721.0,0.0135763341,-0.0065888914,0.015090736810236165,-0.45183627689548705
7989725726.0,0.0135568671,-0.0066145923,0.015084478010931691,-0.4539325645613625
7989730731.0,0.013540104,-0.0066380845,0.015079740785569104,-0.4558201186384096
7989735736.0,0.0135124687,-0.0066529332,0.015061485004213294,-0.4575130255305108
7989740741.0,0.0134874573,-0.0066902864,0.015055611463283325,-0.46047269432066285
7989745746.0,0.0134638966,-0.0067340251,0.015054022907612489,-0.4637710010274014
7989750751.0,0.0134579162,-0.0067624116,0.015061398311379889,-0.46563425984808715
7989755756.0,0.0134256137,-0.0068135193,0.015055601896739306,-0.46963079664267826
7989760761.0,0.0133847431,-0.0068182355,0.015021307639032559,-0.4711421092009776
7989765766.0,0.0133726423,-0.0068494639,0.015024736862958781,-0.4733596995975784
7989770771.0,0.0133701981,-0.0068728323,0.015033230559569254,-0.4748173449008988
7989775776.0,0.0133230942,-0.0069039733,0.015005655146949983,-0.47809816977946784
7989780781.0,0.0133199043,-0.0069247005,0.015012372483250564,-0.4794217941786595
7989785786.0,0.0132866595,-0.0069684432,0.01500315037918925,-0.48303077266636
7989790791.0,0.0132625753,-0.0070033287,0.014998083759881252,-0.4858365061996805
7989795796.0,0.0132417244,-0.0070311143,0.014992659316652928,-0.4881247393795405
7989800801.0,0.0132281391,-0.0070560328,0.014992373492000012,-0.4900176675215443
7989805806.0,0.0131874747,-0.0070702524,0.014963220173573797,-0.49213517155197894
7989810811.0,0.0132016984,-0.0070999071,0.014989780567880005,-0.4934303633169248
7989815816.0,0.0131730452,-0.0071412645,0.014984217647251502,-0.4967669196644636
7989820821.0,0.0131342124,-0.0071564044,0.014957327946683963,-0.4988941106214264
7989825826.0,0.0130904166,-0.0072022764,0.01494094348103735,-0.5029925963069588
7989830831.0,0.0130874328,-0.0072190506,0.014946423948887446,-0.5040721157979877
7989835836.0,0.0130635818,-0.0072401251,0.014935748421453182,-0.5060789288707555
7989840841.0,0.0130221283,-0.0072669846,0.014912574916435392,-0.5090017922585977
7989845846.0,0.0129947115,-0.0072973471,0.014903482870326341,-0.511677267638707
7989850851.0,0.012987033,-0.0073510288,0.014923158196625756,-0.5150657051241638
7989855856.0,0.0129711611,-0.0073602517,0.014913897055079403,-0.516128116821976
7989860861.0,0.0129523685,-0.0073902122,0.014912380296948611,-0.5184974387307603
7989865866.0,0.0129246522,-0.0074276052,0.014906909589114435,-0.5215976010925315
7989870871.0,0.0128934666,-0.0074360058,0.014884074147320995,-0.5231309349589237
7989875876.0,0.0128624992,-0.0074550931,0.014866818718194832,-0.5252837644655695
7989880881.0,0.0128478645,-0.0075095222,0.014881550520112247,-0.5289413051680056
7989885886.0,0.012780833,-0.0075289423,0.014833565462511645,-0.5323519276143265
7989890891.0,0.012786041,-0.0075661012,0.01485694220969855,-0.5343290055283794
7989895896.0,0.0127716404,-0.0075888045,0.01485613517191239,-0.5361378485558707
7989900901.0,0.0127220397,-0.0076240903,0.014831623209579259,-0.5398914441677447
7989905906.0,0.0127080134,-0.007629999,0.01482263435812206,-0.540719798546654
7989910911.0,0.0127017771,-0.0076739582,0.01483997223560178,-0.5434757414995858
7989915916.0,0.0126467816,-0.0077024568,0.014807731953069815,-0.5470435721551881
7989920921.0,0.0126423978,-0.0077241121,0.014815266783517982,-0.5484458662581136
7989925926.0,0.0125988364,-0.0077620877,0.01479799594865657,-0.5521705132432004
7989930931.0,0.0125870287,-0.0077639538,0.01478892389943089,-0.5526967411269543
7989935936.0,0.0125492757,-0.0078062328,0.014779093041266312,-0.5564726173558254
7989940941.0,0.0125193322,-0.0078253456,0.014763797360211776,-0.5586431388593165
7989945946.0,0.0125039657,-0.007866563,0.014772676523221697,-0.5615604293549366
7989950951.0,0.0124798004,-0.0078745016,0.014756462769655969,-0.5628878235855803
7989955956.0,0.0124557062,-0.0079034585,0.014751585447060959,-0.5654195382356874
7989960961.0,0.0124204872,-0.0079279412,0.01473501794895484,-0.5681030533141361
7989965966.0,0.012408645,-0.007970866,0.014748192279936581,-0.5709884151916483
7989970971.0,0.0123768358,-0.0079763359,0.014724401475434933,-0.5724685383517811
7989975976.0,0.0123567474,-0.008026041,0.014734535637103998,-0.5760426316420623
7989980981.0,0.012323401,-0.0080386338,0.014713457974837304,-0.5779949091194125
7989985986.0,0.0122863986,-0.0080438419,0.014685332242420582,-0.5796685659812039
7989990991.0,0.0122751421,-0.008101747,0.014707733272914676,-0.5833817013210677
7989995996.0,0.0122177832,-0.0081114344,0.014665251254162188,-0.5860875067561058
7990001001.0,0.0122080291,-0.0081510348,0.014679078404901917,-0.5887025635695999
7990006006.0,0.0121819003,-0.0081477099,0.01465550652600237,-0.5895038783000918
7990011011.0,0.0121561594,-0.0081914226,0.014658499772145821,-0.5929589005374978
7990016016.0,0.0121212096,-0.0082226879,0.014647058355449348,-0.5960625032991403
7990021021.0,0.0120897611,-0.0082376466,0.014629461540383665,-0.5981154805676335
7990026026.0,0.0120861638,-0.0082764363,0.014648370326708297,-0.6004421120642282
7990031031.0,0.0120550839,-0.008294407,0.014632916159046638,-0.6026554622892565
7990036036.0,0.0120094725,-0.0083630942,0.014634506289121267,-0.6082888089380506
7990041041.0,0.0119939528,-0.0083578171,0.014618755434224908,-0.6085992607674863
7990046046.0,0.0119712152,-0.0083789298,0.014612202365079641,-0.6106743375705281
7990051051.0,0.0119205399,-0.0083946278,0.014579747851318447,-0.6135494941665597
7990056056.0,0.0119026079,-0.0084214427,0.014580561442225937,-0.6157612681957664
7990061061.0,0.0118760485,-0.0084503542,0.014575630829566515,-0.6184329651448028
7990066066.0,0.011842104,-0.0084794636,0.014564914352324253,-0.6214125696656388
7990071071.0,0.0118165745,-0.0085019762,0.01455730168057998,-0.6236909401070715
7990076076.0,0.0118023072,-0.0085215111,0.014557149675351802,-0.6253526423544197
7990081081.0,0.0117535025,-0.0085604669,0.014540509432736595,-0.6294895882776812
7990086086.0,0.0117538442,-0.0085747331,0.014549189022557555,-0.6302683672042063
7990091091.0,0.0117041583,-0.008606651,0.01452796485910053,-0.6340588903093599
7990096096.0,0.0116681683,-0.008639753,0.014518659834093983,-0.6373642380159361
7990101101.0,0.0116450953,-0.0086475707,0.014504782782157772,-0.6387439965162048
7990106106.0,0.011605661,-0.0086889102,0.014497880110919148,-0.6426548856647744
7990111111.0,0.0115954538,-0.0086989478,0.014495731842685947,-0.6436312132975472
7990116116.0,0.0115669082,-0.0087421319,0.014498904629806518,-0.6471952307416098
7990121121.0,0.0115166299,-0.0087235678,0.014447608778437034,-0.6482684417100472
7990126126.0,0.0115000152,-0.0087649198,0.014459397245413208,-0.6512419458346469
7990131131.0,0.0114557305,-0.0087813681,0.014434201986820326,-0.6540080263582286
7990136136.0,0.0114338523,-0.0088166282,0.014438348632556651,-0.6568680756240298
7990141141.0,0.0114022772,-0.0088698278,0.014445960353929145,-0.6611191196365929
7990146146.0,0.0113664585,-0.0088576053,0.014410189120299923,-0.6619758339984998
7990151151.0,0.0113595415,-0.0089065277,0.014434868158770608,-0.6649437000858684
7990156156.0,0.0113031863,-0.0089459511,0.014414994332850045,-0.6695081505274886
7990161161.0,0.0112916156,-0.0089500729,0.014408483187812581,-0.6702308356553436
7990166166.0,0.0112552012,-0.0089515553,0.014380886493587229,-0.6718844997522394
7990171171.0,0.0112202954,-0.0089939311,0.014380049565102632,-0.6757018084469666
7990176176.0,0.0111742354,-0.0090283964,0.01436577454682295,-0.6795791014462915
7990181181.0,0.011149869,-0.0090355081,0.01435130605005435,-0.6810315963764877
7990186186.0,0.0111289843,-0.0090483928,0.014343211070493885,-0.6826462513647148
7990191191.0,0.0111054905,-0.0090744956,0.014341491890316348,-0.6850919092938383
7990196196.0,0.0110604584,-0.0091119162,0.014330413701423732,-0.6891023310437931
7990201201.0,0.0110185316,-0.0091148634,0.014299957112553103,-0.6911256691805489
7990206206.0,0.0109930636,-0.009146847,0.014300778208022596,-0.693984099362159
7990211211.0,0.0109665539,-0.0091638323,0.014291295492856081,-0.6960841483381371
7990216216.0,0.0109455871,-0.0091934557,0.01429424725795482,-0.6986149639989971
7990221221.0,0.0108994367,-0.0092045632,0.014266103325018403,-0.7012917579891226
7990226226.0,0.0108785453,-0.0092165393,0.014257887098465767,-0.7028788866221752
