frequency,Re(S21),Im(S21),Amplitude,phase
8635600000.0,0.0076859569,0.0013790248,0.007808690214605305,0.17753239627605985
8635609610.0,0.0076743233,0.0013251755,0.00778789626399345,0.17099035013917777
8635619219.0,0.0076867004,0.0012905733,0.007794289094076062,0.16634543853220343
8635628829.0,0.0076835745,0.0012465174,0.0077840299797439765,0.16083024827946227
8635638438.0,0.0076709285,0.0011916366,0.0077629338422127376,0.15411270619633446
8635648048.0,0.0076846626,0.001154996,0.0077709751663388275,0.14918221480905455
8635657658.0,0.0076803022,0.0011392642,0.007764339302266902,0.1472620267808882
8635667267.0,0.0076861746,0.0011039078,0.0077650429755788215,0.14264704813467413
8635676877.0,0.007654887,0.0010405081,0.0077252800654044,0.13509931541093306
8635686486.0,0.0076303815,0.0010067989,0.00769651647569103,0.13118825996687508
8635696096.0,0.007671657,0.0009755858,0.00773343964732451,0.12648862196137314
8635705706.0,0.0076681782,0.0009275855,0.007724077405539479,0.12038067417022014
8635715315.0,0.0076796146,0.0009211609,0.007734663393336646,0.11937849671946882
8635724925.0,0.0076375788,0.0008711428,0.007687099563827782,0.11356926993157353
8635734535.0,0.0076360256,0.0008204349,0.007679973983614356,0.10703206323382417
8635744144.0,0.0076507133,0.0007757367,0.007689940274574554,0.10104869483050684
8635753754.0,0.0076337373,0.0007569881,0.007671178276441821,0.09884036512376188
8635763363.0,0.0076168879,0.0007037157,0.007649326576084518,0.09212734453610835
8635772973.0,0.0076291461,0.0006554129,0.007657247304654044,0.08569866110717014
8635782583.0,0.0076251671,0.0006684963,0.007654414452199208,0.08744614552574982
8635792192.0,0.0076087473,0.0006085424,0.007633043909729266,0.0798094326042422
8635801802.0,0.0076137369,0.0005657862,0.007634730093888851,0.0741749013097029
8635811411.0,0.0075934512,0.0005210798,0.007611309038841445,0.06851485119805412
8635821021.0,0.0075767112,0.0005146865,0.0075941724237396455,0.06782586778698943
8635830631.0,0.0075790013,0.000454042,0.00759258946889437,0.05983637815289607
8635840240.0,0.0075722399,0.0004315796,0.007584528861721614,0.05693337719960829
8635849850.0,0.0075736228,0.0003842669,0.007583364910586556,0.05069405745435227
8635859459.0,0.0075390572,0.0003742486,0.007548340577867019,0.04960058382544654
8635869069.0,0.0075128611,0.0003043785,0.007519024416714941,0.04049218041915505
8635878679.0,0.00753883,0.000302977,0.007544915694123361,0.040167246199512265
8635888288.0,0.0075219063,0.0002467615,0.007525952805051459,0.032793952023049515
8635897898.0,0.007511359,0.0002046326,0.0075141458947683305,0.02723634929437123
8635907508.0,0.007487233,0.0001679914,0.0074891173783539385,0.022433283213462683
8635917117.0,0.0074814068,0.0001351741,0.007482627863551484,0.01806603987342691
8635926727.0,0.0074795595,0.0001048484,0.007480294345881238,0.014017073210903596
8635936336.0,0.0075054444,6.25838e-05,0.007505705321521343,0.008338260367451006
8635945946.0,0.0074723081,5.32692e-05,0.007472497972498504,0.007128760875148947
8635955556.0,0.0074586563,9.2168e-06,0.007458661994683224,0.0012357179279935471
8635965165.0,0.007466366,-2.85558e-05,0.0074664206069354035,-0.0038245728601971193
8635974775.0,0.0074298073,-6.97033e-05,0.0074301342562005015,-0.00938130052894036
8635984384.0,0.007400177,-0.0001153612,0.007401076127009804,-0.015587715872237048
8635993994.0,0.0073917448,-0.000151298,0.007393293060141133,-0.02046565190472926
8636003604.0,0.0073868094,-0.0001812508,0.0073890327489076,-0.02453216648417965
8636013213.0,0.0073646254,-0.0002165833,0.007367809417198849,-0.029400123175377175
8636022823.0,0.0074003484,-0.0002473602,0.007404481312686703,-0.033413040336616184
8636032432.0,0.0073457401,-0.0002599116,0.007350336839666777,-0.03536787500151493
8636042042.0,0.0073722367,-0.0002847732,0.007377734729323434,-0.038608593426839755
8636051652.0,0.0073322108,-0.0003351615,0.007339867059199294,-0.04567904054157503
8636061261.0,0.0073304666,-0.0003455834,0.00733860807374744,-0.04710855932761446
8636070871.0,0.0072856047,-0.0004126922,0.007297283788958939,-0.05658441143940434
8636080480.0,0.0073111538,-0.0004392729,0.007324338234129337,-0.06001042717048926
8636090090.0,0.007283226,-0.0004802179,0.0072990403614829,-0.06583947973090352
8636099700.0,0.0072913409,-0.0005245981,0.007310188457662116,-0.07182433372356774
8636109309.0,0.0072611208,-0.0005435832,0.007281439278570884,-0.07472277908103078
8636118919.0,0.0072381595,-0.000582994,0.007261600026955234,-0.0803710081350439
8636128529.0,0.0072275491,-0.0006268118,0.007254678423302445,-0.08650890748847438
8636138138.0,0.007195483,-0.0006326211,0.007223239235928311,-0.08769371143101101
8636147748.0,0.0072069039,-0.0006918354,0.007240034533379545,-0.09570294441359403
8636157357.0,0.0071957097,-0.0007321901,0.007232865298705078,-0.10140468785843425
8636166967.0,0.007166607,-0.0007368477,0.007204387581567519,-0.10245679257333673
8636176577.0,0.0071683225,-0.0007504441,0.007207497055929406,-0.10430898193553051
8636186186.0,0.007135866,-0.0008075833,0.0071814186868887474,-0.11269293928939533
8636195796.0,0.0071148119,-0.0008365815,0.007163826978544629,-0.11704563914644034
8636205405.0,0.0070818814,-0.0008769542,0.007135971751104653,-0.12320350034350497
8636215015.0,0.0071042146,-0.0008928762,0.007160104258415488,-0.12502704172888848
8636224625.0,0.0070470363,-0.0009209675,0.007106961499091855,-0.12995212716281548
8636234234.0,0.0070460899,-0.000951751,0.007110078258703135,-0.13426244150399957
8636243844.0,0.0070084735,-0.0009730417,0.007075698619227726,-0.13795599337694023
8636253453.0,0.0070199918,-0.0010175277,0.007093352345142213,-0.14394464503994875
8636263063.0,0.0070021451,-0.0010579501,0.007081616652682071,-0.14995523249996798
8636272673.0,0.0069918162,-0.0010922034,0.007076609501841542,-0.15495934125931352
8636282282.0,0.0069562715,-0.0011139402,0.007044897156870942,-0.15878656217111586
8636291892.0,0.0069337007,-0.0011569664,0.007029564470712922,-0.16533805667034127
8636301502.0,0.0069410628,-0.0011781753,0.007040344439803633,-0.16813735126292953
8636311111.0,0.0069139612,-0.0011950897,0.007016487644552046,-0.17116041080326658
8636320721.0,0.0068998363,-0.001245567,0.007011360646713781,-0.17859777348231906
8636330330.0,0.0068686089,-0.0012655252,0.00698422094817985,-0.182204236846062
8636339940.0,0.0068508769,-0.0012715864,0.006967886786653367,-0.18352082947270407
8636349550.0,0.0068432644,-0.0012969936,0.006965088660365231,-0.18730683009409826
8636359159.0,0.0068065924,-0.0013570581,0.006940555221775371,-0.19679364164335786
8636368769.0,0.0067910208,-0.0013953687,0.006932893862953069,-0.20265209460897812
8636378378.0,0.0067646051,-0.0014092804,0.006909844672984348,-0.2053936424048063
8636387988.0,0.006742201,-0.001435571,0.006893340149770792,-0.20979027192913746
8636397598.0,0.0067226315,-0.0014544604,0.006878170493667659,-0.21306886539113998
8636407207.0,0.0067008979,-0.0014972812,0.006866140375647577,-0.21983374662437313
8636416817.0,0.0066765212,-0.0014999079,0.006842927666030956,-0.2209851908850978
8636426426.0,0.0066399001,-0.0015564888,0.006819892280857921,-0.23025702128278638
8636436036.0,0.0066256319,-0.0015924008,0.006814303954340329,-0.23586592899645056
8636445646.0,0.0065952945,-0.0016132077,0.00678972375174937,-0.23988969737125745
8636455255.0,0.0066066106,-0.0016271899,0.006804046633489101,-0.24149067974795813
8636464865.0,0.0065686264,-0.0016504497,0.0067728012664633125,-0.2461665749440919
8636474474.0,0.0065491806,-0.0016911528,0.006764005050586834,-0.2527033934413339
8636484084.0,0.0065462041,-0.0017258506,0.006769885406148111,-0.25777587791524376
8636493694.0,0.0065201435,-0.0017444496,0.006749472251038033,-0.26142478171635253
8636503303.0,0.0064830116,-0.0017582278,0.006717202126066134,-0.26483499693413626
8636512913.0,0.0064580559,-0.0018013211,0.0067045688685276415,-0.27201270687817836
8636522523.0,0.0064344916,-0.0017987293,0.0066811757382326835,-0.27258663757677537
8636532132.0,0.0063932806,-0.00183354,0.0066510078756483485,-0.2792955024591412
8636541742.0,0.0063792155,-0.0018532775,0.006642968303962205,-0.28273525404110034
8636551351.0,0.0063675112,-0.0018940191,0.006643230180664392,-0.28911612364079675
8636560961.0,0.0063387304,-0.0019084121,0.006619783971347597,-0.29243968090962386
8636570571.0,0.0063276217,-0.0019361065,0.006617197651396937,-0.29693119064610113
8636580180.0,0.00629988,-0.0019571107,0.00659687579892592,-0.3012062418027507
8636589790.0,0.0062783215,-0.0019931207,0.006587097310813825,-0.3073978729880768
8636599399.0,0.0062340802,-0.0020025589,0.006547823920051703,-0.310816158392602
8636609009.0,0.006203386,-0.0020061036,0.006519697041959003,-0.3127736490708243
8636618619.0,0.0061849948,-0.002050576,0.0065160588247654,-0.3201360983735465
8636628228.0,0.006150109,-0.0020581484,0.0064853539262174085,-0.3229371949490291
8636637838.0,0.0061304713,-0.0020938422,0.006478182887092994,-0.32912427535665806
8636647447.0,0.0061241943,-0.0021221848,0.006481467746545032,-0.33357546537672733
8636657057.0,0.0060940767,-0.0021305294,0.006455766906398282,-0.3363243035492871
8636666667.0,0.0060526956,-0.0021684288,0.006429401798529066,-0.3440129055335454
8636676276.0,0.0060285764,-0.00218978,0.006413958984826529,-0.34841501095044347
8636685886.0,0.0060144463,-0.0021757265,0.006395885403787809,-0.347104017766025
8636695495.0,0.0059990422,-0.0022116599,0.00639374278733895,-0.35320853979070077
8636705105.0,0.0059620954,-0.0022509384,0.006372856913449079,-0.36099696482214194
8636714715.0,0.0059452217,-0.0022549866,0.006358508129139292,-0.36252990122707407
8636724324.0,0.0059101961,-0.0022865485,0.006337090971676789,-0.36914686047988277
8636733934.0,0.005852928,-0.0023022157,0.006289432669367763,-0.37475554472422457
8636743544.0,0.0058567721,-0.0023073115,0.006294876153616579,-0.37528534438309413
8636753153.0,0.0058252568,-0.002338507,0.006277119703733174,-0.3817494918627154
8636762763.0,0.0057767151,-0.0023665367,0.006242670366038471,-0.3888131800211958
8636772372.0,0.0057567541,-0.0023867651,0.006231923090864073,-0.39303108299917244
8636781982.0,0.005737306,-0.0023778139,0.006210529694049391,-0.39289900695332475
8636791592.0,0.0057289574,-0.0023952786,0.0062095339972201395,-0.3960120242057493
8636801201.0,0.0056850974,-0.0024134828,0.0061761826133448,-0.40147075714064423
8636810811.0,0.0056737686,-0.0024408056,0.006176502416686755,-0.40625945221174187
8636820420.0,0.0056395676,-0.0024642669,0.006154456439800786,-0.41195732045852657
8636830030.0,0.0056136711,-0.0024643418,0.006130765345876684,-0.4136598309418764
8636839640.0,0.0055689588,-0.0024815457,0.006096832880872325,-0.41919150968349755
8636849249.0,0.0055479856,-0.0025188649,0.006093014410147031,-0.42618721678589533
8636858859.0,0.0055273339,-0.0025061356,0.0060689484828655915,-0.42568413290468127
8636868468.0,0.0054910594,-0.0025752557,0.006064954678702129,-0.4385338672180356
8636878078.0,0.005473626,-0.0025766301,0.006049760677919582,-0.4399631453299317
8636887688.0,0.0054153812,-0.0025462047,0.005984104938553095,-0.4395084253398526
8636897297.0,0.0054054471,-0.0025966662,0.005996793618686644,-0.44782839956518644
8636906907.0,0.0053873834,-0.0025860528,0.005975915744300901,-0.44753638383227756
8636916517.0,0.0053477179,-0.0026094382,0.005950399520838887,-0.4539641296361182
8636926126.0,0.0053343194,-0.0025964377,0.005932659790616486,-0.4529851269734396
8636935736.0,0.0052866067,-0.0026370133,0.005907795658692147,-0.4626953092043809
8636945345.0,0.0052715072,-0.0026619645,0.00590549262626854,-0.46761743924554405
8636954955.0,0.0052486033,-0.0026387625,0.005874598210275929,-0.46584932347247676
8636964565.0,0.0051883672,-0.0026552214,0.005828323505524878,-0.47301473941627886
8636974174.0,0.0051901113,-0.0026596435,0.005831891533068833,-0.4735534986617022
8636983784.0,0.0051528208,-0.0026824295,0.0058092159728644005,-0.4799717701107312
8636993393.0,0.0050959833,-0.0027224566,0.005777613324960615,-0.4906596578403833
8637003003.0,0.0050978467,-0.0027162009,0.005776312691143174,-0.4895524261728762
8637012613.0,0.0050641036,-0.0027177555,0.005747289816018782,-0.4925519403347324
8637022222.0,0.0050461461,-0.0027272138,0.005735964223516013,-0.49548530545115343
8637031832.0,0.0050320367,-0.0027451682,0.005732132395229382,-0.49941118533907697
8637041441.0,0.0049865951,-0.0027476701,0.005693489410702195,-0.5036192864288419
8637051051.0,0.0049404699,-0.0027596853,0.005658984519137873,-0.5094124730569253
8637060661.0,0.0049336309,-0.0027646971,0.005655463191656651,-0.510775862157036
8637070270.0,0.0049125319,-0.0027888415,0.005648947386959792,-0.5163303904326564
8637079880.0,0.0048677342,-0.0027706533,0.005601013832392358,-0.5174550354419246
8637089489.0,0.0048424239,-0.0027758962,0.005581636761781051,-0.5205144921595141
8637099099.0,0.0048120122,-0.0028056083,0.005570179471612897,-0.5278575311190224
8637108709.0,0.0047754528,-0.0028078982,0.005539787157156047,-0.5315386536733472
8637118318.0,0.0047565712,-0.0028198783,0.005529618721709512,-0.5351370139929225
8637127928.0,0.0047290158,-0.0028205727,0.0055062892035049275,-0.537797510078882
8637137538.0,0.0046943091,-0.0028193321,0.005475871749450787,-0.5408496097672743
8637147147.0,0.0046642126,-0.0028270596,0.0054540943482810165,-0.5449053237542633
8637156757.0,0.0046459922,-0.0028252326,0.005437571403353119,-0.546354850529278
8637166366.0,0.0046184218,-0.0028673685,0.005436140362197015,-0.5556128108417963
8637175976.0,0.0045934523,-0.0028521993,0.005406925640259516,-0.5556651703802425
8637185586.0,0.0045616691,-0.0028631632,0.005385770927892222,-0.5605076319838653
8637195195.0,0.0045274625,-0.0028885465,0.005370439234510386,-0.567897051410372
8637204805.0,0.0045035847,-0.0028079878,0.005307265834214726,-0.5575203744279517
8637214414.0,0.0044933755,-0.0028590151,0.005325823009266104,-0.5666649550693723
8637224024.0,0.004447704,-0.0028657889,0.005291012841694793,-0.572378913090085
8637233634.0,0.0044173419,-0.002876036,0.005271099746238123,-0.5771329654505712
8637243243.0,0.004394382,-0.0028708702,0.005249046472186356,-0.5786948428949723
8637252853.0,0.0043603452,-0.0028879853,0.005230016190814243,-0.5849939430947602
8637262462.0,0.0043331029,-0.0028715891,0.005198250157622969,-0.5852581240595156
8637272072.0,0.0042976999,-0.0028728738,0.005169490139383811,-0.5892484739391983
8637281682.0,0.0042859909,-0.0028695913,0.0051579329410063575,-0.589980973432945
8637291291.0,0.0042500978,-0.0028827047,0.00513549585697106,-0.5959912472918667
8637300901.0,0.0042476534,-0.0028605046,0.0051210395402840544,-0.5926715006700778
8637310511.0,0.004221178,-0.0028694135,0.005104103990091331,-0.5970166646828797
8637320120.0,0.0041700909,-0.0028806009,0.005068285672625767,-0.6045088524914553
8637329730.0,0.0041389067,-0.0028815691,0.0050432121856391985,-0.6081812042718779
8637339339.0,0.0041321682,-0.0028693269,0.005030690896105112,-0.6069494012997042
8637348949.0,0.0041326243,-0.0028893023,0.005042484644075357,-0.6101516944359341
8637358559.0,0.0040617054,-0.0028472975,0.004960297754157043,-0.6114037258545244
8637368168.0,0.0040501489,-0.002887002,0.004973779916740909,-0.6192741567686394
8637377778.0,0.0040265522,-0.0028842674,0.004952991121941125,-0.6215898876656314
8637387387.0,0.0040095413,-0.0028772069,0.004935052277515741,-0.6224340674688552
8637396997.0,0.003973304,-0.0028571173,0.004893900687833305,-0.6234158689969216
8637406607.0,0.0039596681,-0.00286708,0.004888672538487069,-0.6266988533269937
8637416216.0,0.003921904,-0.0028581371,0.004852862935176762,-0.6297700772822076
8637425826.0,0.0038946374,-0.0028484802,0.004825146622359864,-0.6314808156844006
8637435435.0,0.0038814168,-0.0028639187,0.00482363210615527,-0.6356822072975331
8637445045.0,0.0038684238,-0.0028584155,0.004809910796163136,-0.6363653899149236
8637454655.0,0.0038475319,-0.0028296628,0.004776033216302149,-0.6341231261697994
8637464264.0,0.0038199387,-0.0028524545,0.004767434147036322,-0.6414036225934268
8637473874.0,0.0037604421,-0.0028234996,0.004702454122971597,-0.6440400656988534
8637483483.0,0.003762763,-0.0028392528,0.004713782118053065,-0.6464169116733193
8637493093.0,0.0037451837,-0.0028424329,0.004701683287690495,-0.6492089040814184
8637502703.0,0.0037300571,-0.0028352905,0.004685317298609632,-0.6499464244802934
8637512312.0,0.0036886173,-0.0028201674,0.004643193055418012,-0.6527542569153677
8637521922.0,0.0036648588,-0.0027965024,0.004609947472275926,-0.651806426888934
8637531532.0,0.0036269556,-0.0028034414,0.004584112848480644,-0.6580256423782467
8637541141.0,0.0036383694,-0.0027914869,0.004585862078576718,-0.6544410105715024
8637550751.0,0.0035952658,-0.0027831045,0.0045466038787835795,-0.6587491506863041
8637560360.0,0.0035837057,-0.0027708813,0.0045299812055793545,-0.6581775508600981
8637569970.0,0.0035538901,-0.0027732229,0.004507870904979691,-0.6626342037787755
8637579580.0,0.0035524445,-0.0027931992,0.004519051194273073,-0.6663159873419233
8637589189.0,0.0035344057,-0.002753246,0.004480221778964574,-0.6617943887001654
8637598799.0,0.0035254827,-0.0027954387,0.004499278363633104,-0.6704111913877275
8637608408.0,0.0034804881,-0.0027484714,0.004434849766436239,-0.6684164266934112
8637618018.0,0.0034479792,-0.002728318,0.004396848834421834,-0.6694013878490873
8637627628.0,0.0034429865,-0.002734585,0.004396829671639243,-0.6712237457171459
8637637237.0,0.0034450013,-0.0027356723,0.004399083642076948,-0.6711324376478044
8637646847.0,0.0033858942,-0.0027123506,0.004338332088592804,-0.6753952595223265
8637656456.0,0.0033743999,-0.0026838486,0.004311567927429877,-0.6719027029503887
8637666066.0,0.0033663411,-0.0027062843,0.004319285486509974,-0.6771293918056216
8637675676.0,0.0033511105,-0.0026990015,0.0043028537832713425,-0.6780280584064362
8637685285.0,0.0033363421,-0.0026700492,0.004273212063384294,-0.6749192046485677
8637694895.0,0.0033221652,-0.0026663311,0.004259824309865167,-0.6763172154058289
8637704505.0,0.0033185119,-0.0026354727,0.00423771608096707,-0.6711778079139947
8637714114.0,0.0032823548,-0.0026186655,0.0041989596370974195,-0.673398567268342
8637723724.0,0.0032751747,-0.0026409182,0.0042072815753894256,-0.6785974171545135
8637733333.0,0.0032241871,-0.00263368,0.004163130168299618,-0.6849317325442832
8637742943.0,0.0032470904,-0.0026331092,0.004180533473720405,-0.6813601348544785
8637752553.0,0.0032204935,-0.0026023144,0.00414048531213306,-0.6796292309805311
8637762162.0,0.0032006493,-0.0026034318,0.004125774239926577,-0.6828628824765931
8637771772.0,0.0031918152,-0.0025965408,0.004114572687049735,-0.682918449969711
8637781381.0,0.0031501463,-0.0025847784,0.004074862094416233,-0.6871323631369927
8637790991.0,0.0031396826,-0.0025617544,0.004052183662503727,-0.6843778553025671
8637800601.0,0.0031511204,-0.0025539804,0.004056152815030558,-0.6811101551229902
8637810210.0,0.0031234705,-0.0025452873,0.004029212752376268,-0.6837549618794748
8637819820.0,0.0030956749,-0.0025404795,0.0040046521916903425,-0.687208870747754
8637829429.0,0.0030886944,-0.0025301514,0.003992705749678195,-0.6863183666263918
8637839039.0,0.0031007147,-0.0025017833,0.0039841374638627846,-0.6788982982006557
8637848649.0,0.0030569127,-0.0024980412,0.003947774701311959,-0.6851277990483908
8637858258.0,0.0030422053,-0.0024844908,0.003927812065594881,-0.6848258086309994
8637867868.0,0.0030469045,-0.0024855981,0.003932152711536501,-0.6842879895049243
8637877477.0,0.0030515506,-0.0024836451,0.003934520815437932,-0.683156919054236
8637887087.0,0.003020488,-0.0024373338,0.003881229677662279,-0.6789545800588932
8637896697.0,0.0030180174,-0.0024293219,0.0038742785032212603,-0.6777456808093593
8637906306.0,0.0029948887,-0.0024211548,0.003851149035151812,-0.6798594700138264
8637915916.0,0.0029973325,-0.0024148198,0.00384907219755986,-0.6781803995899179
8637925526.0,0.0029936365,-0.0023929141,0.0038324792738005852,-0.6743344399848384
8637935135.0,0.0029909607,-0.0023789636,0.003821689903572692,-0.6719202327347047
8637944745.0,0.0029596832,-0.002371804,0.003792779832626492,-0.6755763001537495
8637954354.0,0.0029550995,-0.0023699969,0.0037880731725918205,-0.6759607275712518
