frequency,Re(S21),Im(S21),Amplitude,phase
7989000000.0,0.0151919457,0.0012138588,0.01524036309731779,0.07973208194685952
7989005005.0,0.0151708597,0.0011085555,0.015211307614194921,0.07294173187205853
7989010010.0,0.015186308,0.0010512404,0.015222649475352712,0.0691126570093743
7989015015.0,0.0151847306,0.0010222517,0.015219101219609826,0.06721960303164981
7989020020.0,0.0151651375,0.0009443841,0.015194514033763602,0.06219305085052279
7989025025.0,0.0151721482,0.0009316405,0.015200724819034239,0.061327651366803015
7989030030.0,0.0151938928,0.0008806,0.015219390092178197,0.057892733257914226
7989035035.0,0.0151902013,0.0008321842,0.015212979526616452,0.05472956744169251
7989040040.0,0.015186852,0.0007982897,0.015207818387757992,0.05251619518010732
7989045045.0,0.0151986101,0.0007395664,0.01521659316114586,0.04862178224095636
7989050050.0,0.0152005343,0.0007195469,0.015217555347255225,0.04730163801370123
7989055055.0,0.0151744178,0.0006600955,0.015188768272578163,0.04347314111484707
7989060060.0,0.015182717,0.0006516004,0.015196693014711101,0.04289092543737269
7989065065.0,0.0152130003,0.000612505,0.015225325628794448,0.040240212162068446
7989070070.0,0.0151961145,0.0005688574,0.015206758189655183,0.03741692676931127
7989075075.0,0.0151699749,0.0005383568,0.01517952458118291,0.035473424864054845
7989080080.0,0.0151772859,0.0004989208,0.015185484162680209,0.03286102695159173
7989085085.0,0.0151757818,0.0004745724,0.015183200328127564,0.03126150594391584
7989090090.0,0.0151588433,0.0004127933,0.015164462684265466,0.027224459234388064
7989095095.0,0.0151795809,0.0004055813,0.015184998271009269,0.026712517915032825
7989100100.0,0.0151512535,0.0003582769,0.015155488938280276,0.02364227776157756
7989105105.0,0.0151630535,0.0003119557,0.01516626215659695,0.02057050697924275
7989110110.0,0.0151552877,0.0002710284,0.015157710963842063,0.017881515532073688
7989115115.0,0.0151610526,0.000246301,0.01516305312668157,0.016244210869881762
7989120120.0,0.0151667371,0.0002428329,0.015168680960381454,0.016009518174032497
7989125125.0,0.0151250104,0.0001970751,0.015126294265124825,0.013029012420939932
7989130130.0,0.0151384179,0.0001478444,0.015139139819740478,0.00976586198582245
7989135135.0,0.0151580373,0.0001338708,0.015158628439911176,0.0088314414949243
7989140140.0,0.0151544089,9.54473e-05,0.015154709475785951,0.006298235620136042
7989145145.0,0.015126814,6.24378e-05,0.015126942859330991,0.0041276005253676785
7989150150.0,0.015138419,2.8227e-06,0.015138419263159423,0.00018645936324576833
7989155155.0,0.0151432637,-3.10063e-05,0.01514329544314504,-0.0020475280153786917
7989160160.0,0.015140672,-8.39976e-05,0.015140904999648793,-0.005547754964275686
7989165165.0,0.0151134191,-7.99655e-05,0.015113630648306682,-0.0052909770630385836
7989170170.0,0.0151233088,-0.0001291613,0.015123860343892863,-0.008540337400009099
7989175175.0,0.0151049938,-0.0001724561,0.0151059782471863,-0.011416661904388491
7989180180.0,0.0151080765,-0.0001684943,0.015109016045361284,-0.011152135397453942
7989185185.0,0.0151084157,-0.000237318,0.01511027944139785,-0.015706377803457492
7989190190.0,0.0151034144,-0.0002518905,0.015105514733438168,-0.016676172889701062
7989195195.0,0.0150910028,-0.0003051336,0.015094087319989135,-0.020216816042275532
7989200200.0,0.0151224335,-0.0003386785,0.015126225506988996,-0.022392023964406534
7989205205.0,0.0150842677,-0.0003381257,0.015088056900550973,-0.022412031621899427
7989210210.0,0.015108804,-0.0004004977,0.015114111178568234,-0.026501365436456745
7989215215.0,0.0150888061,-0.0004441346,0.015095341170914765,-0.02942621154526532
7989220220.0,0.0150839882,-0.000448391,0.015090651228711777,-0.029717538234972214
7989225225.0,0.0150780951,-0.0005194962,0.015087041729459702,-0.034440079169971105
7989230230.0,0.0150754557,-0.0005567385,0.015085732409135619,-0.03691335229225835
7989235235.0,0.015069846,-0.000557226,0.015080144537728808,-0.03695938591700367
7989240240.0,0.0150531674,-0.0005912641,0.015064774874135078,-0.039258203918786254
7989245245.0,0.0150654266,-0.0006407402,0.015079045946076416,-0.04250488902577851
7989250250.0,0.0150231216,-0.0006631784,0.015037752099253834,-0.04411520765093327
7989255255.0,0.0150633177,-0.0006784331,0.015078587851728985,-0.04500834009601055
7989260260.0,0.0150432111,-0.0007348488,0.015061148792772238,-0.04881039832599344
7989265265.0,0.0150349971,-0.0007890483,0.015055687796203176,-0.05243267306444605
7989270270.0,0.0150322975,-0.0007930705,0.015053203278587468,-0.052708903628308545
7989275275.0,0.0150102936,-0.0008295253,0.015033197470316855,-0.05520760528439342
7989280280.0,0.0150377529,-0.0008891972,0.015064019514789079,-0.0590622164794893
7989285285.0,0.0150074108,-0.0008827618,0.015033351167171473,-0.05875402512088162
7989290290.0,0.0149906071,-0.0009349617,0.01501973550389744,-0.062289150997575704
7989295295.0,0.0149819377,-0.0009888195,0.015014533667425755,-0.06590518938159168
7989300300.0,0.0149736259,-0.0010036533,0.015007224678125923,-0.06692796299153249
7989305305.0,0.0149764151,-0.0010349072,0.01501212983424137,-0.06899278748605266
7989310310.0,0.0149703476,-0.0010737572,0.015008806141375055,-0.07160298175546673
7989315315.0,0.0149613185,-0.001105447,0.015002101996995329,-0.07375298587785165
7989320320.0,0.014956104,-0.0011264608,0.014998465281246365,-0.07517585926994372
7989325325.0,0.0149516656,-0.0011764443,0.014997877363321314,-0.07852138388074353
7989330330.0,0.0149415724,-0.0012070816,0.014990251224495883,-0.08061171845600319
7989335335.0,0.0149517911,-0.0012208304,0.015001549385433605,-0.08147038303579258
7989340340.0,0.0149385828,-0.0012754742,0.014992934686288787,-0.08517463285008131
7989345345.0,0.0149114841,-0.0012992057,0.014967975598439,-0.08690838864281397
7989350350.0,0.0149141919,-0.0013380251,0.014974091999124877,-0.08947534878175226
7989355355.0,0.0149179416,-0.0013789834,0.01498154120237588,-0.09217596863130474
7989360360.0,0.0149067984,-0.0014322897,0.014975449653448429,-0.09578893549148856
7989365365.0,0.0149184971,-0.0014236717,0.014986273613947176,-0.09514185090279377
7989370370.0,0.014888863,-0.0014730489,0.014961554548059511,-0.09861536589186864
7989375375.0,0.0148878333,-0.0014915347,0.01496236131531026,-0.09985162598255223
7989380380.0,0.0148982131,-0.001540185,0.014977614075921325,-0.10301456845865065
7989385385.0,0.0148855351,-0.0015701499,0.014968116979827558,-0.1050929714552753
7989390390.0,0.0148820102,-0.001601487,0.014967931994904074,-0.10719974154470932
7989395395.0,0.0148621624,-0.0016392559,0.014952291834687369,-0.10985323071848808
7989400400.0,0.0148552154,-0.0016654563,0.01494828315451667,-0.11164635302571686
7989405405.0,0.0148145706,-0.0016964247,0.014911383531555831,-0.11401394329279202
7989410410.0,0.0148031244,-0.0017303427,0.014903911495353112,-0.11636232134520337
7989415415.0,0.014815395,-0.0017599633,0.014919564330883523,-0.11823876305744987
7989420420.0,0.0147979071,-0.0018072297,0.014907854766155743,-0.12152558098485809
7989425425.0,0.0148060814,-0.001842414,0.014920272643984158,-0.12379992927211425
7989430430.0,0.0147923922,-0.0018561881,0.014908397005084164,-0.12483015941169323
7989435435.0,0.0147793496,-0.0019159537,0.014903021612396724,-0.12891823024924082
7989440440.0,0.0147709646,-0.0019431216,0.014898225289169167,-0.13079902155208747
7989445445.0,0.0147728185,-0.0019504708,0.014901023547917601,-0.1312717827609097
7989450450.0,0.014746101,-0.0020009585,0.014881240862942957,-0.13487031468518665
7989455455.0,0.0147508493,-0.0020410399,0.014891386736791927,-0.13749458282339724
7989460460.0,0.0147360495,-0.0020605864,0.014879421063277805,-0.13893217398208094
7989465465.0,0.0147115023,-0.002113707,0.01486257236163223,-0.14270058765606988
7989470470.0,0.0147102902,-0.0021185663,0.014862064491035953,-0.1430358229705867
7989475475.0,0.0147064043,-0.002159844,0.014864160034774736,-0.1458217286073846
7989480480.0,0.0147040127,-0.0021977809,0.014867354518076378,-0.14836971541217264
7989485485.0,0.0146965403,-0.0022269191,0.014864301714761743,-0.15038277363958905
7989490490.0,0.01467289,-0.0022833156,0.014849485886093947,-0.15437640437099856
7989495495.0,0.0146796864,-0.002293449,0.014857762318665148,-0.1549799844185255
7989500501.0,0.014660699,-0.0023205998,0.014843223322457997,-0.15698469106842974
7989505506.0,0.0146483249,-0.0023588116,0.014837028494285996,-0.1596588477801993
7989510511.0,0.0146497059,-0.0024115694,0.014846870038075742,-0.16315233536858076
7989515516.0,0.0146348446,-0.0024208109,0.014833711669022961,-0.16392980017169637
7989520521.0,0.014628599,-0.0024657698,0.01483495633324861,-0.1669884875075692
7989525526.0,0.0146285896,-0.0025174655,0.014843627125097101,-0.17042284113508585
7989530531.0,0.0145999309,-0.0025466142,0.014820365250843735,-0.17268911084143573
7989535536.0,0.0145617686,-0.0025692494,0.014786688176848336,-0.17464059958388406
7989540541.0,0.0146105973,-0.0025898508,0.014838358420965168,-0.1754360947183426
7989545546.0,0.0145569786,-0.0025988168,0.014787138828076923,-0.17666600526030338
7989550551.0,0.0145542405,-0.0026507175,0.014793654713986214,-0.18015224267015062
7989555556.0,0.0145397613,-0.0026891827,0.01478635730174802,-0.18288700139770317
7989560561.0,0.0145287844,-0.0027378381,0.014784496393299805,-0.18625812841389064
7989565566.0,0.0145147696,-0.0027397665,0.014771081782171758,-0.1865621244238454
7989570571.0,0.0145093068,-0.0028016677,0.014777324714499223,-0.1907469483758319
7989575576.0,0.0145122129,-0.0028244324,0.014784510192667735,-0.19222152193287803
7989580581.0,0.0144833909,-0.0028566093,0.014762412697626676,-0.19473401551986452
7989585586.0,0.0144727584,-0.0028817045,0.014756861337360693,-0.1965418757440757
7989590591.0,0.0144864178,-0.0029176326,0.014777309655845328,-0.19874586527903595
7989595596.0,0.014476138,-0.0029381455,0.014771298872279792,-0.20024463363005346
7989600601.0,0.0144284987,-0.0029660495,0.014730207886257137,-0.20274441834937043
7989605606.0,0.0144262772,-0.0030165216,0.014738279289472921,-0.2061291910763208
7989610611.0,0.0144258701,-0.00304464,0.014743661718571612,-0.20800162183547485
7989615616.0,0.014413497,-0.0030625422,0.014735265878014887,-0.2093637581761414
7989620621.0,0.014402795,-0.0031076004,0.014734235102580151,-0.21250600706421527
7989625626.0,0.0143746371,-0.0031452718,0.014714718021510696,-0.21541213457745684
7989630631.0,0.0143941461,-0.0031901267,0.014743417185652656,-0.2181013502590148
7989635636.0,0.0143586212,-0.0031891923,0.014708533247454306,-0.21856193215347872
7989640641.0,0.0143315765,-0.0032449194,0.014694338599877458,-0.2226632076012554
7989645646.0,0.0143097923,-0.0032809619,0.014681105770969396,-0.225385299510273
7989650651.0,0.0143396383,-0.0032754544,0.014708971007562232,-0.22456687055124877
7989655656.0,0.0143007965,-0.0033426574,0.014686256807920357,-0.22961685332989062
7989660661.0,0.01428802,-0.0033438005,0.014674076369714049,-0.22989087985288428
7989665666.0,0.0142747372,-0.0034275089,0.014680461143596377,-0.23564910317312687
7989670671.0,0.0142650032,-0.0034122475,0.014667438402709126,-0.23479230841514498
7989675676.0,0.0142628938,-0.0034612368,0.014676862734786094,-0.23807202731555066
7989680681.0,0.0142490075,-0.0035039339,0.014673505631260223,-0.2411229460490604
7989685686.0,0.014217476,-0.0035224167,0.014647322049405989,-0.24286235085886612
7989690691.0,0.0142423612,-0.0035643111,0.014681592766755541,-0.2452245292469954
7989695696.0,0.0141970556,-0.0036088745,0.014648561801973652,-0.24892655422530788
7989700701.0,0.0141907801,-0.003632807,0.01464839672270672,-0.25061553814162424
7989705706.0,0.0141404876,-0.003639973,0.01460146544037559,-0.25194517833768126
7989710711.0,0.0141733552,-0.0036754998,0.014642175262069741,-0.2537353293497595
7989715716.0,0.0141435469,-0.0037008414,0.014619717712064538,-0.255925026105819
7989720721.0,0.0141361454,-0.0037367398,0.014621690432465228,-0.2584283501958946
7989725726.0,0.0141084729,-0.0037648929,0.01460217196579005,-0.26077664945933626
7989730731.0,0.0140973957,-0.0038116601,0.014603606343650547,-0.26406639402333576
7989735736.0,0.0141050376,-0.0038525554,0.014621705400105793,-0.2666299235029388
7989740741.0,0.0140667804,-0.0038747589,0.01459068426616632,-0.26878876881835007
7989745746.0,0.0140742864,-0.0038986904,0.014604291304417245,-0.2702321036727352
7989750751.0,0.0140300467,-0.0039361403,0.014571733282813852,-0.27351935194798493
7989755756.0,0.0140452835,-0.0039461844,0.014589117859355844,-0.2739001106545419
7989760761.0,0.0140187047,-0.0040041005,0.014579331338573191,-0.2782176355359102
7989765766.0,0.0140062088,-0.0040404505,0.01457734973142058,-0.28085077267999337
7989770771.0,0.0139835344,-0.0040756227,0.014565367647565188,-0.2836024326173451
7989775776.0,0.0139773927,-0.0040823334,0.014561351334226121,-0.2841629010874927
7989780781.0,0.0139750181,-0.0040967343,0.014563116521545932,-0.28515781910697474
7989785786.0,0.0139415417,-0.0041446405,0.014544573897061376,-0.28896604067152865
7989790791.0,0.0139175152,-0.0041638777,0.014527047423437026,-0.2907066725669527
7989795796.0,0.0138926736,-0.0042033797,0.01451464021801812,-0.29380457646872565
7989800801.0,0.0138957498,-0.0042278977,0.014524702457051068,-0.29535893077973924
7989805806.0,0.0138610452,-0.0042776104,0.014506085783926388,-0.2993339594483835
7989810811.0,0.0138456041,-0.0043181748,0.014503357766299909,-0.30232044183308543
7989815816.0,0.0138620646,-0.0043500945,0.014528597906663375,-0.30408050223073496
7989820821.0,0.0138588749,-0.0043645318,0.014529884766475654,-0.30509427523273885
7989825826.0,0.0138110906,-0.0043893131,0.01449180089054635,-0.30771579244018693
7989830831.0,0.0138018198,-0.0044199468,0.014492279306806858,-0.3099240551568913
7989835836.0,0.0137972315,-0.0044682009,0.014502703759897775,-0.3131892787135014
7989840841.0,0.013778701,-0.0044883178,0.014491293866359825,-0.3149039278148843
7989845846.0,0.0137534854,-0.004517198,0.014476306104086676,-0.3173403220554007
7989850851.0,0.0137443987,-0.0045582771,0.014480551983434406,-0.32023133386021374
7989855856.0,0.0137079563,-0.0045728665,0.014450576941753293,-0.32198346380941273
7989860861.0,0.0137030876,-0.0046181109,0.014460344327088915,-0.32505808195036906
7989865866.0,0.0136753073,-0.0046465045,0.01444313102543744,-0.3275352974845889
7989870871.0,0.0136731998,-0.0046740372,0.014450017872573858,-0.32938630074729996
7989875876.0,0.013644932,-0.0047174539,0.014437400755788738,-0.33286520495061833
7989880881.0,0.0136161614,-0.0047019832,0.014405155232899513,-0.33250278928939064
7989885886.0,0.0136195782,-0.0047543587,0.014425561929927753,-0.3358573638032435
7989890891.0,0.0135992583,-0.0048176682,0.014427395925648194,-0.34046453754054434
7989895896.0,0.013567665,-0.0048322998,0.014402522518965385,-0.3421546265705012
7989900901.0,0.0135699429,-0.0048270049,0.014402892994599537,-0.3417552449189118
7989905906.0,0.0135374013,-0.0048755158,0.014388602721365662,-0.34568971955959116
7989910911.0,0.0135208193,-0.0049072258,0.014383790167943849,-0.3481544992363573
7989915916.0,0.0135159788,-0.0049456439,0.014392396482436712,-0.35077842714594837
7989920921.0,0.0134859244,-0.0049619267,0.01436979030809734,-0.3525612535958872
7989925926.0,0.0134731174,-0.0050140453,0.014375866678034923,-0.35627130960017617
7989930931.0,0.0134474228,-0.0050682215,0.014370805444894942,-0.36042807950895545
7989935936.0,0.0134505134,-0.0050755389,0.014376279276954547,-0.36082854826035704
7989940941.0,0.0134396158,-0.0050976047,0.014373894619381057,-0.36253248931575344
7989945946.0,0.0134008066,-0.0051247751,0.014347297214325198,-0.36526246966453046
7989950951.0,0.0133940718,-0.0051429214,0.01434750152152399,-0.3666114730729445
7989955956.0,0.0133782899,-0.0051770607,0.014345054832238408,-0.36922755110383315
7989960961.0,0.0133600624,-0.0052149209,0.01434178047960401,-0.3721481745677674
7989965966.0,0.0133240335,-0.0052521525,0.014321835587395162,-0.3754846086420207
7989970971.0,0.0132921411,-0.0052881667,0.014305443791413746,-0.37864430483837325
7989975976.0,0.0132424962,-0.0053015036,0.014264278671837122,-0.3807996200492018
7989980981.0,0.0132781261,-0.0053041793,0.014298354827533472,-0.3800472061813113
7989985986.0,0.0132066786,-0.0053590893,0.014252585652051787,-0.3854845962632236
7989990991.0,0.0132258266,-0.0053798048,0.014278122738629564,-0.3863247288833426
7989995996.0,0.0132125778,-0.0054174858,0.014280103799141464,-0.389118541628817
7990001001.0,0.0131864219,-0.0054529109,0.014269406428024203,-0.3921109408594638
7990006006.0,0.0131612332,-0.0054828762,0.0142576292127867,-0.39472825672932715
7990011011.0,0.0131733093,-0.0055134358,0.014280548036899288,-0.3963784495578134
7990016016.0,0.0131451653,-0.0055567442,0.014271397158952509,-0.39993916893922193
7990021021.0,0.0131172562,-0.0055713304,0.014251390551184913,-0.40164439824857706
7990026026.0,0.0130946752,-0.0056147732,0.014247673377816229,-0.4050704548647599
7990031031.0,0.0130618645,-0.0056267832,0.014222271035111181,-0.40675571691736256
7990036036.0,0.0130462696,-0.0056415134,0.014213789920997979,-0.4081415680143756
7990041041.0,0.0130336056,-0.0056725175,0.014214511237610585,-0.41049717839640043
7990046046.0,0.0130080419,-0.0057190367,0.01420973380637732,-0.41421689683103685
7990051051.0,0.0130184337,-0.0057492648,0.014231432174655324,-0.4158674231439941
7990056056.0,0.0129619743,-0.0057647571,0.014186091857021823,-0.41847424011252093
7990061061.0,0.0129319838,-0.0058133013,0.014178528732137341,-0.42246214444508806
7990066066.0,0.0129458028,-0.0058171397,0.01419270673359398,-0.4223096044420272
7990071071.0,0.0129288158,-0.0058520168,0.014191560119233258,-0.4250418934225805
7990076076.0,0.0128912508,-0.0058953608,0.014175317497350008,-0.42892030502225076
7990081081.0,0.0128640352,-0.0059120245,0.014157522216667693,-0.43079018817206616
7990086086.0,0.0128278284,-0.005940195,0.014136445737803812,-0.43367042751223106
7990091091.0,0.0128193251,-0.0059731076,0.014142599139502887,-0.4360348457661686
7990096096.0,0.0127932425,-0.0060225026,0.014139928968379331,-0.43998036603905893
7990101101.0,0.0127637482,-0.0060377805,0.014119775546345753,-0.44184902966608813
7990106106.0,0.0127572641,-0.0060599315,0.014123404586070636,-0.4434631136304532
7990111111.0,0.0127460958,-0.0060880102,0.014125396501977623,-0.4455978988187787
7990116116.0,0.0127126202,-0.0061047405,0.014102431312429367,-0.44769147818547345
7990121121.0,0.0127006026,-0.006141264,0.01410746008042634,-0.45039404543776823
7990126126.0,0.0126705586,-0.0061784366,0.014096671027453734,-0.4536958486941965
7990131131.0,0.0126488952,-0.0061910746,0.01408275379616317,-0.45517669016269025
7990136136.0,0.0126063651,-0.0062187636,0.01405679414899368,-0.4582760451417911
7990141141.0,0.0125707052,-0.0062715299,0.01404829941707896,-0.46276754516091256
7990146146.0,0.0125881434,-0.0062839716,0.01406945817466224,-0.4630055228180687
7990151151.0,0.0125501439,-0.0063222631,0.014052655358199348,-0.46665124853554224
7990156156.0,0.0125166681,-0.0063372018,0.014029508436844137,-0.46867570799992797
7990161161.0,0.0125150325,-0.0063646112,0.014040452777714174,-0.47046999428272873
7990166166.0,0.0124757219,-0.0063877717,0.014015964619585071,-0.4732142924184735
7990171171.0,0.0124659455,-0.006410257,0.014017531594935653,-0.4749599598724018
7990176176.0,0.0124254727,-0.0064506835,0.014000131764937699,-0.4788499372732515
7990181181.0,0.0124228859,-0.0064729568,0.014008114213522284,-0.48034621421875145
7990186186.0,0.0123773092,-0.0065357964,0.01399694315251218,-0.48583234833856415
7990191191.0,0.0123855026,-0.0065351938,0.014003907763840964,-0.48552109702444624
7990196196.0,0.0123344029,-0.0065648151,0.01397262653178408,-0.4891027278874676
7990201201.0,0.0123374983,-0.0065641053,0.013975025677686284,-0.48895382629807377
7990206206.0,0.012281908,-0.0066143077,0.013949707182258101,-0.49400275848853037
7990211211.0,0.0122541208,-0.0066468932,0.013940755567514944,-0.49700583201826193
7990216216.0,0.0122660835,-0.0066622686,0.013958604060847854,-0.4975654459440562
7990221221.0,0.0121985958,-0.0066903728,0.013912829607766979,-0.5016557487851683
