frequency,Re(S21),Im(S21),Amplitude,phase
7490000000.0,0.0048130563,0.0063973974,0.008005760703424531,0.9257954723877053
7490003003.0,0.004844164,0.0063545564,0.00799038872018608,0.9194610559218832
7490006006.0,0.0048696104,0.0063635432,0.00801297619527566,0.917615467387386
7490009009.0,0.0048900424,0.006326951,0.007996425678401491,0.9128053222473572
7490012012.0,0.0048780338,0.0063198323,0.007983451262083694,0.9134501793667444
7490015015.0,0.0048900724,0.0062887872,0.007966282227245379,0.9098727092903843
7490018018.0,0.0049035716,0.0063064882,0.007988542285865789,0.909898881540767
7490021021.0,0.0049010324,0.0062511185,0.007943336898740478,0.9058725038701648
7490024024.0,0.0049000187,0.0062653965,0.007953953517752159,0.9070803638210256
7490027027.0,0.0049221041,0.006216962,0.007929547608828691,0.9011235142729348
7490030030.0,0.0049532236,0.0062120478,0.007945058961460374,0.897668674795686
7490033033.0,0.0049246122,0.0061822224,0.00790390277796043,0.8981464607253038
7490036036.0,0.0049457771,0.0061917487,0.007924548131397532,0.8968064271803077
7490039039.0,0.0049346839,0.0061417332,0.007878578037495183,0.8939445416247005
7490042042.0,0.0049364083,0.0061731852,0.007904197771931566,0.8962667848919375
7490045045.0,0.0049429646,0.0061401166,0.007882507906653105,0.8929971588446127
7490048048.0,0.0049745515,0.0061070864,0.007876716760377843,0.8872437973930052
7490051051.0,0.0049565048,0.0060866518,0.00784947577656408,0.8873822423143107
7490054054.0,0.0049692799,0.0060850829,0.007856333535716036,0.885995238765976
7490057057.0,0.0049940478,0.0060533186,0.00784749511002019,0.8809903887559387
7490060060.0,0.0049774635,0.0060346947,0.007822575216387526,0.8811106313188881
7490063063.0,0.0049680091,0.0060517643,0.007829748754617692,0.8834293356711543
7490066066.0,0.0049867691,0.0060087349,0.007808505692845003,0.8780758779460724
7490069069.0,0.004959074,0.0059713054,0.007762016691398257,0.8777419422349513
7490072072.0,0.0049708269,0.0059842108,0.007779453642036839,0.8776395757776841
7490075075.0,0.0050062849,0.0059459216,0.007772829097137964,0.8709828700153398
7490078078.0,0.0050099526,0.0059393426,0.007770161875689689,0.8700764509591136
7490081081.0,0.0050086562,0.0059089582,0.00774612315543367,0.867675253641118
7490084084.0,0.0050191098,0.0058861532,0.007735519548054046,0.8647381424945796
7490087087.0,0.0049975973,0.0058760928,0.007713912455244687,0.8660139965155111
7490090090.0,0.0050200477,0.0058816066,0.007732669339072948,0.864264349412832
7490093093.0,0.0050216926,0.0058480578,0.007708253797134316,0.8612765066620766
7490096096.0,0.0050192108,0.0058566032,0.0077131237574076875,0.8622423861595571
7490099099.0,0.005036069,0.0058452379,0.007715490721940985,0.8596247521049298
7490102102.0,0.0050368131,0.0058065523,0.0076867116387286764,0.8562663964540591
7490105105.0,0.0050279392,0.0057987448,0.007674999273903789,0.8564732231607043
7490108108.0,0.0050415327,0.005797448,0.007682932726366494,0.8550258675552437
7490111111.0,0.0050359642,0.0057475101,0.00764164954530654,0.8512874936249697
7490114114.0,0.0050395394,0.0057030785,0.00761065448836791,0.8470867756658081
7490117117.0,0.0050503836,0.005724305,0.007633743658269771,0.8478635086067184
7490120120.0,0.0050540066,0.0056886044,0.007609415400183047,0.8444025501828214
7490123123.0,0.0050470389,0.0056715949,0.0075920741808691,0.843600600347822
7490126126.0,0.005059877,0.0056531223,0.007586840382786914,0.840717873242183
7490129129.0,0.0050478022,0.0056384604,0.007567862494303989,0.8406146429154767
7490132132.0,0.0050595863,0.0056065452,0.007552003880215551,0.8366332546657448
7490135135.0,0.0050652269,0.0056097974,0.007558197564071104,0.8363674940590885
7490138138.0,0.0050558264,0.0055821286,0.007531370412738636,0.8348318584667652
7490141141.0,0.0050567569,0.0055737851,0.007525813622903481,0.8339959776829275
7490144144.0,0.00508693,0.0055637539,0.007538714365504586,0.8301376113252937
7490147147.0,0.0050661659,0.0055305832,0.007500225827163142,0.8291965296902505
7490150150.0,0.0050836832,0.0055213738,0.0075052917010126055,0.8266466298281077
7490153153.0,0.0050710416,0.0055337578,0.007505860263686728,0.8290032214170734
7490156156.0,0.0050769774,0.0054994853,0.00748465350467387,0.8253248738256442
7490159159.0,0.0050982138,0.0054826525,0.007486739102323968,0.8217155740152317
7490162162.0,0.005078282,0.005446595,0.007446767430606988,0.8203784071576061
7490165165.0,0.0050841268,0.0054211947,0.00743220675800844,0.817472603352255
7490168168.0,0.0050819631,0.0054050627,0.007418965678630202,0.8161978804167496
7490171171.0,0.0050590382,0.0053980914,0.007398192905825936,0.8178099701427023
7490174174.0,0.0050680548,0.0053573441,0.007374707808558102,0.8131395561323348
7490177177.0,0.005094874,0.0053612933,0.007396026428055871,0.8108722841371213
7490180180.0,0.0051103174,0.0053406163,0.007391720124069123,0.8074308008815791
7490183183.0,0.0050827836,0.0053424427,0.007374034386088273,0.8102998220679436
7490186186.0,0.0051086178,0.0052990118,0.007360536793129702,0.8036898179375552
7490189189.0,0.0051238984,0.0052958244,0.007368859537890373,0.801896721320652
7490192192.0,0.0051099985,0.0052847498,0.007351235618493145,0.802208078811686
7490195195.0,0.0050977113,0.005256131,0.007322129033778952,0.8006975406464328
7490198198.0,0.0050863838,0.0052323447,0.007297172823807897,0.7995424609403281
7490201201.0,0.0051138193,0.0052344005,0.007317793139154231,0.7970499977582334
7490204204.0,0.0050842257,0.0052029095,0.00727458715211597,0.79693476054674
7490207207.0,0.0050908921,0.0051921473,0.007271559389755385,0.7952446614697353
7490210210.0,0.0051050047,0.0051648598,0.007262014165552015,0.791226324254869
7490213213.0,0.0051157741,0.005151358,0.0072600023337733716,0.7888639566860371
7490216216.0,0.0050965033,0.005121972,0.00722557562106265,0.7878905750845231
7490219219.0,0.0051063236,0.0051144478,0.007227179049037169,0.7861930347404262
7490222222.0,0.0051196453,0.0050874621,0.0072175507353082384,0.7822451551954782
7490225225.0,0.0051099727,0.005075848,0.007202503308839871,0.782047959880752
7490228228.0,0.0051233323,0.0050689121,0.0072071078619477934,0.7800588406026256
7490231231.0,0.0051208001,0.0050165642,0.007168577964762722,0.7751161784905513
7490234234.0,0.0051288994,0.0050276865,0.007182147352818836,0.7754332449848189
7490237237.0,0.0051224346,0.005023839,0.0071748375960155476,0.775681049444147
7490240240.0,0.005122889,0.0049773005,0.007142654406704923,0.7709847290754476
7490243243.0,0.0051079004,0.0049667796,0.007124573397144304,0.7713916072239824
7490246246.0,0.0051274165,0.0049601601,0.007133974220734489,0.7688192483323428
7490249249.0,0.0050969416,0.0049463194,0.007102456566613197,0.7704019476399461
7490252252.0,0.0051179692,0.0049273563,0.007104396444406684,0.7664251567494582
7490255255.0,0.0050929995,0.0049230581,0.007083441604402189,0.768432895995996
7490258258.0,0.0051187357,0.0049048202,0.007089338217406652,0.7640601237780872
7490261261.0,0.0051195416,0.0048668887,0.007063732144717709,0.7601039383485508
7490264264.0,0.0051085257,0.0048464526,0.0070416715083570355,0.7590784091944041
7490267267.0,0.0051199644,0.0048678204,0.007064680523839951,0.7601582869002379
7490270270.0,0.005113158,0.0048209863,0.0070275382345279126,0.7559957818557991
7490273273.0,0.0051079575,0.0048087081,0.007015333449866219,0.7552309047736928
7490276276.0,0.0051182364,0.0047998332,0.007016747294445426,0.7533058414341699
7490279279.0,0.0051072028,0.0047604617,0.006981798911276,0.7502734900931
7490282282.0,0.0051009961,0.0047461907,0.006967530938071369,0.7493826002271189
7490285285.0,0.0051052944,0.0047327143,0.0069615095745172864,0.7475447582898929
7490288288.0,0.00512222,0.0047229159,0.006967285865161039,0.7448618651624644
7490291291.0,0.0051184298,0.0047138184,0.006958333674501864,0.7442699058391157
7490294294.0,0.0051097673,0.0046721381,0.006923770380769491,0.7406893307237702
7490297297.0,0.0051098354,0.0046717298,0.00692354512798907,0.740639171373915
7490300300.0,0.0051213944,0.004648915,0.006916725473631027,0.7370771134755847
7490303303.0,0.0051135434,0.0046256684,0.006895297981265358,0.7353461127247146
7490306306.0,0.0051369611,0.004594552,0.006891899406086628,0.7297183892198565
7490309309.0,0.0051119528,0.004605286,0.006880459328505899,0.7333043122663526
7490312312.0,0.005127347,0.0045623838,0.006863310658633444,0.7271587433235556
7490315315.0,0.0051021675,0.004557656,0.00684136984911591,0.7290890722825202
7490318318.0,0.005126195,0.0045233319,0.0068365493237146045,0.7230033367103731
7490321321.0,0.0051201611,0.0045110364,0.006823891784903844,0.7222373266952078
7490324324.0,0.005103009,0.0044979222,0.006802352899646845,0.7224576467486294
7490327327.0,0.0050951057,0.0045075273,0.006802786521302707,0.72428505831567
7490330330.0,0.0050872647,0.004465364,0.006769027831259235,0.7203873336893962
7490333333.0,0.0051081056,0.0044547718,0.0067777381633422965,0.7171843705154302
7490336336.0,0.0051072307,0.0044186811,0.00675341010797654,0.7132418999797498
7490339339.0,0.0051040665,0.0044149887,0.006748601340837221,0.7131349063833116
7490342342.0,0.0050904707,0.0043972852,0.006726738368458932,0.7124666869438558
7490345345.0,0.0050809934,0.0043782106,0.006707102354131471,0.711238227378037
7490348348.0,0.0051146068,0.0043782556,0.006732631344247033,0.7079842477849815
7490351351.0,0.0050818202,0.0043449835,0.006686088405069162,0.7073927646322862
7490354354.0,0.0050812828,0.0043415386,0.006683441651489583,0.7070532547003898
7490357357.0,0.0050798415,0.0043221781,0.006669783594183686,0.7049867505527491
7490360360.0,0.0050813959,0.0042911815,0.006650926473693651,0.7012857655617895
7490363363.0,0.0050880564,0.0042893484,0.006654834906003568,0.7004295652509166
7490366366.0,0.0050849393,0.004268528,0.0066390465408421775,0.6983344673622623
7490369369.0,0.0050690036,0.0042338241,0.006604548736026844,0.6958612511317666
7490372372.0,0.0050921544,0.0042395531,0.00662599780570134,0.6942850764899317
7490375375.0,0.0050676812,0.0042074687,0.006586667260938048,0.6929189244260301
7490378378.0,0.0050832837,0.0041805335,0.006581537321880652,0.6882558351256326
7490381381.0,0.005091719,0.0041741428,0.006584001100376035,0.6866923601963977
7490384384.0,0.0050950733,0.0041658103,0.006581318058562356,0.6853901155249342
7490387387.0,0.0050759086,0.0041343086,0.006546552964391866,0.6835178371956483
7490390390.0,0.0050802518,0.0041248198,0.006543935874829099,0.6819744176575417
7490393393.0,0.0050646384,0.0041128219,0.006524252149010963,0.6820552272595792
7490396396.0,0.0050713879,0.0040943272,0.0065178593458992545,0.6791997062943861
7490399399.0,0.0050505833,0.0040611875,0.006480866884946422,0.677237566575674
7490402402.0,0.0050396536,0.0040423646,0.006460558796832216,0.676027176089605
7490405405.0,0.0050474081,0.0040130977,0.00644835495903342,0.6717342763043935
7490408408.0,0.0050435281,0.0040178453,0.006448275471024923,0.6726850499570517
7490411411.0,0.0050642071,0.0039991478,0.006452858024002639,0.6684219460524622
7490414414.0,0.0050327052,0.0039867979,0.006420489009845859,0.6699531446004496
7490417417.0,0.0050510403,0.0039662182,0.00642214099208631,0.6656684886697892
7490420420.0,0.0050505993,0.0039456726,0.006409125178645776,0.6631897010484952
7490423423.0,0.0050403053,0.0039281384,0.006390222907439353,0.6620191330849549
7490426426.0,0.0050487917,0.0039001478,0.006379768843134815,0.6577408551475278
7490429429.0,0.0050435042,0.0039016437,0.006376500464766495,0.6584334339675576
7490432432.0,0.0050513782,0.0038598865,0.006357290736808997,0.6524802556365429
7490435435.0,0.0050458717,0.0038708899,0.006359607678998989,0.654380752389905
7490438438.0,0.0050421518,0.0038412989,0.006338680620869334,0.6510339842337355
7490441441.0,0.005002112,0.0038365701,0.00630399830209035,0.6542863588609188
7490444444.0,0.0050101095,0.003800127,0.00628825591226369,0.6489137489060954
7490447447.0,0.0050216925,0.0037851268,0.006288448175554482,0.6459001035928326
7490450450.0,0.0050189438,0.0037674702,0.006275637702691773,0.6439169836730773
7490453453.0,0.0050204246,0.0037350629,0.006257424232960522,0.6396329835937815
7490456456.0,0.0050265092,0.0037472618,0.006269590555644274,0.6406147791413687
7490459459.0,0.0049897455,0.0037199579,0.006223796826097608,0.6406281029580364
7490462462.0,0.0049978309,0.0036981508,0.006217285021979888,0.6370387736245738
7490465465.0,0.004992865,0.003672832,0.006198257481619249,0.6342316934888959
7490468468.0,0.0049763179,0.0036632273,0.006179237339132209,0.634566408356834
7490471471.0,0.0049963029,0.0036534681,0.006189577677537137,0.6313824958803043
7490474474.0,0.004990475,0.0036435299,0.006179008889605113,0.6306409119986313
7490477477.0,0.0049798143,0.0036160841,0.0061542355074174155,0.6280605109002521
7490480480.0,0.0049691051,0.0035914348,0.006131101811052974,0.6258336717759132
7490483483.0,0.0049881289,0.0035763156,0.006137708301460617,0.6220215938451287
7490486486.0,0.0049810257,0.0035804553,0.006134352221657848,0.6232447438100712
7490489489.0,0.0049701233,0.0035504665,0.006108022428317134,0.6202999016449735
7490492492.0,0.0049442241,0.0035199666,0.00606922703613371,0.6186912564014415
7490495495.0,0.0049485984,0.0035149876,0.006069906420418385,0.6176050707222749
7490498498.0,0.0049459062,0.0034969221,0.006057264424859364,0.615430951093462
7490501502.0,0.0049398829,0.0034680483,0.006035710569340225,0.6121009546355367
7490504505.0,0.0049800497,0.0034618661,0.0060650978482460855,0.6074614173053623
7490507508.0,0.0049351862,0.00345515,0.00602446050291397,0.6107966299799226
7490510511.0,0.0049351914,0.0034108246,0.005999153157454736,0.6047434105748871
7490513514.0,0.0049394505,0.0034154197,0.006005269600034485,0.6049696509190636
7490516517.0,0.0049090887,0.0033861059,0.005963628512112612,0.603822147019112
7490519520.0,0.0048959053,0.0033924455,0.005956389441351056,0.6059549874431823
7490522523.0,0.0048974856,0.0033870908,0.005954640987469522,0.6050646906452212
7490525526.0,0.0049113817,0.0033638877,0.005952932946145638,0.6005311016718522
7490528529.0,0.004901602,0.0033353382,0.005928758982686279,0.5974903199282889
7490531532.0,0.0048858003,0.0033050435,0.005898674182252512,0.5947512953372499
7490534535.0,0.0048851783,0.0033154093,0.005903973733792977,0.5962645775071257
7490537538.0,0.0048938143,0.0032806754,0.005891710234138272,0.5905633534124476
7490540541.0,0.0048889719,0.0032687398,0.005881046345599875,0.5893360810101607
7490543544.0,0.0048592972,0.0032469987,0.005844293784173545,0.5890657114426663
7490546547.0,0.0048693845,0.0032238687,0.005839883115583731,0.5848128704444592
7490549550.0,0.0048856699,0.0032063776,0.005843853838482596,0.5807787757953832
7490552553.0,0.0048765969,0.0032145912,0.00584078709663407,0.5828067559242114
7490555556.0,0.0048730274,0.0031715481,0.0058142164899291785,0.5769636220217956
7490558559.0,0.0048615809,0.003148258,0.005791933811932662,0.574671447981818
7490561562.0,0.004841123,0.0031282188,0.005763872375565098,0.5736824867322922
7490564565.0,0.0048172011,0.003135352,0.005747682889803961,0.576983707100077
7490567568.0,0.0048316088,0.0031150945,0.005748761374432556,0.5726632102028093
7490570571.0,0.0048246371,0.0031188876,0.005744961532345554,0.5738757030500214
7490573574.0,0.0048075411,0.0030734725,0.005706021787238939,0.568818132824802
7490576577.0,0.0048033759,0.0030876688,0.0057101767621671965,0.571305703548383
7490579580.0,0.0048026174,0.0030485763,0.005688492888956129,0.5655969026521102
7490582583.0,0.0048063164,0.0030451569,0.0056897853986355735,0.5647411127157409
7490585586.0,0.0048021279,0.0030208954,0.0056732919355255785,0.5615238083638169
7490588589.0,0.0047773277,0.0030039658,0.005643285433216801,0.5613245550749729
7490591592.0,0.0047664725,0.0029748163,0.005618611226273084,0.5579610445099544
7490594595.0,0.0047684947,0.0029796438,0.005622883502154969,0.5584989669240662
7490597598.0,0.0047870869,0.0029496306,0.0056228570731086495,0.5522200886841115
7490600601.0,0.0047689958,0.0029469627,0.005606060122368376,0.5535077768984052
7490603604.0,0.0047294572,0.002908199,0.005552061493736615,0.5513119606857032
7490606607.0,0.0047651662,0.002891082,0.005573613194719063,0.5453399510719517
7490609610.0,0.004740383,0.0028670647,0.0055399721100990295,0.5439539595762881
7490612613.0,0.0047484462,0.0028638319,0.005545202833598791,0.5427025891462092
7490615616.0,0.0047202424,0.0028386016,0.005508025722369161,0.5414245995091197
7490618619.0,0.0047082339,0.0028113955,0.0054837406133523,0.5383014910534061
7490621622.0,0.0047168472,0.0027958126,0.005483175685901976,0.5350560977532983
7490624625.0,0.0047261897,0.0028149991,0.005501007999756672,0.537190499926293
7490627628.0,0.0046867662,0.0027703494,0.005444319352457459,0.5338499808714562
7490630631.0,0.0046824173,0.0027513372,0.0054309196421456225,0.5312438277737168
7490633634.0,0.0046892977,0.0027365528,0.005429386166631835,0.5282540872884895
7490636637.0,0.0046710249,0.0027288849,0.0054097399580634205,0.5287323531081247
7490639640.0,0.0046645332,0.0027070208,0.005393128181819424,0.5258390693706935
7490642643.0,0.0046600771,0.0027037097,0.0053876121538041786,0.5257226744489716
7490645646.0,0.0046554543,0.0026848091,0.005374146875814923,0.5231123234688949
7490648649.0,0.004662832,0.0026809268,0.005378603049787392,0.5218017865612163
7490651652.0,0.0046328376,0.0026634373,0.005343882715685764,0.521762200423937
7490654655.0,0.0046420977,0.002657874,0.0053491462175024995,0.5199977359576563
7490657658.0,0.0046170669,0.0026249784,0.005311103309063209,0.516964423441162
7490660661.0,0.0046279027,0.0025881336,0.0053024446184864816,0.5099137351715997
7490663664.0,0.0046103749,0.0025943015,0.005290175516129145,0.5125485494906095
7490666667.0,0.0045986134,0.0025657489,0.005265957901513339,0.5089184931147447
7490669670.0,0.0045974387,0.0025667914,0.005265440218193694,0.5092000913634542
7490672673.0,0.004595316,0.002538315,0.005249759249630502,0.5046610177084211
7490675676.0,0.0045769236,0.002525581,0.0052275031351303805,0.5042299062339396
7490678679.0,0.0045581307,0.0025231824,0.005209894903158052,0.5055695478292672
7490681682.0,0.0045695713,0.002512224,0.00521461899777536,0.5026684229066317
7490684685.0,0.0045432571,0.0024692183,0.0051709016708650826,0.49783198944788337
7490687688.0,0.0045501882,0.0024638913,0.005174453883612737,0.49628783369027
7490690691.0,0.0045371191,0.0024742687,0.005167925630984302,0.4992577865271654
7490693694.0,0.0045379494,0.0024073849,0.00513697253386743,0.48774932103612445
7490696697.0,0.004508571,0.0024281406,0.00512084751143884,0.49401848732749865
7490699700.0,0.0045522874,0.0023982746,0.005145390328167914,0.4848793131810243
7490702703.0,0.0045070447,0.0024107564,0.005111281478058027,0.4911655926668551
7490705706.0,0.0044981934,0.0023662743,0.005082617231962688,0.48426971288057785
7490708709.0,0.0044712398,0.0023498782,0.005051129864093704,0.48388124118875664
7490711712.0,0.0044966588,0.0023385636,0.005068413960487284,0.4795719857055763
7490714715.0,0.0044668717,0.0023416733,0.00504344888228222,0.48284408877828766
7490717718.0,0.0044538501,0.0023045545,0.005014753449247556,0.4774939745939081
7490720721.0,0.0044435255,0.0023123149,0.005009163509600407,0.4798171419790917
7490723724.0,0.0044309258,0.0022909865,0.0049881582360915425,0.47719016780680223
7490726727.0,0.0044477547,0.0022574013,0.0049878234231590214,0.46965923180552355
7490729730.0,0.0043826451,0.0022574351,0.004929867270349783,0.4756427149942575
7490732733.0,0.0044107976,0.0022234326,0.004939512930938487,0.4669131029815649
7490735736.0,0.0044183071,0.0022083173,0.004939443584796743,0.46349618207822024
7490738739.0,0.0043920268,0.0021955779,0.004910240495829776,0.4635682802912613
7490741742.0,0.0043839699,0.0022033216,0.004906507735358476,0.4657142143705264
7490744745.0,0.0043691105,0.0021504585,0.004869661006829171,0.4573849020814536
7490747748.0,0.004368955,0.0021530321,0.004870658581306578,0.4578730763309067
7490750751.0,0.0043724631,0.0021391318,0.004867681010361386,0.45499301086509464
7490753754.0,0.0043371622,0.0021096022,0.004823007090120611,0.4527097474680085
7490756757.0,0.0043497205,0.002128251,0.004842470521037918,0.45503855390394904
