frequency,Re(S21),Im(S21),Amplitude,phase
8396400000.0,0.0090831214,0.0060871232,0.0109341740986284,0.5904155386880745
8396402603.0,0.0091284039,0.0060291062,0.010939738540404595,0.5837056095439387
8396405205.0,0.0091376165,0.0059901084,0.010925998075453922,0.5802626193352779
8396407808.0,0.0091498588,0.0059551537,0.010917132024967049,0.5769700790786813
8396410410.0,0.0091432787,0.0059306904,0.0108982858288139,0.5754181092281575
8396413013.0,0.0091725974,0.0058947312,0.010903412263266037,0.5711879236663863
8396415616.0,0.0091670303,0.0058722692,0.010886596808846497,0.5697286410263792
8396418218.0,0.0091736609,0.0058545932,0.010882661248319506,0.5680323089243521
8396420821.0,0.0091779278,0.0058257317,0.010870763935547386,0.565583112742862
8396423423.0,0.0091911082,0.0058280488,0.010883134785496717,0.5651138350546987
8396426026.0,0.0092124623,0.0057593285,0.01086459048468158,0.5587194806083179
8396428629.0,0.009206982,0.0057374473,0.010848355592835316,0.5572769835885252
8396431231.0,0.0092126866,0.0057353758,0.010852102559276024,0.5568369664212885
8396433834.0,0.0092050624,0.0056997671,0.010826842512114793,0.5544170606750571
8396436436.0,0.0092233044,0.0056605177,0.010821774562754145,0.5504460200601999
8396439039.0,0.0092383179,0.0056426536,0.010825250910304729,0.5483141057476981
8396441642.0,0.0092224922,0.00562666,0.010803409884599439,0.5478142749728865
8396444244.0,0.0092012709,0.0056093945,0.010776302372883618,0.547472189228429
8396446847.0,0.009212383,0.0055838523,0.010772530206358405,0.5449107438622594
8396449449.0,0.0092273319,0.0055498093,0.010767731295826624,0.5414874243487833
8396452052.0,0.0092217738,0.0055290214,0.01075226439686192,0.5400970806451348
8396454655.0,0.0092311112,0.0054805083,0.010735426643274794,0.5357740758505521
8396457257.0,0.0092268395,0.0054766095,0.010729763220791524,0.5356648708545709
8396459860.0,0.0092421704,0.0054456305,0.010727189997625957,0.5324520161270229
8396462462.0,0.0092500184,0.0054211237,0.010721540121225134,0.5301110988277628
8396465065.0,0.0092519848,0.0054062214,0.010715710548780654,0.5288184877782687
8396467668.0,0.0092697655,0.0053725508,0.010714142733955476,0.5252678530662277
8396470270.0,0.0092751255,0.0053476763,0.01070633433301669,0.5230066753371588
8396472873.0,0.009242148,0.0053162905,0.010662093806297816,0.5220013988865148
8396475475.0,0.0092464431,0.0052828576,0.010649192195815388,0.5190789184275189
8396478078.0,0.0092661046,0.005256198,0.010653089311244188,0.5159904580221524
8396480681.0,0.0092554047,0.0052470176,0.010639253256478664,0.5157361301480284
8396483283.0,0.0092660685,0.0052206639,0.010635570365685871,0.513086058029852
8396485886.0,0.0092725034,0.005165361,0.010614154396998969,0.5082490599281045
8396488488.0,0.0092561145,0.0051678221,0.01060103961384725,0.5092042157773843
8396491091.0,0.0092672203,0.0051124008,0.010583856292891203,0.5041205993347577
8396493694.0,0.0092664582,0.0051100497,0.010582053463710023,0.503960847803457
8396496296.0,0.0092507612,0.0050997791,0.010563348410812846,0.5038270190428787
8396498899.0,0.0092591755,0.0050589521,0.010551081806615598,0.500053354081688
8396501502.0,0.0093003199,0.0050608168,0.010588097889871355,0.49834471565781446
8396504104.0,0.0092447083,0.0050207364,0.010520096270965102,0.4975248734047874
8396506707.0,0.0092755006,0.0049899566,0.010532548516407789,0.4935615352121698
8396509309.0,0.0092826249,0.0049469295,0.010518518741347105,0.48963824363286956
8396511912.0,0.0092707673,0.0049272787,0.010498819063029088,0.48851762377679847
8396514515.0,0.009291872,0.0049180659,0.01051314688669034,0.4868016783099643
8396517117.0,0.009270949,0.0048928883,0.01048288372905461,0.4856125971194126
8396519720.0,0.0093014366,0.0048751452,0.010501607664776981,0.48276332477564654
8396522322.0,0.0093029223,0.0048499859,0.01049126906289397,0.4805735320793362
8396524925.0,0.0092888887,0.0048062074,0.01045863675881338,0.47748209710395284
8396527528.0,0.0092832857,0.004784811,0.010443840753934612,0.4759090651051866
8396530130.0,0.0092524855,0.0047653409,0.010407543505598381,0.4756020275276782
8396532733.0,0.009270156,0.0047307935,0.010407506877440834,0.47187354748002586
8396535335.0,0.0092854122,0.0047002995,0.010407290478967574,0.468597342404598
8396537938.0,0.0092803314,0.0046760358,0.010391817054620793,0.4667349654836597
8396540541.0,0.0092848486,0.0046476545,0.010383116385569999,0.46409815131189236
8396543143.0,0.0092653233,0.0046212821,0.010353862279425165,0.46266457674618033
8396545746.0,0.0092788321,0.0046023004,0.010357504241458489,0.46044246395459004
8396548348.0,0.0092704721,0.004559996,0.010331273710288311,0.45713367621994294
8396550951.0,0.0092799453,0.00458066,0.010348904811939865,0.4585213584222205
8396553554.0,0.0092827462,0.004510105,0.010320388758406315,0.45227087761382223
8396556156.0,0.0092849895,0.0044727149,0.010306124809635882,0.44891256431046367
8396558759.0,0.0092735649,0.0044582434,0.01028955490622192,0.44812734659872316
8396561361.0,0.0092610967,0.0044396879,0.010270284355175241,0.44702502757678614
8396563964.0,0.0092630734,0.0044314209,0.01026849648228719,0.4462158381181807
8396566567.0,0.0092622342,0.0043912032,0.010250446230254558,0.44271181875583804
8396569169.0,0.009253438,0.0043526042,0.010226009883708387,0.43966961282522893
8396571772.0,0.0092778156,0.004339353,0.010242453161533731,0.4374858565307899
8396574374.0,0.0092638816,0.0042929338,0.010210229327003434,0.4339458602619516
8396576977.0,0.0092693249,0.0043133074,0.0102237471031249,0.43553007356112183
8396579580.0,0.0092476125,0.0042568207,0.01018031725547415,0.43139922751602905
8396582182.0,0.0092579648,0.0042216018,0.010175059409939693,0.427829615875478
8396584785.0,0.0092413489,0.0041906313,0.010147113884453593,0.4257319546982078
8396587387.0,0.0092596929,0.0041466955,0.01014578711446434,0.42104134155256867
8396589990.0,0.0092535183,0.0041631653,0.01014689835583066,0.4227714295277272
8396592593.0,0.0092579866,0.004130722,0.01013771079322465,0.4196720919684861
8396595195.0,0.0092269843,0.0040834028,0.010090164403987396,0.41664134047971746
8396597798.0,0.0092412886,0.0040671025,0.01009666963577576,0.4145916839219029
8396600400.0,0.0092376694,0.0040240855,0.010076100438910215,0.4108288339496936
8396603003.0,0.0092414558,0.0040152261,0.010076038206431872,0.4098726660830159
8396605606.0,0.0092294737,0.0039975372,0.010058006186336114,0.40873437078228736
8396608208.0,0.0092259784,0.0039639992,0.010041512191640619,0.40580790576511994
8396610811.0,0.0092366376,0.0039338652,0.010039460621243793,0.4026309898666075
8396613413.0,0.0092512454,0.0038998067,0.010039623187569643,0.3989397197252313
8396616016.0,0.0092068948,0.0038677131,0.009986296434723868,0.3977034470454897
8396618619.0,0.0092255859,0.0038196445,0.009985044782306138,0.3925400936508018
8396621221.0,0.0091968072,0.0038361829,0.009964816200824993,0.3951783189465333
8396623824.0,0.0092030152,0.0037988273,0.009956233104274745,0.39147546050168464
8396626426.0,0.0091916904,0.0037668433,0.009933593551993511,0.38893425151787747
8396629029.0,0.009181884,0.0037436354,0.009915734960031413,0.3871435636215717
8396631632.0,0.0092194538,0.0036978088,0.009933384030213061,0.3814436304278241
8396634234.0,0.0091708487,0.0036671248,0.00987685527772209,0.38039219076077596
8396636837.0,0.0092043333,0.0036613319,0.009905811565916571,0.37859414060866153
8396639439.0,0.0091877032,0.0036277943,0.009877994815467495,0.37606164879512066
8396642042.0,0.0091716639,0.0036089566,0.009856164894889226,0.37488160616785315
8396644645.0,0.0091824699,0.0035746263,0.009853715372845804,0.37123801358912534
8396647247.0,0.0091632435,0.0035361394,0.009821879315921399,0.36829657812820626
8396649850.0,0.0091822761,0.0035040642,0.009828156505385576,0.3645546117053541
8396652452.0,0.009135089,0.0034758575,0.009774018436560637,0.3635796530752232
8396655055.0,0.0091413686,0.0034503586,0.009770854330592587,0.3609120022235162
8396657658.0,0.0091418695,0.0034201801,0.009760707447284047,0.35800123198932515
8396660260.0,0.0091374717,0.0033947659,0.009747708683793524,0.35571742004103307
8396662863.0,0.0091163367,0.0033933364,0.009727400821973558,0.3563363448041704
8396665465.0,0.0091122799,0.0033481826,0.009707933441206053,0.35212306656697145
8396668068.0,0.0090945338,0.0033192292,0.009681313315944025,0.34994811017192706
8396670671.0,0.0091084279,0.0033043857,0.00968929428100225,0.3480173778398023
8396673273.0,0.0090928867,0.0032601494,0.009659666798050399,0.3442611031871516
8396675876.0,0.0090680321,0.0032221811,0.009623495061973462,0.34141888297623746
8396678478.0,0.0090673369,0.0032034205,0.00961657430470549,0.3396048286846797
8396681081.0,0.0090319261,0.0031602118,0.009568836277036015,0.336579895834224
8396683684.0,0.0090765293,0.0031465817,0.009606474927283858,0.3337072459701573
8396686286.0,0.0090465669,0.0031000039,0.0095629700855012,0.33013155114391696
8396688889.0,0.0090348806,0.0031015777,0.009552426481548741,0.33068399015217986
8396691491.0,0.0090228208,0.003057037,0.009526634789277986,0.3266729293040167
8396694094.0,0.0090526585,0.0030223473,0.009543857140561123,0.32222713640692574
8396696697.0,0.0090123782,0.0030161151,0.009503678820135036,0.3229473328877336
8396699299.0,0.0090319956,0.0029996023,0.009517066694974069,0.3206477786232234
8396701902.0,0.0090333838,0.0029286295,0.009496256821841577,0.3135088046907829
8396704505.0,0.0090150787,0.0029359633,0.009481114094142132,0.31484004027375057
8396707107.0,0.0089754908,0.0028957252,0.009431047637182185,0.3120830502854292
8396709710.0,0.0089877815,0.0028655062,0.009433522251735068,0.3086343781541644
8396712312.0,0.0089671874,0.0028705867,0.009415451017818299,0.30981287340284325
8396714915.0,0.0089580848,0.0028208747,0.009391731329051696,0.3050671875890552
8396717518.0,0.0089533138,0.0027786232,0.009374570650907094,0.3009211077022863
8396720120.0,0.0089426154,0.002777845,0.009364122651713942,0.30118037124373825
8396722723.0,0.0089368288,0.0027122245,0.00933932924459298,0.29465414498012504
8396725325.0,0.0089030989,0.0027156222,0.009308048880206532,0.2960558067351006
8396727928.0,0.0089213991,0.0026819566,0.009315806626683723,0.2920260806516612
8396730531.0,0.0088962328,0.0026378697,0.009279079404012769,0.28825682190305413
8396733133.0,0.0088954413,0.0026192058,0.009273031594063471,0.2863514206557342
8396735736.0,0.0088803868,0.0025821564,0.009248178274215696,0.282968199430003
8396738338.0,0.008884327,0.0025834801,0.009252331364041444,0.28298667327485194
8396740941.0,0.0088595729,0.0025397256,0.009216411345730494,0.27917799719951414
8396743544.0,0.0088472354,0.0024989486,0.009193384487143737,0.27528405500247366
8396746146.0,0.0088388961,0.0024992048,0.009185429162480012,0.2755576780028476
8396748749.0,0.0088322869,0.0024391349,0.009162896427675564,0.2694454433207697
8396751351.0,0.0088033541,0.0024362961,0.00913425323148324,0.269989051030089
8396753954.0,0.0087994001,0.0024129399,0.009124238109611785,0.26763756708622666
8396756557.0,0.0087736116,0.0023762565,0.009089711516954034,0.26449581842622033
8396759159.0,0.0087690578,0.0023462051,0.009077502578958976,0.2614315480293515
8396761762.0,0.0087733829,0.0022976408,0.009069255799448873,0.2561353871321105
8396764364.0,0.0087163472,0.0023019581,0.009015193819608287,0.2582014674559562
8396766967.0,0.0087283862,0.0022582566,0.009015788846673041,0.2531739447206888
8396769570.0,0.0087306535,0.0022291068,0.009010728475704308,0.24997902778446657
8396772172.0,0.0087202478,0.0021928826,0.008991743756957691,0.2463619166700134
8396774775.0,0.0087032139,0.0021525178,0.008965448403090055,0.24245894009117622
8396777377.0,0.0086817928,0.00215288,0.008944742506999954,0.24307322339272733
8396779980.0,0.0086881987,0.0021079983,0.008940271443501287,0.23802815141209624
8396782583.0,0.0086645738,0.0020967267,0.008914656582849356,0.23742427454029974
8396785185.0,0.0086288034,0.0020400147,0.008866674015213802,0.23215645046716
8396787788.0,0.008639863,0.0020151749,0.008871762087452469,0.22914487211392742
8396790390.0,0.0086114114,0.0020180013,0.008844700986853747,0.23018675654321466
8396792993.0,0.0085812424,0.0019756028,0.008805721296459795,0.22628055336029831
8396795596.0,0.0085896989,0.0019597102,0.008810413796221222,0.2243073515623373
8396798198.0,0.0085730881,0.0019267473,0.008786933181060323,0.22107045228125288
8396800801.0,0.0085423594,0.0018989319,0.008750876897751789,0.2187392032281153
8396803403.0,0.0085471238,0.0018656276,0.008748365081225645,0.21490481004037518
8396806006.0,0.0085285656,0.0018308196,0.00872286258066969,0.2114598695877053
8396808609.0,0.0085082113,0.0018085947,0.008698314452485366,0.20945284262546718
8396811211.0,0.008485077,0.0017817641,0.008670133505545219,0.20698067292521388
8396813814.0,0.0084919617,0.0017531459,0.008671039964211542,0.20358750754788021
8396816416.0,0.0084546944,0.0017391072,0.008631706161036947,0.20286761353323696
8396819019.0,0.0084470592,0.0017020599,0.008616833352890879,0.19883488761628146
8396821622.0,0.008430959,0.001680666,0.00859684290092805,0.19676527113587972
8396824224.0,0.0084173834,0.0016557131,0.008578678754453228,0.19422205533804437
8396826827.0,0.0083906303,0.0016496861,0.008551265465404013,0.19413432035961015
8396829429.0,0.0083709712,0.0015924234,0.00852108978453443,0.18798548544177604
8396832032.0,0.0083419776,0.0015590674,0.008486417467733043,0.184762679872949
8396834635.0,0.0083472441,0.0015344389,0.008487107092691716,0.18179619406945996
8396837237.0,0.0083142001,0.0015136005,0.008450852606479436,0.180077933917125
8396839840.0,0.0083007282,0.0015028264,0.008435672814827053,0.17910741502908864
8396842442.0,0.0082762045,0.0014601232,0.008404018127360179,0.1746272632027913
8396845045.0,0.0082655945,0.0014331698,0.008388922941239973,0.17168289017461122
8396847648.0,0.0082222047,0.0013778296,0.008336849796856019,0.1660315792965567
8396850250.0,0.0082207549,0.001399931,0.008339101746029665,0.1686742025295796
8396852853.0,0.008235788,0.0013657196,0.008348256944223038,0.1643320168151119
8396855455.0,0.0081892195,0.0013486322,0.00829952557861334,0.16321883276903992
8396858058.0,0.0081392862,0.0012852521,0.008240136698263255,0.15661406167138744
8396860661.0,0.0081195308,0.0012992149,0.008222818237595348,0.1586660665123599
8396863263.0,0.008120918,0.0012646394,0.008218796869053057,0.15448534828662489
8396865866.0,0.0080989481,0.0012037027,0.008187909410617639,0.1475445156917818
8396868468.0,0.0080779337,0.0011798145,0.008163637370437637,0.14502855935654613
8396871071.0,0.0080688512,0.0011870301,0.008155697404026675,0.14606494647226761
8396873674.0,0.0080519362,0.0011544056,0.008134268796774655,0.14239955848416483
8396876276.0,0.0080048875,0.0011208958,0.008082984058014334,0.13912186096861598
8396878879.0,0.0079861571,0.0011023608,0.00806187971624838,0.13716716580204324
8396881481.0,0.0079835996,0.0010630472,0.008054063069193585,0.13237520160919758
8396884084.0,0.0079518615,0.0010319144,0.008018537812102006,0.12904898467829315
8396886687.0,0.0079278935,0.0010265053,0.00799407333455669,0.12876381669521794
8396889289.0,0.0079367431,0.0010075685,0.008000442820093764,0.12627440297035009
8396891892.0,0.0078869238,0.000951451,0.007944106370914696,0.12005635782725184
8396894494.0,0.0078547464,0.0009387021,0.007910638573519672,0.11894351393486394
8396897097.0,0.0078667851,0.0009468945,0.007923567189322765,0.11978984569468226
8396899700.0,0.0078204506,0.0008785849,0.007869647959950203,0.11187543953753142
8396902302.0,0.0077765149,0.0008858123,0.007826803141816798,0.11341978669441245
8396904905.0,0.0077792754,0.0008426848,0.007824783921693697,0.1079035904734387
8396907508.0,0.0077520826,0.0008315436,0.007796553687105843,0.10685852684285323
8396910110.0,0.0077333391,0.0007920887,0.007773798180056934,0.10206924625967229
8396912713.0,0.0077212724,0.0007888101,0.007761460484268652,0.10180743536953758
8396915315.0,0.0076940262,0.000739212,0.007729454932091294,0.09578210866777928
8396917918.0,0.0076630979,0.0007318581,0.007697966335566817,0.09521542099773803
8396920521.0,0.0076133847,0.0007203135,0.00764738374403144,0.0943306746800587
8396923123.0,0.0076093584,0.0006786889,0.007639565032292989,0.08895595758199705
8396925726.0,0.0075875918,0.0006535727,0.007615688189363619,0.08592494975834507
8396928328.0,0.0075541044,0.0006209185,0.007579580006157439,0.08201181189610995
8396930931.0,0.0075356458,0.0005878722,0.0075585416150597785,0.07785450299984739
8396933534.0,0.0074816479,0.0005910689,0.0075049595431368995,0.0788387524063501
8396936136.0,0.0074578381,0.0005728963,0.007479810110983119,0.07666744398211053
8396938739.0,0.007462739,0.0005353685,0.007481917722944651,0.07161618635679541
8396941341.0,0.0074243942,0.0005163983,0.00744233138480386,0.06944242880212866
8396943944.0,0.0073934114,0.0004840399,0.007409239283114156,0.06537578970762975
8396946547.0,0.007405845,0.0004709509,0.007420804195923499,0.06350627205942046
8396949149.0,0.0073328729,0.0004720899,0.00734805374512438,0.06429121136800535
8396951752.0,0.00734295,0.0004191226,0.007354901661907572,0.05701636686304824
8396954354.0,0.0073129057,0.0003813803,0.007322843758426134,0.05210447388709741
8396956957.0,0.0072692989,0.0003949747,0.007280021394967277,0.0542812593252232
8396959560.0,0.0072406641,0.0003474597,0.0072489961271994694,0.0479504856983405
8396962162.0,0.0071905515,0.0003216764,0.007197743158828968,0.04470617672279179
8396964765.0,0.0071902649,0.0003049997,0.007196730795935895,0.04239300923157443
8396967367.0,0.0071193627,0.0003052342,0.0071259029723257485,0.04284756872104234
8396969970.0,0.0071163315,0.0002660401,0.0071213026443692345,0.03736704296381289
8396972573.0,0.0070955186,0.000260659,0.007100304734110146,0.03671921043082887
8396975175.0,0.0070682666,0.0002180822,0.007071630121452366,0.03084391840980788
8396977778.0,0.0070260634,0.0001907736,0.007028652891363786,0.02714560451730438
8396980380.0,0.0070107641,0.000197814,0.007013554280423358,0.028208270467958135
8396982983.0,0.0069834647,0.000167958,0.006985484171187426,0.024046176764459345
8396985586.0,0.0069236063,0.0001361913,0.006924945650876647,0.019668036080028716
8396988188.0,0.0069241022,0.000126237,0.006925252851428159,0.018229513741161208
8396990791.0,0.0068734105,0.0001009323,0.006874151528057374,0.014683401515312625
8396993393.0,0.0068474071,8.68936e-05,0.00684795841772213,0.012689319452719403
8396995996.0,0.0068140987,5.3481e-05,0.006814308571726312,0.007848419027688467
8396998599.0,0.0068058219,4.41163e-05,0.0068059648825457,0.006482050627914013
8397001201.0,0.0067640547,2.56066e-05,0.006764103169124171,0.003785669810539696
8397003804.0,0.0067288754,2.36695e-05,0.006728917029801706,0.0035175866647389415
8397006406.0,0.0067083057,-2.42754e-05,0.006708349622649199,-0.0036186922784872673
8397009009.0,0.0066604622,-2.19547e-05,0.006660498384241297,-0.0032962608037747786
8397011612.0,0.0066545382,-4.35722e-05,0.006654680848235479,-0.006547648539574259
8397014214.0,0.0066079172,-6.24538e-05,0.006608212330062517,-0.009451077938943656
8397016817.0,0.0065654094,-7.93755e-05,0.006565889205553853,-0.012089365360773678
8397019419.0,0.0065424727,-8.30366e-05,0.006542999626103066,-0.012691247726387868
8397022022.0,0.0065001609,-0.0001244403,0.006501351945107487,-0.019141849379264754
8397024625.0,0.0064871208,-0.0001543,0.00648895559884583,-0.023781106595533136
8397027227.0,0.0064443798,-0.0001402507,0.006445905775412679,-0.021759822960488177
8397029830.0,0.0063936742,-0.0001562847,0.006395583998604016,-0.02443877807853132
8397032432.0,0.0063678254,-0.0001812242,0.006370403639923517,-0.028451674752888335
8397035035.0,0.0063374567,-0.0002159988,0.006341136562634204,-0.03406969556371582
8397037638.0,0.0063038297,-0.0001971019,0.0063069103406966,-0.031256825832744146
8397040240.0,0.0062921691,-0.0002226649,0.006296107657965104,-0.03537286104213369
8397042843.0,0.0062782243,-0.0002364978,0.006282677102200569,-0.037651734130928434
8397045445.0,0.0062024076,-0.0002986364,0.006209592880047993,-0.048111308702216304
8397048048.0,0.0061816341,-0.0002904419,0.006188453493689552,-0.04695011959316537
8397050651.0,0.0061419869,-0.0002920967,0.006148928651555692,-0.04752155794714413
