frequency,Re(S21),Im(S21),Amplitude,phase
5976000000.0,-0.0024248334,-0.0162463565,0.016426317802321,-1.7189565926841897
5976003801.0,-0.002480528,-0.016255304,0.016443476739765227,-1.7222261995793382
5976007602.0,-0.0025378125,-0.0162843826,0.01648094684623244,-1.7253960712769554
5976011402.0,-0.0025626818,-0.0162866098,0.0164869947772633,-1.7268656989675486
5976015203.0,-0.0025993371,-0.0162757143,0.016481972859298758,-1.729165386010199
5976019004.0,-0.0026244564,-0.0162905331,0.016500583022357015,-1.7305270298724835
5976022805.0,-0.002678103,-0.0162734956,0.016492388993770077,-1.7339027474214008
5976026605.0,-0.0026961216,-0.0162788058,0.01650056332238691,-1.7349279948824516
5976030406.0,-0.0027167002,-0.0162639652,0.016489300288474677,-1.7363062785952987
5976034207.0,-0.0027514743,-0.0162783812,0.016509279369980808,-1.7382399668944
5976038008.0,-0.0027816981,-0.0162597086,0.016495937926545964,-1.7402351933135178
5976041808.0,-0.0028093153,-0.0162619692,0.01650284504915933,-1.741861610913335
5976045609.0,-0.0028251828,-0.0162530823,0.016496797934871757,-1.7429011300480304
5976049410.0,-0.002835051,-0.0162507076,0.01649615142005246,-1.7435151578335177
5976053211.0,-0.002867505,-0.0162450212,0.01649616012026661,-1.745512496352744
5976057011.0,-0.0028894026,-0.016247643,0.016502561935661256,-1.7467916002294661
5976060812.0,-0.0028977601,-0.0162437133,0.016500158646805457,-1.7473319855775784
5976064613.0,-0.0029290116,-0.0162255829,0.016487833374876974,-1.7493910721742338
5976068414.0,-0.0029563705,-0.0162273106,0.01649441529252076,-1.7510047594896865
5976072214.0,-0.0029792477,-0.0162231752,0.016494463629589482,-1.7524141990380426
5976076015.0,-0.0029875505,-0.0162056463,0.016478726588870694,-1.7531018936472043
5976079816.0,-0.0030004026,-0.0162039894,0.016479432278977305,-1.7538870852620418
5976083617.0,-0.0030283164,-0.0161966601,0.016477332873175835,-1.7556338300958685
5976087417.0,-0.0030517801,-0.0161931052,0.016478167913849616,-1.7570731511648041
5976091218.0,-0.003071504,-0.0161795435,0.016468508271559035,-1.7584026183028847
5976095019.0,-0.0030858419,-0.0161638309,0.016455754300413895,-1.7594367151877173
5976098820.0,-0.0031098493,-0.0161672179,0.01646359915980679,-1.76083047945695
5976102621.0,-0.0031397559,-0.0161650452,0.01646714162900252,-1.7626388465939107
5976106421.0,-0.0031599562,-0.016159404,0.01646546873979403,-1.7639084927341786
5976110222.0,-0.003171933,-0.0161575792,0.016465980825956336,-1.764643607029728
5976114023.0,-0.0032113213,-0.0161419555,0.0164582900647611,-1.7671748721896
5976117824.0,-0.0032207295,-0.0161463977,0.016464484723146836,-1.7676826691075331
5976121624.0,-0.0032427222,-0.0161472806,0.01646966660383595,-1.7689817303833082
5976125425.0,-0.0032644308,-0.0161271966,0.016454269312948546,-1.770515558725548
5976129226.0,-0.0032893231,-0.0161190093,0.016451203824330917,-1.772097316654786
5976133027.0,-0.0033004916,-0.0161206403,0.016455038392044385,-1.772742521429658
5976136827.0,-0.0033237961,-0.0161016708,0.01644115029631284,-1.7743625876634688
5976140628.0,-0.0033440475,-0.0161026759,0.016446240446457573,-1.7755561769411385
5976144429.0,-0.0033691439,-0.0160917183,0.016440636498185283,-1.7771862948027677
5976148230.0,-0.0033955884,-0.0160938042,0.016448117041477795,-1.7787339383307135
5976152030.0,-0.0034127318,-0.0160811996,0.016439334503372434,-1.7799125893268735
5976155831.0,-0.0034283569,-0.0160774117,0.01643888067981134,-1.7808902140962077
5976159632.0,-0.0034566104,-0.0160766743,0.016444075285818555,-1.7825799438096583
5976163433.0,-0.0034838399,-0.0160620992,0.016435576386591152,-1.7843860798358815
5976167233.0,-0.0035038113,-0.01606425,0.016441922688314393,-1.785545413605054
5976171034.0,-0.0035182779,-0.01603878,0.01642013225494936,-1.7867367572685422
5976174835.0,-0.0035511291,-0.0160387607,0.016427183650179703,-1.7886903725656194
5976178636.0,-0.0035652272,-0.0160353952,0.016426951762509162,-1.7895725985589768
5976182436.0,-0.0036040794,-0.0160354761,0.016435506748353566,-1.7918791039899977
5976186237.0,-0.0036154792,-0.0160255359,0.016428313690936797,-1.7926888088478365
5976190038.0,-0.0036304706,-0.0160118367,0.016418259082038242,-1.7937631445159778
5976193839.0,-0.0036576127,-0.0160136016,0.016426002765941684,-1.7953508689407354
5976197640.0,-0.0036849846,-0.0160044847,0.016423234821884854,-1.797099292976444
5976201440.0,-0.0036949816,-0.0159925676,0.016413869362978017,-1.7978557275475329
5976205241.0,-0.0037226648,-0.0159887239,0.01641637978250961,-1.7995514683590281
5976209042.0,-0.003749082,-0.0159814609,0.01641531931888481,-1.8012191804193136
5976212843.0,-0.0037639213,-0.0159704199,0.016407968044060476,-1.8022533574906214
5976216643.0,-0.0037822367,-0.0159783947,0.016419939453110505,-1.803227636509393
5976220444.0,-0.0037977073,-0.0159535197,0.016399310093865575,-1.8044950312619632
5976224245.0,-0.0038294715,-0.0159566125,0.016409702448383048,-1.8063344633494058
5976228046.0,-0.0038617442,-0.0159465014,0.016407436581210227,-1.8083909228585342
5976231846.0,-0.0038679349,-0.0159381931,0.016400820701523617,-1.8088770126552762
5976235647.0,-0.0038878369,-0.0159331578,0.016400633928013345,-1.8101286796662222
5976239448.0,-0.0039153869,-0.0159191035,0.01639353869121624,-1.811964547678111
5976243249.0,-0.0039299808,-0.0159215248,0.016399381117755137,-1.8127934357913023
5976247049.0,-0.0039514066,-0.0159152695,0.01639845777431993,-1.8141533514841448
5976250850.0,-0.003971311,-0.0159146129,0.016402628289867674,-1.8153407299595077
5976254651.0,-0.0039974949,-0.0159062433,0.016400870141377283,-1.8170132803828065
5976258452.0,-0.0040263891,-0.0159028329,0.016404630548412884,-1.8187721768593323
5976262252.0,-0.0040386691,-0.0158875126,0.016392800392686223,-1.819727756160768
5976266053.0,-0.0040616976,-0.0158737882,0.016385192681573964,-1.8212962421346157
5976269854.0,-0.0040868057,-0.0158735714,0.016391224780975048,-1.8227835131004553
5976273655.0,-0.0041086719,-0.0158616032,0.01638510423696169,-1.8242580027964617
5976277455.0,-0.0041253656,-0.0158551874,0.016383089111116442,-1.8253426057367987
5976281256.0,-0.0041487966,-0.0158527464,0.0163866433918263,-1.826763925805103
5976285057.0,-0.004159385,-0.0158423193,0.016379241874439045,-1.8275504926194341
5976288858.0,-0.0041942141,-0.0158468159,0.016392467968098384,-1.8295358875232737
5976292659.0,-0.0042118909,-0.0158341948,0.016384802407043236,-1.8307759186637729
5976296459.0,-0.0042279944,-0.0158210792,0.016376278078339537,-1.831932094483574
5976300260.0,-0.0042600029,-0.0158137406,0.01637748504722556,-1.8339359439450786
5976304061.0,-0.0042726736,-0.0158082823,0.016375516143579422,-1.8347697697920167
5976307862.0,-0.0042965808,-0.015795965,0.016369884448344574,-1.8363759446417067
5976311662.0,-0.0043071551,-0.0157855471,0.01636261233121944,-1.8371666462405511
5976315463.0,-0.0043347349,-0.0157853577,0.016369711187746327,-1.8387950807510316
5976319264.0,-0.0043672677,-0.0157762632,0.01636959094538216,-1.84085864704381
5976323065.0,-0.0043800559,-0.0157655456,0.01636268064079979,-1.8417866153551008
5976326865.0,-0.004401649,-0.0157643989,0.016367369568672976,-1.8430765018265667
5976330666.0,-0.00442342,-0.0157622354,0.016371154794375783,-1.8443928899213564
5976334467.0,-0.0044542298,-0.015751594,0.016369266222162927,-1.8463807081034376
5976338268.0,-0.004473465,-0.0157415578,0.016364856585896675,-1.847678631795777
5976342068.0,-0.0044929772,-0.0157302526,0.01635933039520648,-1.8490148356338436
5976345869.0,-0.0045017152,-0.0157326087,0.016363997563224784,-1.8494887360168784
5976349670.0,-0.004538452,-0.0157131044,0.016355402668280696,-1.8519762930460824
5976353471.0,-0.0045580617,-0.0157064579,0.01635447175012019,-1.853241019951465
5976357271.0,-0.004576122,-0.0157003653,0.01635366512780325,-1.8544054521483142
5976361072.0,-0.0045961279,-0.0156989776,0.016357942699449103,-1.8556033420353386
5976364873.0,-0.0046231773,-0.0156918781,0.016358753212042016,-1.8573121834612958
5976368674.0,-0.0046434938,-0.0156751333,0.016348450649630603,-1.858793704423874
5976372474.0,-0.0046667405,-0.0156600729,0.016340634936490524,-1.860419524516619
5976376275.0,-0.0046844191,-0.0156599123,0.01634553870473947,-1.8614588406933938
5976380076.0,-0.0047033936,-0.0156552586,0.016346529698666776,-1.8626525065496697
5976383877.0,-0.0047290775,-0.0156505287,0.01634941046614617,-1.8642402526042523
5976387678.0,-0.0047570077,-0.0156382746,0.01634578706342599,-1.8660927667921483
5976391478.0,-0.0047840753,-0.0156302052,0.016345968648880282,-1.867820679228609
5976395279.0,-0.0047904602,-0.0156240299,0.016341934378887892,-1.868304873987345
5976399080.0,-0.0048164798,-0.0156132828,0.016339310801150208,-1.8700201827415084
5976402881.0,-0.0048474796,-0.0156107699,0.01634607583926987,-1.8718776994007857
5976406681.0,-0.0048581994,-0.0155894501,0.016328902468645906,-1.872891854530956
5976410482.0,-0.0048857036,-0.0156061045,0.016352999643245065,-1.874194590433689
5976414283.0,-0.0049105193,-0.0155904572,0.01634550566671782,-1.8759294505005017
5976418084.0,-0.0049273989,-0.0155694781,0.016330581992877683,-1.877301259021935
5976421884.0,-0.0049602672,-0.0155776347,0.016348301243310874,-1.8790675205971734
5976425685.0,-0.0049671819,-0.0155607699,0.01633433365363992,-1.8797841533093367
5976429486.0,-0.0049905648,-0.015555817,0.016336743236045795,-1.881239871085159
5976433287.0,-0.0050257916,-0.0155452117,0.0163374474139765,-1.8834913025572448
5976437087.0,-0.0050416178,-0.0155404513,0.01633779473028562,-1.884502649087091
5976440888.0,-0.0050683106,-0.0155328912,0.01633886413950216,-1.886199404161079
5976444689.0,-0.0050748375,-0.015513658,0.01632260886599842,-1.8869450613791232
5976448490.0,-0.0051136186,-0.0155071901,0.016328565153858558,-1.8893255561960012
5976452290.0,-0.0051270127,-0.0155067948,0.016332389420879858,-1.8901119772363708
5976456091.0,-0.0051558725,-0.0155011176,0.016336084845680925,-1.8918983988515592
5976459892.0,-0.0051688776,-0.0154878772,0.016327634115390434,-1.8929101329386582
5976463693.0,-0.005187593,-0.0154752797,0.016321623783400997,-1.8942421611335292
5976467493.0,-0.0052175374,-0.0154706703,0.01632679809551465,-1.8960708544364822
5976471294.0,-0.0052134373,-0.015468288,0.016323230750435874,-1.895879483365982
5976475095.0,-0.0052418723,-0.01545921,0.016323737287570125,-1.8977078091908532
5976478896.0,-0.0052656099,-0.0154506673,0.01632328911813631,-1.899253065352402
5976482697.0,-0.0052992855,-0.0154375405,0.01632176716840583,-1.9014654393707473
5976486497.0,-0.0053179561,-0.0154293874,0.016320130288107568,-1.9027096847615979
5976490298.0,-0.0053301811,-0.0154172342,0.016312631330856676,-1.9036609672442562
5976494099.0,-0.005359605,-0.0154015842,0.016307487900523325,-1.9056798260417305
5976497900.0,-0.0053907118,-0.0154041838,0.016320191550801163,-1.9074276245276696
5976501700.0,-0.0054038169,-0.0153951825,0.01631603141995724,-1.9083679734357568
5976505501.0,-0.0054250882,-0.0153841952,0.016312726440711325,-1.9098214245736846
5976509302.0,-0.0054457229,-0.0153747777,0.016310723074959052,-1.911206533247548
5976513103.0,-0.0054743073,-0.0153635624,0.01630972378777541,-1.9130881516669356
5976516903.0,-0.0054828401,-0.0153555389,0.01630503328642972,-1.9137462832605776
5976520704.0,-0.0054983282,-0.0153429028,0.016298352043233176,-1.914901938895651
5976524505.0,-0.0055118232,-0.01533528,0.016295735873732682,-1.915839330189663
5976528306.0,-0.0055611724,-0.0153348175,0.016312058920345648,-1.9186959346961072
5976532106.0,-0.0055603013,-0.0153199341,0.0162977707486369,-1.9189570253231536
5976535907.0,-0.005582741,-0.0153037867,0.01629026962429345,-1.9205900474021707
5976539708.0,-0.0056112632,-0.0153070128,0.016303095275408228,-1.9221657853838043
5976543509.0,-0.0056310831,-0.0152919453,0.016295787429188493,-1.9236259755340328
5976547309.0,-0.0056668551,-0.0152791267,0.016296163948581546,-1.9259576872872128
5976551110.0,-0.0056671149,-0.0152849766,0.016301739200231046,-1.9258478420778034
5976554911.0,-0.0056841394,-0.0152603129,0.01628455067002276,-1.9273545906137775
5976558712.0,-0.0057002654,-0.0152607117,0.016290560064680222,-1.9282736833258063
5976562513.0,-0.0057489304,-0.0152416349,0.016289801569354435,-1.9314820597350466
5976566313.0,-0.0057581531,-0.0152415204,0.016292951581179386,-1.9320141717317445
5976570114.0,-0.0057630273,-0.0152169115,0.016271658774057965,-1.9328288876169732
5976573915.0,-0.0058040407,-0.0152297191,0.016298197210494213,-1.9349038869174922
5976577716.0,-0.0058349397,-0.0152126214,0.016293261526237588,-1.937049688386897
5976581516.0,-0.0058347956,-0.0152075399,0.016288465535582882,-1.9371531507509294
5976585317.0,-0.0058569551,-0.0151861316,0.016276440520455772,-1.9388954102346223
5976589118.0,-0.0058893631,-0.0151887343,0.016290556999674324,-1.940694031424312
5976592919.0,-0.0058987468,-0.0151670404,0.016273731234899464,-1.9417135769600704
5976596719.0,-0.0059220466,-0.0151579685,0.016273740964497494,-1.9432500158667139
5976600520.0,-0.0059384128,-0.0151558543,0.016277735289223508,-1.9442337800181424
5976604321.0,-0.0059714069,-0.0151563601,0.016290271693444516,-1.9461082484498538
5976608122.0,-0.0059685399,-0.0151280823,0.016262913103545294,-1.9465816046615454
5976611922.0,-0.0060033217,-0.0151236073,0.01627155091557975,-1.9486709617101412
5976615723.0,-0.006023862,-0.0151122509,0.016268590616878735,-1.9501020079141065
5976619524.0,-0.0060506591,-0.0151064717,0.01627316695567626,-1.9517631672664133
5976623325.0,-0.0060664089,-0.015100717,0.016273689528072243,-1.9527930709137018
5976627125.0,-0.0060785535,-0.0150916064,0.016269769401711973,-1.9536944629434843
5976630926.0,-0.0061062745,-0.0150789871,0.016268449226380387,-1.9555648516117554
5976634727.0,-0.0061274816,-0.0150631445,0.016261745078134108,-1.9571392825755012
5976638528.0,-0.0061534515,-0.0150480332,0.016257560350530904,-1.9589691850114006
5976642328.0,-0.0061850271,-0.0150442209,0.01626601188723687,-1.9608546754255494
5976646129.0,-0.0061948611,-0.0150329274,0.01625931149409359,-1.9616781793225204
5976649930.0,-0.0062154172,-0.0150237417,0.016258666170334352,-1.9630623899562958
5976653731.0,-0.0062389232,-0.0150138468,0.016258528790433914,-1.964630998753256
5976657532.0,-0.0062660153,-0.0150135369,0.016268658149567707,-1.9661761154746822
5976661332.0,-0.0062703119,-0.0150054588,0.01626285968462432,-1.9666112461783443
5976665133.0,-0.0063021509,-0.0149949895,0.016265510015719797,-1.9686655231552428
5976668934.0,-0.0063207103,-0.0149866513,0.016265026771706152,-1.969916082554825
5976672735.0,-0.0063454804,-0.0149802158,0.016268742634922766,-1.9714726962890783
5976676535.0,-0.0063547529,-0.0149601508,0.016253891730253375,-1.9724794874105165
5976680336.0,-0.0063746224,-0.0149497024,0.016252058718548477,-1.9738561111567925
5976684137.0,-0.0064033717,-0.0149439522,0.01625807111819375,-1.9756214449491636
5976687938.0,-0.0064210921,-0.0149329918,0.016254989014316486,-1.9768890514585902
5976691738.0,-0.006437091,-0.0149151674,0.01624494872605955,-1.9782272386286466
5976695539.0,-0.006474967,-0.0149075822,0.01625303678396274,-1.9805518026510944
5976699340.0,-0.0064813791,-0.0148937603,0.016242917561564266,-1.9812528918832686
5976703141.0,-0.0065063775,-0.0148840693,0.016244028659778607,-1.982902051366278
5976706941.0,-0.0065184389,-0.0148755093,0.01624102283193456,-1.9837936352366439
5976710742.0,-0.0065411455,-0.0148693218,0.01624448568727633,-1.985226790749143
5976714543.0,-0.0065754976,-0.0148564442,0.01624657203705814,-1.987481388680598
5976718344.0,-0.0065866909,-0.0148403619,0.016236404723186548,-1.9885126863753866
5976722144.0,-0.0066077676,-0.014831115,0.016236519479212126,-1.98993021396568
5976725945.0,-0.0066450352,-0.0148383249,0.01625830183774428,-1.9918435498393952
5976729746.0,-0.0066585154,-0.0148092324,0.016237277838641765,-1.9933335440773374
5976733547.0,-0.0066845461,-0.0148099696,0.016248641669873498,-1.9947760669501413
5976737347.0,-0.0067017049,-0.014793614,0.016240808592791187,-1.9961533442135437
5976741148.0,-0.0067190324,-0.0147945167,0.016248788286479354,-1.997101782855001
5976744949.0,-0.0067482883,-0.014782116,0.016249626100848378,-1.9990566166640555
5976748750.0,-0.0067654726,-0.0147684751,0.016244367524796733,-2.000367674092258
5976752551.0,-0.0067811517,-0.0147618329,0.01624486777249773,-2.001415446204428
5976756351.0,-0.0068023659,-0.0147433533,0.01623695317373625,-2.003077797396437
5976760152.0,-0.0068272388,-0.0147211964,0.016227286066363606,-2.005041613696839
5976763953.0,-0.0068488997,-0.0147229663,0.016238016004783213,-2.006205910270875
5976767754.0,-0.0068802404,-0.014714696,0.01624376761512575,-2.0081700366602506
5976771554.0,-0.0068922021,-0.0147044173,0.016239530101569553,-2.0091053703102735
5976775355.0,-0.0069141207,-0.0146908983,0.016236611651299398,-2.010681083525134
5976779156.0,-0.0069352995,-0.0146881056,0.016243116242625723,-2.011934034557822
5976782957.0,-0.0069424321,-0.0146681704,0.01622814180202239,-2.012855980921259
5976786757.0,-0.0069743482,-0.0146529228,0.016228052236716615,-2.015035605778897
5976790558.0,-0.0069902103,-0.014650547,0.016232731360970497,-2.0159808282951954
5976794359.0,-0.0070139131,-0.014641809,0.01623507153562412,-2.017530271628787
5976798160.0,-0.0070313443,-0.0146233299,0.016225953901986057,-2.018991137655043
5976801960.0,-0.0070524083,-0.0146074424,0.016220784083983936,-2.020585895093224
5976805761.0,-0.0070776949,-0.0145975493,0.016222891562955616,-2.022254700867518
5976809562.0,-0.0070801772,-0.0145942081,0.016220968505286773,-2.0224822640854474
5976813363.0,-0.0071017679,-0.014578909,0.01621664869619341,-2.024091920411954
5976817163.0,-0.0071290551,-0.0145632375,0.016214540175417933,-2.0260281135619858
5976820964.0,-0.0071562792,-0.0145602715,0.016223866312999033,-2.0276156295927854
5976824765.0,-0.0071629983,-0.0145531591,0.016220449575634937,-2.0281808034396187
5976828566.0,-0.0071941156,-0.0145434922,0.01622554974839448,-2.030164571271585
5976832366.0,-0.0072143093,-0.0145353688,0.01622723651236032,-2.031501955527333
5976836167.0,-0.0072460624,-0.0145177269,0.016225591349706713,-2.0337382845872636
5976839968.0,-0.0072386441,-0.0145091081,0.01621456710072614,-2.033566311766285
5976843769.0,-0.0072656878,-0.0144938713,0.016213035633959254,-2.035478438909124
5976847570.0,-0.0072854873,-0.0144846368,0.016213667951033645,-2.0368253509435474
5976851370.0,-0.0073049222,-0.0144730956,0.0162121061122481,-2.038216182729261
5976855171.0,-0.0073285527,-0.0144604161,0.016211456395457395,-2.0398698863407825
5976858972.0,-0.0073379137,-0.0144402123,0.016197676028915968,-2.0409492529188142
5976862773.0,-0.0073576327,-0.0144335622,0.01620069371136243,-2.042220317036971
5976866573.0,-0.0073825909,-0.0144347118,0.016213067357715567,-2.043559590498516
5976870374.0,-0.0073881239,-0.0144120377,0.016195406923815544,-2.044501259764842
5976874175.0,-0.0074113189,-0.0144072501,0.016201743834582966,-2.0459100532288015
5976877976.0,-0.0074403071,-0.014399352,0.016208007519809903,-2.0477233795742733
5976881776.0,-0.0074607606,-0.0143815848,0.01620163356239436,-2.0493483488635618
5976885577.0,-0.0074753645,-0.0143707758,0.01619877376537267,-2.050455890933677
5976889378.0,-0.0074957525,-0.0143599776,0.016198619145277725,-2.0518801103117084
5976893179.0,-0.0075230891,-0.0143503597,0.01620276806986766,-2.0536504457276474
5976896979.0,-0.0075342874,-0.0143332517,0.01619282529150956,-2.054753492007603
5976900780.0,-0.0075489544,-0.0143239615,0.016191435562875875,-2.0558222823638186
5976904581.0,-0.0075652685,-0.0143085991,0.01618546556888658,-2.057156498950873
5976908382.0,-0.0075905741,-0.0143018112,0.016191313064975187,-2.0587341297486734
5976912182.0,-0.0076115578,-0.0142862487,0.016187424565414738,-2.0603298578291445
5976915983.0,-0.0076293718,-0.0142754665,0.016186298460588742,-2.061614384770441
5976919784.0,-0.0076529748,-0.0142616245,0.016185238851139493,-2.06330364089588
5976923585.0,-0.0076660351,-0.0142462848,0.016177908540882007,-2.064463324890095
5976927385.0,-0.0076887818,-0.014235484,0.016179195600593596,-2.0660177178772825
