frequency,Re(S21),Im(S21),Amplitude,phase
7489000000.0,0.0046450697,0.0100005195,0.011026652383554056,1.1359639552819465
7489000900.0,0.0046739081,0.0099958915,0.011034639269455882,1.133417036321692
7489001800.0,0.004678183,0.0100124085,0.01105141258628784,1.1336996765017655
7489002701.0,0.0046982432,0.0100059495,0.011054072306751773,1.1318082099899702
7489003601.0,0.0047079039,0.0099960656,0.011049239186981996,1.1306365828203342
7489004501.0,0.0047215396,0.0099967775,0.01105569973266615,1.1295482150298037
7489005401.0,0.0047319248,0.0100002933,0.01106331679013486,1.1288351366159304
7489006301.0,0.0047364432,0.0099905823,0.011056474523097295,1.128090073653547
7489007201.0,0.0047432357,0.009987652,0.011056739002927512,1.1274214339534983
7489008102.0,0.0047507104,0.0099747264,0.011048276610382504,1.1263084164106787
7489009002.0,0.0047631531,0.0099753598,0.01105420420444166,1.125316821049133
7489009902.0,0.0047518993,0.009961295,0.011036663673156191,1.1256878648217705
7489010802.0,0.0047615642,0.0099709015,0.011049496384606129,1.1252727276576848
7489011702.0,0.0047701444,0.0099634301,0.011046457212809786,1.1242803460927495
7489012603.0,0.0047606618,0.0099653243,0.011044074844827417,1.1251288430096291
7489013503.0,0.00477071,0.0099500278,0.011034614951364314,1.1237096324606963
7489014403.0,0.0047711186,0.0099460252,0.011031182619025985,1.1235193605085119
7489015303.0,0.0047805825,0.0099431731,0.011032708658161415,1.1226341302356448
7489016203.0,0.0047738152,0.0099433896,0.011029973177716217,1.1231955828217177
7489017103.0,0.004786324,0.0099285282,0.011022003885463443,1.1215889227453053
7489018004.0,0.0047892899,0.0099273324,0.011022215127928314,1.1212994223209174
7489018904.0,0.004791687,0.009927524,0.011023429460768777,1.121111120353537
7489019804.0,0.0047923827,0.0099250075,0.011021465683760737,1.120955023720777
7489020704.0,0.004797397,0.0099122777,0.011012187211336642,1.120042338139105
7489021604.0,0.0047921396,0.0099211215,0.011017860670912951,1.120821530902002
7489022505.0,0.004801029,0.0099117036,0.011013253275626324,1.1197227835819967
7489023405.0,0.0048020488,0.0099087352,0.011011026561647213,1.1195219104267837
7489024305.0,0.004812003,0.009900387,0.011007862445623946,1.1183774135319917
7489025205.0,0.0048058881,0.0098947239,0.01100009643080245,1.118652330508481
7489026105.0,0.0048093448,0.0099022888,0.01100841136967058,1.118670109904094
7489027005.0,0.0048154596,0.0098975454,0.01100681861866967,1.117982110991482
7489027906.0,0.0048055858,0.0098851373,0.010991341788926997,1.1182960122362504
7489028806.0,0.0048159893,0.0098923514,0.011002380158801842,1.1177322850064333
7489029706.0,0.0048231826,0.0098874321,0.0110011092133954,1.1169486496611554
7489030606.0,0.0048268265,0.0098745912,0.010991169429511114,1.1161384707320707
7489031506.0,0.0048178362,0.0098715544,0.010984495069059378,1.1167523689625352
7489032406.0,0.0048239313,0.0098665331,0.010982658539739606,1.1160530930403443
7489033307.0,0.0048374835,0.009871444,0.010993027483723865,1.1151417953488207
7489034207.0,0.0048347496,0.0098677456,0.010988503397688856,1.115217100181052
7489035107.0,0.0048368208,0.0098505926,0.01097401521880152,1.1143598959466423
7489036007.0,0.0048455094,0.0098542795,0.010981155941412024,1.1137976482893797
7489036907.0,0.0048523231,0.0098632688,0.010992229568556465,1.1136022471021867
7489037808.0,0.0048511788,0.0098488936,0.01097882693613896,1.1131177781468646
7489038708.0,0.0048493652,0.0098336386,0.010964341793212257,1.1126513815012116
7489039608.0,0.0048578985,0.0098340598,0.010968496250000648,1.111970612769183
7489040508.0,0.0048589442,0.0098339216,0.010968835524961628,1.1118795589134562
7489041408.0,0.0048659811,0.009832634,0.010970800492375804,1.1112525135056903
7489042308.0,0.0048702077,0.0098319654,0.010972076679823946,1.1108802356168443
7489043209.0,0.0048643626,0.0098229084,0.010961366381025192,1.1109913145742658
7489044109.0,0.004874068,0.0098221672,0.010965012876115551,1.110168122313852
7489045009.0,0.0048918094,0.0098135101,0.0109651620913113,1.1083678332934463
7489045909.0,0.0048840824,0.0098103684,0.010958904554457452,1.1088709732381297
7489046809.0,0.004872769,0.0098048915,0.01094896228206734,1.1095730313918144
7489047710.0,0.0049005906,0.0098121654,0.010967879378702408,1.1075965968753885
7489048610.0,0.0048886737,0.0097954295,0.010947582821542933,1.1078873796359212
7489049510.0,0.0048993863,0.009790547,0.010948004232545615,1.1068127113273203
7489050410.0,0.0048950965,0.0097866365,0.010942587615707927,1.1070033668758386
7489051310.0,0.0049058941,0.0097833876,0.010944517798982674,1.1059882155659846
7489052210.0,0.0049100809,0.0097752657,0.010939136800961093,1.1053132752044577
7489053111.0,0.0049117111,0.0097703163,0.010935446334371034,1.1049769089419126
7489054011.0,0.0049018347,0.0097828603,0.010942227336124953,1.106298240714231
7489054911.0,0.0049187128,0.0097753091,0.010943052755489515,1.1046101781597253
7489055811.0,0.0049253996,0.009771733,0.01094286649114249,1.1039174308962865
7489056711.0,0.0049301025,0.0097637829,0.010937886778479592,1.1032063305120083
7489057612.0,0.0049398306,0.0097597809,0.01093870419989046,1.1022475600652897
7489058512.0,0.0049319456,0.0097617668,0.010936918142646109,1.1029728108105366
7489059412.0,0.004949833,0.0097558947,0.01093975905243699,1.1012713625557513
7489060312.0,0.0049495042,0.0097492906,0.010933721188555432,1.101024887399666
7489061212.0,0.0049519146,0.0097393356,0.010925937769140026,1.1004157186076995
7489062112.0,0.0049451555,0.0097306897,0.010915167655921109,1.1006087060764682
7489063013.0,0.0049557525,0.009735129,0.010923928756994768,1.0999280161301515
7489063913.0,0.0049615019,0.0097333272,0.010924932928213492,1.0993842027020106
7489064813.0,0.0049574471,0.0097143329,0.010906170062919468,1.098924496945128
7489065713.0,0.00495676,0.0097181517,0.010909259468992976,1.0991397145977646
7489066613.0,0.0049797937,0.0097268824,0.010927515111771268,1.0976250143827455
7489067514.0,0.0049700104,0.0097180042,0.010915155015267798,1.0980521716495337
7489068414.0,0.0049752833,0.0097164587,0.010916181272957341,1.0975576494308559
7489069314.0,0.0049770477,0.0097183449,0.010918664359867067,1.0974925488972407
7489070214.0,0.0049849229,0.0097095817,0.010914459817504453,1.0964843466630863
7489071114.0,0.004981916,0.0097058344,0.010909752904226537,1.0965726592617446
7489072014.0,0.0049869664,0.0096915057,0.010899317254207322,1.095560095955919
7489072915.0,0.0049931898,0.0096891885,0.010900106337433423,1.0949551492314582
7489073815.0,0.0050137145,0.009685247,0.010906023222903903,1.093116704351606
7489074715.0,0.0050054752,0.0096917865,0.01090804783356753,1.0940631032997654
7489075615.0,0.0050113168,0.0096845425,0.010904295461159721,1.0932822756693519
7489076515.0,0.0050213169,0.0096696023,0.010895633623171756,1.0918369623724853
7489077415.0,0.0050065868,0.0096690995,0.010888406519176004,1.093016279098847
7489078316.0,0.0050160507,0.0096762079,0.010899071701250198,1.0925450824103806
7489079216.0,0.0050164417,0.0096648773,0.01088919375130933,1.0920343207856997
7489080116.0,0.0050196382,0.0096579821,0.010884548033924957,1.0914818320179498
7489081016.0,0.0050235654,0.0096564429,0.01088499420344529,1.0910964865344166
7489081916.0,0.0050373666,0.0096602349,0.01089473269915208,1.0901333191335292
7489082817.0,0.0050367206,0.009647361,0.010883020199686545,1.0896390015756705
7489083717.0,0.0050362113,0.0096437415,0.010879576020097013,1.0895265293482466
7489084617.0,0.0050454343,0.0096459248,0.01088578304592148,1.0888683608644107
7489085517.0,0.0050504612,0.0096346412,0.010878118834864918,1.0879781177675747
7489086417.0,0.0050468412,0.0096442448,0.010884946663183263,1.0886822948330441
7489087317.0,0.0050514296,0.0096212178,0.010866681782347037,1.087325675766578
7489088218.0,0.0050635805,0.0096192027,0.010870552334801923,1.0862498353972159
7489089118.0,0.0050561794,0.0096197402,0.010867582603342862,1.0868755038566573
7489090018.0,0.0050648121,0.0096178569,0.010869935278426638,1.086091903531448
7489090918.0,0.0050646342,0.0096041433,0.01085772020761009,1.0855178971322597
7489091818.0,0.0050631123,0.0096000284,0.01085337051073158,1.0854650817341307
7489092719.0,0.0050632407,0.0095958349,0.010849721370348387,1.0852743076211948
7489093619.0,0.0050746503,0.0096047264,0.01086291143690986,1.0847273444803704
7489094519.0,0.005077713,0.0095963953,0.010856978035541524,1.0841194523551283
7489095419.0,0.0050746278,0.0095810413,0.010841964752794512,1.083708646066854
7489096319.0,0.0050837272,0.0095919059,0.01085582521222936,1.0834363576910506
7489097219.0,0.0050840303,0.0095884275,0.010852893900433853,1.0832615906995458
7489098120.0,0.0050893767,0.0095804561,0.010848359059255465,1.082481962147891
7489099020.0,0.0050959739,0.0095766051,0.010848055827235921,1.081778351974734
7489099920.0,0.0051006558,0.0095711558,0.010845446645387514,1.081161225227986
7489100820.0,0.0050971239,0.0095739229,0.010846228457260876,1.0815685830297046
7489101720.0,0.0051020565,0.0095721281,0.010846963487170125,1.0810894219421723
7489102621.0,0.0051096397,0.0095646143,0.010843904489231752,1.0801463852982793
7489103521.0,0.0051091903,0.0095538502,0.010834199516607312,1.0797148210482896
7489104421.0,0.005104705,0.0095627814,0.010839963156819813,1.080468238473737
7489105321.0,0.0051144611,0.009546461,0.01083017220398338,1.0789639084058655
7489106221.0,0.0051290828,0.009548504,0.010838884583169608,1.0778638148210875
7489107121.0,0.0051237823,0.0095351586,0.010824619835585324,1.0777117795192863
7489108022.0,0.0051283725,0.0095395014,0.010830618239941718,1.0775282481793462
7489108922.0,0.0051333931,0.009519555,0.010815435826500595,1.0762461124501053
7489109822.0,0.00513663,0.009525928,0.010822581578259596,1.076262355520884
7489110722.0,0.00513358,0.0095265225,0.010821657662271814,1.0765365040935413
7489111622.0,0.0051446275,0.0095150009,0.010816766348625502,1.075132113971212
7489112523.0,0.0051504578,0.0095102026,0.010815321032804694,1.0744469017785194
7489113423.0,0.0051575234,0.0095070166,0.010815887030392981,1.0737321933696473
7489114323.0,0.0051550691,0.0095057439,0.01081359813004728,1.073875569597407
7489115223.0,0.0051488227,0.0095138168,0.010817720892128688,1.0747389167963621
7489116123.0,0.0051622228,0.0095008949,0.010812749332971971,1.0730802016438887
7489117023.0,0.0051670373,0.0094900964,0.010805563573496954,1.0722115932786715
7489117924.0,0.0051802716,0.0094898782,0.010811706715435902,1.0711268893477386
7489118824.0,0.0051683594,0.0094984493,0.010813532170028388,1.0724735860616854
7489119724.0,0.0051807888,0.0094720516,0.010796311134052593,1.0702937043842187
7489120624.0,0.0051920833,0.0094766241,0.010805745385064361,1.0695797375227458
7489121524.0,0.0051760273,0.0094733636,0.010795178391677937,1.0707390000882
7489122424.0,0.0051820218,0.0094649087,0.010790636989307486,1.069875804948846
7489123325.0,0.005191093,0.0094637953,0.0107940200117913,1.0690891274437841
7489124225.0,0.0052051913,0.0094672156,0.010803804315447363,1.0680972577794674
7489125125.0,0.0052031699,0.009457546,0.010794357477422268,1.0678297645975428
7489126025.0,0.005193066,0.0094608046,0.010792347203446392,1.068795572245334
7489126925.0,0.00521652,0.0094514676,0.010795476863216823,1.0664748700572277
7489127826.0,0.0052135964,0.0094496721,0.010792492308063572,1.066631646585032
7489128726.0,0.0052124023,0.009440457,0.010783847463029801,1.066315797561628
7489129626.0,0.005208646,0.0094375082,0.010779450550857555,1.0664886311305548
7489130526.0,0.0052205274,0.0094293452,0.010778054427164199,1.0651575325770408
7489131426.0,0.0052218955,0.0094293113,0.010778687499191537,1.0650449657026606
7489132326.0,0.0052215205,0.0094315842,0.010780494276869215,1.0651775379392452
7489133227.0,0.00523099,0.009419611,0.010774614970912928,1.0638704064621975
7489134127.0,0.0052263611,0.0094202441,0.010772922038666113,1.0642745808958292
7489135027.0,0.0052457224,0.0094101476,0.010773508312135258,1.0622484573303248
7489135927.0,0.0052308205,0.0094086229,0.01076492768102158,1.0633886148721452
7489136827.0,0.0052477222,0.0094004604,0.01076602266486287,1.061648094545849
7489137728.0,0.0052515071,0.0093959182,0.010763902900084228,1.061135376722152
7489138628.0,0.0052426223,0.0093986689,0.010761973130996217,1.0619807279084155
7489139528.0,0.0052646726,0.0093807592,0.01075711024176918,1.0593795056382775
7489140428.0,0.0052570052,0.0093886841,0.010760273825624505,1.0603613509385876
7489141328.0,0.0052530486,0.009393633,0.010762660476510953,1.060906762511719
7489142228.0,0.0052750441,0.009371104,0.010753775171341495,1.0580990368106638
7489143129.0,0.0052684413,0.0093710498,0.010750490597439063,1.0586317804774559
7489144029.0,0.005260728,0.0093752387,0.01075036556457322,1.0594481628570813
7489144929.0,0.0052807136,0.0093704159,0.010755957896170744,1.0576083250329917
7489145829.0,0.005286251,0.0093668325,0.010755556736778308,1.056996233150826
7489146729.0,0.005286288,0.0093543717,0.010744724785712517,1.0564232464499959
7489147630.0,0.0052852971,0.0093578212,0.010747240717804633,1.0566614280929558
7489148530.0,0.0052813863,0.0093535608,0.010741607928477205,1.0567833855141882
7489149430.0,0.0052821066,0.0093442908,0.010733891218413208,1.0563003310058465
7489150330.0,0.0053012763,0.0093351257,0.01073536688910734,1.0543257239499064
7489151230.0,0.0052929342,0.0093381392,0.01073387144343113,1.0551401671553033
7489152130.0,0.0052922073,0.00933548,0.010731199603798883,1.0550769043114763
7489153031.0,0.0053055496,0.0093299579,0.010732985184646094,1.053741743282771
7489153931.0,0.0052947265,0.0093273323,0.010725355777055861,1.0544979328375503
7489154831.0,0.0052982677,0.009327236,0.010727020649768475,1.0542064116959171
7489155731.0,0.0053031361,0.0093169933,0.010720523151757479,1.053339647132989
7489156631.0,0.0053309344,0.009313344,0.010731134051880973,1.0509201284900151
7489157532.0,0.0053167427,0.0093264366,0.010735463315191518,1.052673267376512
7489158432.0,0.0053123844,0.0093029313,0.01071288750925179,1.0519400629925604
7489159332.0,0.0053271768,0.0093012804,0.01071879796142657,1.0506652754113706
7489160232.0,0.0053314917,0.0092960497,0.01071640535683673,1.050073295364947
7489161132.0,0.0053284608,0.0092885654,0.01070840518878576,1.049971103531009
7489162032.0,0.0053388821,0.0093010506,0.010724420932687264,1.0497075050693554
7489162933.0,0.0053390559,0.0092891953,0.010714227327477559,1.0491425931373635
7489163833.0,0.0053373406,0.0092801021,0.010705489230615888,1.0488582422251733
7489164733.0,0.005351397,0.0092774678,0.010710222156036066,1.0475979306020162
7489165633.0,0.0053412159,0.0092788301,0.010706319410286562,1.0484852390363004
7489166533.0,0.0053451085,0.0092798149,0.010709115250805468,1.0482160951795887
7489167433.0,0.0053545235,0.0092658569,0.010701730047208716,1.0468027621062472
7489168334.0,0.0053535372,0.0092564149,0.010693062113011681,1.0464408207117493
7489169234.0,0.0053554458,0.0092602869,0.01069736945174136,1.0464675902356935
7489170134.0,0.0053629412,0.009253578,0.010695318794535367,1.0455468920102373
7489171034.0,0.0053645395,0.0092515364,0.010694354108948572,1.0453218607002042
7489171934.0,0.0053746471,0.0092441502,0.010693041867013262,1.0441576421187762
7489172835.0,0.0053743253,0.0092479225,0.010696141500383506,1.044360918127551
7489173735.0,0.0053743005,0.009240388,0.010689615346439939,1.044008772439438
7489174635.0,0.0053871669,0.0092327822,0.010689519837723883,1.042610585410162
7489175535.0,0.0053989417,0.009224888,0.010688644913764462,1.0412868829950621
7489176435.0,0.0053967119,0.0092250532,0.01068766138471985,1.0414747523580317
7489177335.0,0.0053836357,0.0092155732,0.010672877904055342,1.0420837553401727
7489178236.0,0.0053970718,0.0092097219,0.010674612943319998,1.0407204247039772
7489179136.0,0.0054041003,0.0092074524,0.010676210926668967,1.0400449578247402
7489180036.0,0.0053998471,0.009208696,0.010675131414825506,1.0404475347763513
7489180936.0,0.0054053498,0.0091959118,0.01066689271970705,1.0393962927233473
7489181836.0,0.0054100263,0.0092005883,0.010673294225907416,1.0392405928941664
7489182737.0,0.0054136813,0.0091886962,0.010664899581049235,1.038379966778258
7489183637.0,0.0054128709,0.0091908212,0.010666319220351331,1.038546557741616
7489184537.0,0.0054256311,0.0091870207,0.01066952773910428,1.0373352852639548
7489185437.0,0.005437883,0.0091771878,0.010667302725532722,1.035877585613654
7489186337.0,0.0054250282,0.0091789682,0.010662288130950433,1.0369999256398057
7489187237.0,0.0054371702,0.0091748138,0.010664897001304723,1.0358216106086258
7489188138.0,0.0054287372,0.0091690022,0.010655598947514338,1.0362243930722492
7489189038.0,0.0054489542,0.0091499666,0.010649553542511217,1.0336801915726541
7489189938.0,0.0054431643,0.009167111,0.010661330202330078,1.0349695921082451
7489190838.0,0.0054492213,0.0091534754,0.010652705040259907,1.0338271800362209
7489191738.0,0.0054551796,0.009145469,0.010648877297547247,1.0329618029767553
7489192639.0,0.0054502132,0.0091493865,0.010649699397252323,1.0335507483300905
7489193539.0,0.005451188,0.0091469755,0.010648127131516803,1.0333562208877145
7489194439.0,0.0054546174,0.009146185,0.010649204244196266,1.03304158539457
7489195339.0,0.0054741167,0.0091338402,0.01064861448472781,1.0308750762360985
7489196239.0,0.0054714035,0.0091302047,0.010644101376993472,1.0309181375700185
7489197139.0,0.0054700988,0.0091392617,0.01065120112019524,1.0314603034552579
7489198040.0,0.0054729351,0.0091226346,0.010638396526447451,1.0304288690366674
7489198940.0,0.0054830083,0.0091244161,0.010645109167303456,1.0297035149501903
7489199840.0,0.0054754261,0.009113147,0.010631544535963258,1.02976885312016
7489200740.0,0.0054835917,0.0091157963,0.01063802237802697,1.0292391536811156
7489201640.0,0.0054749917,0.0091021933,0.010621932827203992,1.0292728056528733
7489202541.0,0.0054905881,0.0090944332,0.010623336242119226,1.0276382131512867
7489203441.0,0.0054946174,0.0090880393,0.010619947207530142,1.027002236019503
7489204341.0,0.005488941,0.0090963348,0.010624113143936863,1.027863443961673
7489205241.0,0.0054931219,0.009102169,0.010631268443267746,1.0278102575636243
7489206141.0,0.0055061938,0.009091324,0.01062875073732254,1.02623007877477
7489207041.0,0.0055072143,0.0090807763,0.010620259298000504,1.025633380267771
7489207942.0,0.0055018336,0.0090756877,0.010613118306606228,1.0258182455891036
7489208842.0,0.0055061541,0.0090726386,0.010612751958806762,1.025321175814938
7489209742.0,0.0055169095,0.0090680586,0.010614423074488044,1.0242310738471936
7489210642.0,0.0055254296,0.0090615985,0.010613337818036249,1.0232288891648516
7489211542.0,0.0055194738,0.0090506914,0.010600924763760962,1.0231729183362785
7489212442.0,0.0055250994,0.0090462859,0.010600094903557192,1.0225034240258877
7489213343.0,0.0055215274,0.0090496358,0.010601093006930578,1.0229556861350306
7489214243.0,0.0055328792,0.0090533588,0.010610186511241453,1.0222251266784812
7489215143.0,0.0055399552,0.0090459335,0.010607545262897975,1.0212909044920735
7489216043.0,0.0055265115,0.0090368908,0.010592814767131394,1.0219273611823452
7489216943.0,0.0055390797,0.0090317786,0.010595019046814879,1.0206636281050032
7489217844.0,0.0055444464,0.0090351794,0.010600724157936442,1.0203997846516704
7489218744.0,0.0055450751,0.0090330168,0.010599209893842193,1.020242513850882
7489219644.0,0.0055501114,0.0090247127,0.010594771157035495,1.019427349596708
7489220544.0,0.0055489307,0.0090255311,0.010594849859741746,1.0195627410282164
7489221444.0,0.0055581817,0.0090035729,0.010581006983072514,1.0177310534632866
7489222344.0,0.0055532874,0.0090072406,0.01058155868354408,1.0183067045170644
7489223245.0,0.005565839,0.0090020632,0.010583747239551558,1.0170404870884884
7489224145.0,0.0055679314,0.0090116534,0.01059300510133161,1.0173485814268943
7489225045.0,0.005563771,0.0089935414,0.01057541179595173,1.0167830462971827
7489225945.0,0.0055648052,0.008999419,0.01058095455294597,1.016992169875867
7489226845.0,0.0055638423,0.008986504,0.010569465231566131,1.0164270167100566
7489227746.0,0.0055798338,0.0089823344,0.010574349933165906,1.0149336475591997
7489228646.0,0.0055872601,0.0089856194,0.010581060033224855,1.0145012881435265
