frequency,Re(S21),Im(S21),Amplitude,phase
8630000000.0,-0.0068232611,0.0054670917,0.008743339390357789,2.466094109505895
8630004001.0,-0.0067995929,0.0054920644,0.008740551182818952,2.46217123665609
8630008002.0,-0.006814648,0.005512946,0.008765386526720884,2.461397193182961
8630012002.0,-0.0067870516,0.0055285688,0.008753807308674096,2.458026932078329
8630016003.0,-0.0067793367,0.0055386103,0.00875417672583967,2.4565810083294526
8630020004.0,-0.0067823048,0.0055335848,0.008753297615121634,2.4572401507577006
8630024005.0,-0.0067537307,0.0055862117,0.008764624323115018,2.4505266860461616
8630028006.0,-0.0067776428,0.0055655396,0.008769930043253481,2.454080864398725
8630032006.0,-0.0067369256,0.0055770485,0.008745835380984918,2.4501093421621727
8630036007.0,-0.0067454376,0.0055927846,0.008762429343366537,2.4493454446788228
8630040008.0,-0.0067218788,0.005625964,0.008765564758256334,2.444716085833605
8630044009.0,-0.0067029639,0.0056075316,0.008739229696586638,2.4449443473824926
8630048010.0,-0.0066932569,0.0056504031,0.008759380293256323,2.4404793113754435
8630052010.0,-0.0066937728,0.0056365383,0.008750837577362908,2.4417280177785257
8630056011.0,-0.0066762684,0.0056561456,0.00875011673049211,2.43872542113726
8630060012.0,-0.0066742873,0.0056792516,0.008763561473456088,2.4365675878121418
8630064013.0,-0.0066555913,0.005697582,0.008761240562806142,2.433591253315367
8630068014.0,-0.0066587162,0.0056929375,0.008760595802287005,2.4342259625100784
8630072014.0,-0.0066263257,0.005656916,0.008712570855581978,2.4349525681925677
8630076015.0,-0.0066234179,0.0056962461,0.00873595354324905,2.4313123851896696
8630080016.0,-0.0066349074,0.0057067245,0.008751497056245578,2.4312606433411466
8630084017.0,-0.00662063,0.0057418636,0.008763660148471355,2.4271583922616986
8630088018.0,-0.0066311663,0.0057035999,0.008746623252292035,2.431252569830052
8630092018.0,-0.0065922528,0.0057339193,0.008737026239975495,2.4257173032247357
8630096019.0,-0.0065811055,0.0057647951,0.00874893205752075,2.4222183423189985
8630100020.0,-0.0065670809,0.0057719107,0.00874308324768324,2.420549194584532
8630104021.0,-0.0065761838,0.0057839647,0.008757878796959257,2.420201562775074
8630108022.0,-0.0065814894,0.0057639496,0.008748663767321986,2.4223199529892834
8630112022.0,-0.0065636083,0.0057802924,0.008746012471139443,2.4195672450101973
8630116023.0,-0.0065369568,0.0058037323,0.008741573817976345,2.4155399218450793
8630120024.0,-0.0065664261,0.0058034848,0.008763468922212954,2.417793646367176
8630124025.0,-0.0065403278,0.0058371193,0.008766290518451082,2.4129471752775364
8630128026.0,-0.0065238948,0.0058314388,0.008750250387252497,2.412181027813048
8630132026.0,-0.0065195299,0.0058415049,0.008753710619715391,2.4109913773551495
8630136027.0,-0.0064846552,0.0058183976,0.00871231907671963,2.4102954890913617
8630140028.0,-0.0064993683,0.0058704012,0.00875804764476686,2.406997853128695
8630144029.0,-0.0064937876,0.0058572693,0.008745106119804164,2.4076844711237997
8630148030.0,-0.0064819095,0.0058697455,0.008744659112907748,2.4057152640057113
8630152030.0,-0.0064834278,0.0058880581,0.008758085648518656,2.404281739077172
8630156031.0,-0.006456707,0.0058991504,0.008745801319814506,2.401288780389847
8630160032.0,-0.0064428141,0.0059049925,0.008739495978156582,2.3997230210793177
8630164033.0,-0.0064398872,0.0059341329,0.008757058891179519,2.3970440241223905
8630168034.0,-0.0064459554,0.0059306343,0.008759153167922437,2.3978072148251766
8630172034.0,-0.0064124155,0.0059465305,0.008745301454613814,2.3938728256671684
8630176035.0,-0.0064261621,0.0059486053,0.008756795324241883,2.394766523464763
8630180036.0,-0.0063937572,0.0059639054,0.008743471779144769,2.3909647031602925
8630184037.0,-0.0063921021,0.0059636874,0.008742112825955928,2.390853800253903
8630188038.0,-0.0063867314,0.0059685311,0.008741493091423979,2.390029522129223
8630192038.0,-0.0063692964,0.0059805414,0.008736979573523502,2.3876626500914386
8630196039.0,-0.0063846531,0.0060006381,0.008761932025216312,2.3871902904885403
8630200040.0,-0.0063373562,0.0059672924,0.008704634523791117,2.3862605486967623
8630204041.0,-0.0063378637,0.0060298101,0.008747978401998927,2.3810973072057955
8630208042.0,-0.0063568556,0.0060246236,0.00875817918524897,2.383021034290959
8630212042.0,-0.0063273004,0.0060415569,0.008748436439031707,2.379292232853588
8630216043.0,-0.0063398055,0.0060498953,0.00876323952193436,2.3795895108515537
8630220044.0,-0.0063136063,0.0060737252,0.008760808314106338,2.3755571044279664
8630224045.0,-0.0063168255,0.0060672965,0.008758674055835306,2.37634087115933
8630228046.0,-0.0062753565,0.0060679784,0.008729287546241034,2.3729937258086977
8630232046.0,-0.0062916109,0.0060612496,0.008736310115288888,2.3748407464033496
8630236047.0,-0.0062718751,0.0061067147,0.008753763858889277,2.369536123050434
8630240048.0,-0.0062696332,0.0060675605,0.008724883430952101,2.3725721719710227
8630244049.0,-0.0062792302,0.0060938673,0.008750082889584608,2.371174492945725
8630248050.0,-0.0062599108,0.0061005982,0.008740925673050874,2.3690826147101434
8630252050.0,-0.0062404638,0.0061398713,0.008754507868502612,2.364319495340916
8630256051.0,-0.0062554243,0.0061360691,0.008762515459216337,2.3658262194162227
8630260052.0,-0.006226752,0.0061381262,0.008743513808339896,2.363361910763381
8630264053.0,-0.0062409305,0.006133014,0.008750032813082832,2.3649155382027525
8630268054.0,-0.0061918411,0.0061658687,0.008738239698777375,2.3582962033882837
8630272054.0,-0.0062012072,0.0061686614,0.008746848244092371,2.358825538747011
8630276055.0,-0.0061947778,0.006180052,0.00875033226306732,2.3573844696334496
8630280056.0,-0.0061689688,0.0062014387,0.008747229161582033,2.3535696918231626
8630284057.0,-0.0061651279,0.0061961723,0.008740786760620905,2.3536830768110684
8630288058.0,-0.0061427026,0.0061852881,0.00871725783214242,2.3527401291654115
8630292058.0,-0.0061444898,0.0062051893,0.008732647316314712,2.3512794627875757
8630296059.0,-0.0061374902,0.0062354709,0.008749279016001425,2.3482757186730465
8630300060.0,-0.0061457366,0.0062363593,0.008755698468727442,2.3488757710757606
8630304061.0,-0.0061569804,0.0062275152,0.008757302850319566,2.3504991401651463
8630308062.0,-0.0061255154,0.0062494839,0.008750884979931822,2.3461771681420234
8630312062.0,-0.0061211319,0.0062595777,0.008755031051888674,2.3450125762128375
8630316063.0,-0.006085039,0.0062784848,0.008743401570061394,2.3405492729026336
8630320064.0,-0.0060826002,0.0062883176,0.008748769252386863,2.3395669089325444
8630324065.0,-0.0060757972,0.006276318,0.008735415230694637,2.339962194356837
8630328066.0,-0.0060552604,0.0063090565,0.008744733982917972,2.3356708764338667
8630332066.0,-0.0060395827,0.0062913519,0.008721104741933381,2.3357796367450554
8630336067.0,-0.0060321675,0.0063332751,0.008746280251646197,2.331848567756744
8630340068.0,-0.0060397243,0.0063133269,0.008737068511020964,2.334049526227103
8630344069.0,-0.0060426254,0.0063357524,0.008755288698771213,2.332518348539364
8630348070.0,-0.0060281848,0.006336624,0.008745959964482289,2.3312547395243692
8630352070.0,-0.0059936753,0.0063714219,0.008747523113980877,2.325654564238
8630356071.0,-0.0060041518,0.0063537266,0.00874183507880301,2.327914425322224
8630360072.0,-0.005987631,0.0063515253,0.0087288944677262,2.326712015802698
8630364073.0,-0.0059615006,0.0063667909,0.00872212793807355,2.3233315108972374
8630368074.0,-0.0059560311,0.0063897627,0.008735180240068233,2.3210770004421204
8630372074.0,-0.0059606343,0.006409069,0.00875244689815925,2.3199576952359418
8630376075.0,-0.0059127773,0.0064130297,0.008722837000224032,2.3156309799568446
8630380076.0,-0.0059311197,0.0064163304,0.008737704315075685,2.316918269467566
8630384077.0,-0.0059118389,0.006421359,0.00872832690648295,2.314905075617908
8630388078.0,-0.0059223834,0.0064171994,0.008732415088390835,2.316116065990762
8630392078.0,-0.0059216266,0.0064386379,0.008747669380877628,2.3143903612321064
8630396079.0,-0.0058843464,0.0064428242,0.008725566814098588,2.310920826474323
8630400080.0,-0.0058737927,0.0064670685,0.008736384587818096,2.3081573735410212
8630404081.0,-0.0058797283,0.0064761619,0.008747106826650312,2.3079607340412602
8630408082.0,-0.0058604306,0.006462532,0.008724045315588427,2.3073731985745063
8630412082.0,-0.0058344138,0.0064755003,0.008716219852948326,2.3041626198475043
8630416083.0,-0.0058277743,0.0064821692,0.008716735101468275,2.3030846193427856
8630420084.0,-0.0058446095,0.0065122919,0.0087503946195755,2.302213825479716
8630424085.0,-0.0058431808,0.0065128376,0.008749846596681704,2.3020506493752184
8630428086.0,-0.0058321698,0.0065181119,0.008746427117226419,2.3007108909285305
8630432086.0,-0.0057886646,0.0065340662,0.008729413437183257,2.2957781383021896
8630436087.0,-0.0058249503,0.0065606246,0.008773359740692004,2.296866525251631
8630440088.0,-0.0057643242,0.0065562364,0.008729929508042468,2.292007123832494
8630444089.0,-0.0057738448,0.0065724178,0.008748368962969261,2.291603110950143
8630448090.0,-0.005750056,0.0065615635,0.008724520592426168,2.2903757475257187
8630452090.0,-0.005764603,0.0065690968,0.008739775770314663,2.291059471192753
8630456091.0,-0.0057379682,0.0065917807,0.00873932788383087,2.287056695464133
8630460092.0,-0.005733721,0.0065981623,0.008741355858388462,2.2862108908717738
8630464093.0,-0.005747008,0.0065972875,0.008749417312582606,2.287422756966855
8630468094.0,-0.0057183612,0.0066218671,0.00874921589079432,2.2831085959749915
8630472094.0,-0.0057086851,0.0066121211,0.00873551549778416,2.2829994396374524
8630476095.0,-0.0057106273,0.0066129763,0.00873743210010052,2.2831037290916196
8630480096.0,-0.0056738954,0.0066452504,0.008737988434922612,2.2775080734526423
8630484097.0,-0.0056765134,0.0066462929,0.008740481319296436,2.2776584151377266
8630488098.0,-0.0056821973,0.0066408072,0.00874000494414615,2.2785605601069943
8630492098.0,-0.0056549724,0.0066545384,0.008732788452827442,2.2751695282876265
8630496099.0,-0.0056464832,0.0066325594,0.008710546292995095,2.2760608296510196
8630500100.0,-0.0056428566,0.0066622252,0.008730811830733647,2.2735419482627193
8630504101.0,-0.0056382858,0.0066740752,0.008736907149428605,2.2722661328048126
8630508102.0,-0.0056257332,0.0067001653,0.008748776433588089,2.269245605565508
8630512102.0,-0.0056045978,0.0067054023,0.008739218300546686,2.2670081160481943
8630516103.0,-0.0055930486,0.0067175253,0.008741129148920182,2.2651049160346024
8630520104.0,-0.0055780746,0.0067045961,0.008721612529073988,2.2647340373746063
8630524105.0,-0.005562945,0.0067475551,0.008745047564225195,2.260262247645398
8630528106.0,-0.0055689465,0.0067375216,0.008741130500703487,2.261522180503415
8630532106.0,-0.0055558533,0.0067443839,0.008738090185028998,2.2598669009143015
8630536107.0,-0.0055572384,0.0067247425,0.008723821429037897,2.2614209760577553
8630540108.0,-0.0055336263,0.00678868,0.008758264449675614,2.2546923391690594
8630544109.0,-0.0055245246,0.0067411515,0.008715703964795811,2.257328327084465
8630548110.0,-0.0055017198,0.0067695121,0.008723257122758588,2.253245556396094
8630552110.0,-0.0055130455,0.00678774,0.008744546014097602,2.2529359726298495
8630556111.0,-0.0054841816,0.0067796118,0.008720056420716427,2.250954283507766
8630560112.0,-0.0054863487,0.0067699024,0.008713874027292193,2.2518484046573093
8630564113.0,-0.0054905917,0.0068055988,0.008744299414056585,2.2496551563384077
8630568114.0,-0.0054509241,0.0068274853,0.008736539879476136,2.244548359981614
8630572114.0,-0.0054386511,0.0068069449,0.008712831035844045,2.2449184392839157
8630576115.0,-0.0054375974,0.0068413549,0.008739084754837933,2.242366414880308
8630580116.0,-0.0054349183,0.0068280082,0.008726971577067392,2.243077681942638
8630584117.0,-0.0054259644,0.0068456766,0.00873523770608762,2.241016036288115
8630588118.0,-0.0054193557,0.0068580891,0.008740869653910948,2.239541438038234
8630592118.0,-0.0053822129,0.0068452515,0.008707794427935163,2.2371087970908885
8630596119.0,-0.0053941058,0.006883655,0.008745346393403674,2.2354636024585997
8630600120.0,-0.0053623269,0.0068810951,0.008723761777909093,2.2327772657120457
8630604121.0,-0.0053657762,0.0069018789,0.008742281543095694,2.231627145487176
8630608122.0,-0.0053393343,0.0068884492,0.008715458860446598,2.2301776937951048
8630612122.0,-0.0053320201,0.006900858,0.008720795805599854,2.228643095528303
8630616123.0,-0.0053335195,0.0069180492,0.008735321115477146,2.227575652474305
8630620124.0,-0.0053323969,0.006914111,0.008731516913999,2.227749217605469
8630624125.0,-0.0053258747,0.0069277516,0.008738345584342763,2.2262048679310595
8630628126.0,-0.0052928366,0.006955593,0.008740388621563034,2.221266687842249
8630632126.0,-0.0053083429,0.0069316869,0.00873079536031008,2.2243381763643506
8630636127.0,-0.005293817,0.0069324341,0.008722565045921515,2.222963932872804
8630640128.0,-0.0052849538,0.0069443492,0.008726667318035853,2.2213280720518074
8630644129.0,-0.0052724153,0.0069693294,0.008738988235567001,2.218455205767879
8630648130.0,-0.0052830813,0.0069699005,0.008745882517065384,2.2193883949333073
8630652130.0,-0.0052394544,0.0069892266,0.008735054142695792,2.2140716281707866
8630656131.0,-0.00522146,0.0070044963,0.008736510341567374,2.2113752372119326
8630660132.0,-0.0052044125,0.0070077899,0.008728976386306602,2.209583928467791
8630664133.0,-0.0052213642,0.0069859514,0.008721591659336248,2.212637247033497
8630668134.0,-0.0052192754,0.0070027425,0.008733798613567375,2.211294707843962
8630672134.0,-0.0051939031,0.0070321739,0.008742316579261519,2.2069558532997506
8630676135.0,-0.0052011071,0.0070273021,0.008742682075332193,2.207949732193815
8630680136.0,-0.0051771908,0.0070160651,0.008719430833892924,2.2065117088418575
8630684137.0,-0.0051397445,0.0070449611,0.008720576266841168,2.2010890872366646
8630688138.0,-0.0051434974,0.0070479478,0.008725201069048873,2.201234813839906
8630692138.0,-0.0051335685,0.0070652114,0.008733311953141388,2.1991511659650236
8630696139.0,-0.0051375244,0.0070634855,0.008734242060379687,2.1996337281951943
8630700140.0,-0.0051056016,0.0070678279,0.00871902281921208,2.1963798521484303
8630704141.0,-0.005101336,0.0070822477,0.0087282221253272,2.1950162756060867
8630708142.0,-0.0051261678,0.0071001575,0.00875727313942891,2.196121797920711
8630712142.0,-0.0050668882,0.0070844724,0.008709942894052808,2.1916578239437228
8630716143.0,-0.0050768107,0.0071110273,0.008737317445588193,2.190813490923832
8630720144.0,-0.0050720848,0.0071162504,0.008738825091160208,2.1900260693406572
8630724145.0,-0.0050604507,0.0071309732,0.008744080287042698,2.187965338907161
8630728146.0,-0.005017623,0.0071558245,0.008739700500871254,2.1823233522566245
8630732146.0,-0.0050276655,0.0071353679,0.008728739625412174,2.1846108587760282
8630736147.0,-0.0049788686,0.0071380869,0.008702954505684698,2.1798474611527525
8630740148.0,-0.0049889196,0.0071422776,0.008712143713847122,2.1805185115034216
8630744149.0,-0.0050049805,0.0071700494,0.008744108771271124,2.1802055698832103
8630748150.0,-0.0049832981,0.0071509957,0.008716077067975139,2.179416997818255
8630752150.0,-0.0049607758,0.0071570763,0.008708216677476928,2.176895854670292
8630756151.0,-0.0049520269,0.0071870378,0.008727891083013837,2.1741164209328714
8630760152.0,-0.004931153,0.0071832705,0.008712958451959888,2.1723889634665765
8630764153.0,-0.0049559831,0.0071935574,0.008735504367498214,2.1740658995821183
8630768154.0,-0.0049267384,0.0071899123,0.008715938856125933,2.171540113896032
8630772154.0,-0.0049347646,0.0072058556,0.008733627916591394,2.171266331568901
8630776155.0,-0.004905572,0.0072136867,0.008723641008944653,2.1679981087902673
8630780156.0,-0.0048951025,0.0072113813,0.008715850431225625,2.1671535598139267
8630784157.0,-0.0048825033,0.0072436577,0.008735526048800964,2.163885075309955
8630788158.0,-0.0048766491,0.00726227,0.008747700954961298,2.1621409260928335
8630792158.0,-0.0048722675,0.0072604786,0.008743771502767797,2.1618391223579905
8630796159.0,-0.0048456918,0.0072711222,0.008737845676591003,2.158634859847672
8630800160.0,-0.0048408685,0.0072475266,0.008715540697627417,2.1596757129027693
8630804161.0,-0.0048287314,0.0072618224,0.00872070590620322,2.1576078650603674
8630808162.0,-0.0048060338,0.007276661,0.0087205364626073,2.154498327685342
8630812162.0,-0.0048102543,0.0072913851,0.008735149861746535,2.1539725216472134
8630816163.0,-0.0048026852,0.0073101972,0.008746700419768981,2.152065804801579
8630820164.0,-0.0048232224,0.007299972,0.008749460870284852,2.1546692603549387
8630824165.0,-0.0047684069,0.0072969417,0.008716826402835295,2.1496141938200397
8630828166.0,-0.0047802837,0.0073268602,0.008748370856498353,2.1488798545033636
8630832166.0,-0.0047456779,0.0073262566,0.008729003064473741,2.145597350908822
8630836167.0,-0.0047432929,0.0073431582,0.008741899100619822,2.1443172411393663
8630840168.0,-0.0047286023,0.0073225401,0.008716609044099276,2.144184987202358
8630844169.0,-0.0047371369,0.0073324816,0.008729590621769166,2.144388496951895
8630848170.0,-0.0047350725,0.0073389451,0.008733901004767014,2.1437883705942617
8630852170.0,-0.004694275,0.0073275695,0.00870226939096666,2.14055769463217
8630856171.0,-0.0046788389,0.0073775882,0.008736151389538328,2.135981373023723
8630860172.0,-0.0046991215,0.0073555942,0.008728488351761484,2.139293271631524
8630864173.0,-0.0046613793,0.0073808157,0.008729541647522793,2.134094330334208
8630868174.0,-0.0046628046,0.0073861732,0.008734832641681201,2.133904779418223
8630872174.0,-0.0046493363,0.0073868218,0.008728199375326673,2.132560283328925
8630876175.0,-0.0046381007,0.0074023386,0.008735364609012634,2.130525522618782
8630880176.0,-0.0046282783,0.007402649,0.008730416498624329,2.1295532549687137
8630884177.0,-0.0046098213,0.0073931536,0.008712587019429226,2.128334771374438
8630888178.0,-0.0045914325,0.0074191023,0.008724925864436989,2.124972738352693
8630892178.0,-0.0045803615,0.0074347494,0.008732422923306143,2.1229517367774977
8630896179.0,-0.0045879824,0.0074369143,0.008738265091438588,2.123564314049671
8630900180.0,-0.0045617188,0.0074549295,0.008739865688913285,2.1199245395472555
8630904181.0,-0.0045705941,0.0074505038,0.008740728648160247,2.121054928267077
8630908182.0,-0.0045451531,0.0074375219,0.008716372451623393,2.119345810280023
8630912182.0,-0.00454237,0.0074546147,0.008729513476841427,2.1180527469686914
8630916183.0,-0.004526978,0.0074819291,0.008744872375850364,2.114924391175076
8630920184.0,-0.0045043906,0.0074656094,0.008719223497005723,2.113676911798082
8630924185.0,-0.0045153162,0.007459535,0.008719675613358988,2.115109628990498
8630928186.0,-0.004487816,0.007482963,0.00872555028116995,2.1110230335363767
8630932186.0,-0.0044623691,0.0074711652,0.008702358727972885,2.109212593168322
8630936187.0,-0.0044919425,0.0074694489,0.00871608939221125,2.1122265054933895
8630940188.0,-0.0044386032,0.0074956781,0.008711279386282468,2.1054274690302965
8630944189.0,-0.0044400815,0.0075202016,0.008733141235047375,2.1041423307376492
8630948190.0,-0.0044356288,0.0074975403,0.008711366907754118,2.1050247564201228
8630952190.0,-0.0044087159,0.0075145008,0.008712318759096997,2.1013748815885087
8630956191.0,-0.0043940347,0.0075275347,0.008716152798368565,2.099165381662307
8630960192.0,-0.0043945515,0.0075433723,0.008730094417734527,2.098301952923398
8630964193.0,-0.0043592381,0.0075661394,0.008732091515365832,2.093495115797537
8630968194.0,-0.004352222,0.0075565908,0.008720315410346614,2.0933446143839616
8630972194.0,-0.0043534391,0.0075817717,0.008742750946259975,2.092027768011752
8630976195.0,-0.0043383861,0.0075523643,0.00870975318092239,2.0922102424184756
8630980196.0,-0.0043376368,0.0075731344,0.00872739695723631,2.0909503641265714
8630984197.0,-0.0043195467,0.0075589068,0.008706064306250393,2.0899595330896585
8630988198.0,-0.0042969096,0.0075656515,0.00870071920763016,2.0873159872521514
8630992198.0,-0.0043175991,0.0076222869,0.00876018947136604,2.086176814799247
8630996199.0,-0.004267559,0.0076158823,0.008730047137669663,2.081550987683593
8631000200.0,-0.0042663588,0.0076074829,0.008722133539686826,2.0819016933241716
8631004201.0,-0.0042681966,0.0076249877,0.008738303018401391,2.0811052697712955
