frequency,Re(S21),Im(S21),Amplitude,phase
8642200000.0,-0.0062612793,-0.0036260531,0.007235459871813823,-2.616665081609368
8642200330.0,-0.0062383992,-0.0036267362,0.007216012752410508,-2.614994144588751
8642200660.0,-0.0062743197,-0.0035912017,0.007229371850160357,-2.6217408164021108
8642200990.0,-0.0062734285,-0.0035833051,0.007224678579999131,-2.6226281497257378
8642201320.0,-0.0062964352,-0.0035956395,0.007250773727110734,-2.622724763190232
8642201650.0,-0.0062771998,-0.0035903572,0.007231452285171484,-2.6220400135146416
8642201980.0,-0.0062911479,-0.003552076,0.007224665100158651,-2.6275980552885208
8642202310.0,-0.0062812572,-0.0036021995,0.00724085859897513,-2.6208985546660077
8642202640.0,-0.0062782391,-0.0035875347,0.0072309537006174296,-2.6224502015733067
8642202970.0,-0.0062675682,-0.0035726162,0.007214291209408841,-2.623511802577693
8642203300.0,-0.0063036872,-0.0035794281,0.0072490535822625456,-2.625162866182361
8642203630.0,-0.0062916401,-0.0035573316,0.007227678967710628,-2.626998344636065
8642203960.0,-0.0062616652,-0.0035546061,0.007200255245687353,-2.6252788809708987
8642204290.0,-0.0062599416,-0.0035744376,0.007208569413670394,-2.6227683572179257
8642204620.0,-0.0062872132,-0.0035804419,0.007235234206404783,-2.623916728192657
8642204950.0,-0.0062681262,-0.0035588009,0.007207944915505892,-2.6252152936103554
8642205281.0,-0.0062778118,-0.0035571415,0.0072155510286631246,-2.6260780327945867
8642205611.0,-0.006304464,-0.0035626966,0.007241482817140945,-2.627225024359477
8642205941.0,-0.0062692469,-0.0035476105,0.007203401762561203,-2.626643043082912
8642206271.0,-0.0062722783,-0.003548959,0.007206704174331834,-2.6266873509928295
8642206601.0,-0.0062860071,-0.0035635378,0.00722583468626838,-2.6258669996517376
8642206931.0,-0.0062661822,-0.0035559575,0.0072048506650313785,-2.625425269081374
8642207261.0,-0.0062722767,-0.0035502779,0.007207352368837762,-2.6265279750594637
8642207591.0,-0.0062925395,-0.0035482313,0.007223987729596442,-2.628156211044631
8642207921.0,-0.0062817034,-0.003552444,0.007216623585771088,-2.626910208780037
8642208251.0,-0.0062668512,-0.0035485647,0.007201786958319964,-2.6263639015711675
8642208581.0,-0.0062715571,-0.0035575885,0.007210330394225542,-2.6255964506688714
8642208911.0,-0.0062763992,-0.0035482968,0.007209965124648723,-2.62704875163271
8642209241.0,-0.0063081958,-0.0035479209,0.007237477251349012,-2.629256088596978
8642209571.0,-0.0062833677,-0.0035495074,0.007216627497388101,-2.627377937876566
8642209901.0,-0.006273369,-0.0035504072,0.007208366659373872,-2.6265870082066196
8642210231.0,-0.0062978042,-0.0035460009,0.007227479513934194,-2.6287828053568023
8642210561.0,-0.0062934154,-0.0035427432,0.007222056963089076,-2.628877708176788
8642210891.0,-0.0062808299,-0.00354891,0.0072141240924199525,-2.6272770141371415
8642211221.0,-0.0062745771,-0.0035327574,0.007200742505540604,-2.628802820498823
8642211551.0,-0.0062803687,-0.0035147524,0.007196979605448765,-2.631377597891998
8642211881.0,-0.0062932756,-0.0035338545,0.007217578915725523,-2.629941385904856
8642212211.0,-0.0062799095,-0.0035343668,0.007206178738078351,-2.62897124984126
8642212541.0,-0.0062654566,-0.0035270715,0.007190005547466275,-2.628869574961538
8642212871.0,-0.0062842465,-0.0035037346,0.0071949920236230565,-2.6329770929129315
8642213201.0,-0.00627931,-0.0035412207,0.007209020607697587,-2.6281019298649673
8642213531.0,-0.0062763891,-0.0035185396,0.007195358299026322,-2.6306481890672377
8642213861.0,-0.0062669272,-0.0035194405,0.007187547423366338,-2.6298951197036766
8642214191.0,-0.0062702352,-0.0035095726,0.007185607093209995,-2.6313179303007312
8642214521.0,-0.0063136211,-0.0035086747,0.007223060953971335,-2.6343601255193563
8642214851.0,-0.0062787711,-0.0034968888,0.007186876776859379,-2.633438059222524
8642215182.0,-0.0062691728,-0.0035102868,0.007185028950151425,-2.6311589730377083
8642215512.0,-0.0062764227,-0.0034834628,0.007178300285447742,-2.634912906367499
8642215842.0,-0.0062769608,-0.0035038022,0.007188662374980583,-2.632475337558217
8642216172.0,-0.0062980078,-0.0035088367,0.007209496323331313,-2.6332884941606274
8642216502.0,-0.006281536,-0.0035302556,0.007205581109156108,-2.6295791803677284
8642216832.0,-0.0062678027,-0.0035062615,0.007181867472496937,-2.631554808223723
8642217162.0,-0.0062919075,-0.0034892885,0.007194667068377,-2.635249357285261
8642217492.0,-0.0062631029,-0.0034819797,0.00716593612636901,-2.634191852410562
8642217822.0,-0.0062950755,-0.0034749664,0.0071905053391141584,-2.637204915398914
8642218152.0,-0.0062808951,-0.0034973253,0.00718894481208641,-2.633528770768659
8642218482.0,-0.0062740026,-0.0034912693,0.007179977015975,-2.6337986805351172
8642218812.0,-0.0062707797,-0.0034479421,0.007156184931294362,-2.6388702602365273
8642219142.0,-0.0062810198,-0.0034732814,0.007177387645346878,-2.6364640397033283
8642219472.0,-0.0062851321,-0.0034716207,0.007180183549124555,-2.6369435989248005
8642219802.0,-0.006292878,-0.003501904,0.007201641836977176,-2.633782763522124
8642220132.0,-0.006254576,-0.0034610794,0.007148341874370613,-2.6361676683113164
8642220462.0,-0.0062665615,-0.0034794715,0.007167741272715868,-2.634732155347489
8642220792.0,-0.0062860832,-0.0034651967,0.007177912660865492,-2.6377910693988214
8642221122.0,-0.0063007299,-0.0034863671,0.007200968881248996,-2.636198333127079
8642221452.0,-0.0063080994,-0.0034859789,0.007207230184441563,-2.636740515158162
8642221782.0,-0.0062882414,-0.0034755043,0.007184783228740618,-2.636679688471088
8642222112.0,-0.0062788006,-0.0034436167,0.007161133496247592,-2.63993919862872
8642222442.0,-0.0062906126,-0.0034745547,0.007186399463331471,-2.6369549486039108
8642222772.0,-0.0062892795,-0.0034625216,0.007179421457163996,-2.6383323064687745
8642223102.0,-0.0063090848,-0.0034890939,0.007209599659940089,-2.6364284624637233
8642223432.0,-0.0062965516,-0.0034463089,0.007177994642355326,-2.640799541832412
8642223762.0,-0.0062857624,-0.0034717023,0.0071807747359932585,-2.6369760915377247
8642224092.0,-0.0062782706,-0.0034442576,0.00716097703822475,-2.639825136247775
8642224422.0,-0.0062967418,-0.003458415,0.007183981598535191,-2.6393340341269482
8642224752.0,-0.0062980818,-0.0034410411,0.007176809751650134,-2.6415457797027178
8642225083.0,-0.0062941386,-0.0034315732,0.007168812687116897,-2.6424410491581
8642225413.0,-0.0062849342,-0.0034472432,0.007168255267376845,-2.6399070885172806
8642225743.0,-0.0063080816,-0.0034465056,0.0071882052226609336,-2.6415456605827887
8642226073.0,-0.0062969683,-0.0034283317,0.007169746719126818,-2.6430269170908085
8642226403.0,-0.0062662579,-0.0034346909,0.00714584422219343,-2.640190331686888
8642226733.0,-0.0062704855,-0.0034155987,0.007140399350537191,-2.642819620371346
8642227063.0,-0.0062641583,-0.0034238142,0.007138780209782378,-2.6413850312565317
8642227393.0,-0.0062834709,-0.0034440949,0.007165458549971022,-2.640194109673011
8642227723.0,-0.0062800496,-0.0034183257,0.0071501030460924585,-2.6431245393504192
8642228053.0,-0.0062900284,-0.0034273034,0.007163160326870963,-2.6426897331714234
8642228383.0,-0.0062800647,-0.0034174569,0.00714970099371601,-2.643232278110827
8642228713.0,-0.006302266,-0.0033986507,0.007160264193126291,-2.647021346313565
8642229043.0,-0.0062772338,-0.0034035506,0.007140575667733156,-2.6447534040765643
8642229373.0,-0.006315111,-0.003421029,0.007182204839821961,-2.645127800783429
8642229703.0,-0.0062933266,-0.0034101731,0.007157879592884416,-2.6450116964212733
8642230033.0,-0.0063009696,-0.0034265502,0.0071724099278585715,-2.643511820206746
8642230363.0,-0.0062696411,-0.0034453458,0.007153936483111019,-2.6391115928770765
8642230693.0,-0.0062774749,-0.0034058457,0.0071418818285056,-2.644486991462465
8642231023.0,-0.0062848473,-0.0033975516,0.007144414773722187,-2.6459995039012796
8642231353.0,-0.0062742593,-0.0034024212,0.007137422488955374,-2.644693866448238
8642231683.0,-0.0062762646,-0.0033833292,0.007130106156628091,-2.647181776083478
8642232013.0,-0.0062851621,-0.0034107079,0.007150957348663102,-2.6444019941733883
8642232343.0,-0.0062940853,-0.0033985333,0.007153009041996591,-2.646492943099543
8642232673.0,-0.0063054025,-0.0033740522,0.007151386504401163,-2.650257042135917
8642233003.0,-0.006295046,-0.0033930001,0.007151227434553877,-2.647237602460101
8642233333.0,-0.0063138674,-0.0033825503,0.007162860327886678,-2.6497685457167774
8642233663.0,-0.0062911202,-0.0033939522,0.007148223898755053,-2.646859779846615
8642233993.0,-0.0062745239,-0.0033855286,0.007129618087463673,-2.6467943775661107
8642234323.0,-0.0062869088,-0.0033734659,0.007134808647607884,-2.649106561492916
8642234653.0,-0.0062764569,-0.0033930247,0.007134881066448669,-2.645998406457504
8642234983.0,-0.0062909337,-0.0033812953,0.0071420588574722475,-2.6484070558790362
8642235314.0,-0.006308026,-0.0033733618,0.007153374158421691,-2.650515172867534
8642235644.0,-0.0062828306,-0.0033684884,0.007128862072535203,-2.6494513189246254
8642235974.0,-0.0063005461,-0.0033710383,0.0071456826390689995,-2.6503082755346425
8642236304.0,-0.0062773116,-0.0033637191,0.00712174466736904,-2.6496753494752934
8642236634.0,-0.0062638446,-0.0033544674,0.007105504958172356,-2.6499278335031953
8642236964.0,-0.0062773572,-0.0033653505,0.007122555538866797,-2.6494764846895023
8642237294.0,-0.0063063037,-0.0033780359,0.00715406128701191,-2.649825503670636
8642237624.0,-0.0062912193,-0.0033691318,0.007136560051345727,-2.6499272816466575
8642237954.0,-0.0062787598,-0.003343356,0.007113427722893657,-2.6522947133086596
8642238284.0,-0.0062834599,-0.0033392979,0.0071156713513098975,-2.653108552507298
8642238614.0,-0.006298248,-0.0033574178,0.0071372391127985085,-2.6518390393265907
8642238944.0,-0.0063077504,-0.0033476346,0.007141034415532341,-2.653673954144774
8642239274.0,-0.0062741518,-0.0033427334,0.007109067969355673,-2.6520673637970154
8642239604.0,-0.0062842756,-0.0033335501,0.007113696372910877,-2.6538758562975677
8642239934.0,-0.0062941771,-0.0033293846,0.007120496273496783,-2.6550442817236712
8642240264.0,-0.006316022,-0.0033282201,0.00713927047663331,-2.6566191699226436
8642240594.0,-0.0063285592,-0.0033340853,0.0071530962761297105,-2.6567108484489346
8642240924.0,-0.0062778394,-0.0033311675,0.007106894149011128,-2.653747633271417
8642241254.0,-0.0062978463,-0.0033094447,0.007114442510891614,-2.657762917025128
8642241584.0,-0.0062769243,-0.0033304303,0.007105740260598369,-2.653778914060293
8642241914.0,-0.006284031,-0.0033450532,0.0071188781784626174,-2.652432297008833
8642242244.0,-0.0062782133,-0.0033224996,0.007103165902067686,-2.6548502406834222
8642242574.0,-0.0062895608,-0.0033385739,0.007120719819137518,-2.6536004133116635
8642242904.0,-0.0063079481,-0.0033292073,0.007132589324969362,-2.6559690141796803
8642243234.0,-0.0062828793,-0.0033310636,0.00711129784256105,-2.6540927318243024
8642243564.0,-0.0062961836,-0.0033313888,0.0071232070910281975,-2.6549272807473363
8642243894.0,-0.0062957175,-0.0033285268,0.007121456978605185,-2.655251895222729
8642244224.0,-0.0063085318,-0.003293481,0.007116501287077256,-2.66044710281379
8642244554.0,-0.0062847869,-0.0033207086,0.007108139839966964,-2.6555055164101833
8642244884.0,-0.0062735866,-0.0032988105,0.007088020848065403,-2.65749890181563
8642245215.0,-0.0062699981,-0.0033338004,0.007101204213444631,-2.652902542737723
8642245545.0,-0.0062914177,-0.003286807,0.007098241819712984,-2.660164772381482
8642245875.0,-0.0063060605,-0.0033311451,0.0071318249212185695,-2.655605178048978
8642246205.0,-0.0062816486,-0.0032980489,0.007094803427909273,-2.6581227664421725
8642246535.0,-0.0063089837,-0.0033101118,0.007124613354797924,-2.6584072025073957
8642246865.0,-0.0062940404,-0.0033119627,0.00711224588178892,-2.6572005932552702
8642247195.0,-0.0062815267,-0.0033191949,0.007104550124180904,-2.6554795186138014
8642247525.0,-0.0062880248,-0.0033027304,0.0071026251471198445,-2.65795649870956
8642247855.0,-0.006275788,-0.0033071583,0.007093857275291271,-2.65660177796019
8642248185.0,-0.0062889446,-0.0033025414,0.00710335159488696,-2.658040266468005
8642248515.0,-0.0062635171,-0.0032814065,0.0070710165521114905,-2.6590146419694154
8642248845.0,-0.0062858477,-0.0032941141,0.007096694231218793,-2.6588887275042765
8642249175.0,-0.0062911506,-0.0032501759,0.007081117090743604,-2.664732391582993
8642249505.0,-0.0062875158,-0.0032893468,0.007095960633058774,-2.6595929161724685
8642249835.0,-0.0062841627,-0.0033016189,0.007098689188921325,-2.6578421311502427
8642250165.0,-0.0062913711,-0.0032839863,0.007096894837638705,-2.660514010513808
8642250495.0,-0.0062877487,-0.0032955715,0.007099054530426143,-2.658831186933988
8642250825.0,-0.0062897292,-0.0032494403,0.007079516627044302,-2.664732550573941
8642251155.0,-0.0062960338,-0.0032740925,0.00709645850472605,-2.662053992615383
8642251485.0,-0.0063022288,-0.0032851047,0.007107038816378557,-2.6610814462342844
8642251815.0,-0.0062993535,-0.003270848,0.007097908224052087,-2.662675324392276
8642252145.0,-0.0063009988,-0.003243479,0.007086800540514911,-2.6662097924354677
8642252475.0,-0.00626637,-0.0032617713,0.007064456453995856,-2.661664080156637
8642252805.0,-0.0062573106,-0.0032581692,0.007054757435993175,-2.6615240746222484
8642253135.0,-0.0062943553,-0.0032319846,0.007075636586009435,-2.6672244409858124
8642253465.0,-0.0062774459,-0.0032667165,0.0070765644008091285,-2.6617668684326685
8642253795.0,-0.0062967438,-0.0032688243,0.007094659596281482,-2.6627589681629
8642254125.0,-0.0062976767,-0.0032486513,0.007086216697696633,-2.6653462514499497
8642254455.0,-0.0062761699,-0.0032472475,0.007066464812048685,-2.6641275187779643
8642254785.0,-0.0063019618,-0.0032377091,0.007085018189453155,-2.6669960804309247
8642255116.0,-0.006295039,-0.003254255,0.007086444215299094,-2.664472840689432
8642255446.0,-0.0062680026,-0.0032375625,0.00705476204666132,-2.6648148193302528
8642255776.0,-0.0062757665,-0.003252731,0.007068628163999239,-2.663412300187945
8642256106.0,-0.006292265,-0.0032290691,0.007072445551773433,-2.6674561536060812
8642256436.0,-0.0063113413,-0.0032385903,0.007093764595497921,-2.6674898145284036
8642256766.0,-0.006313473,-0.003232231,0.0070927609968960605,-2.668424724696721
8642257096.0,-0.0062614293,-0.0032142533,0.00703824702290701,-2.6673286732961805
8642257426.0,-0.0063107845,-0.0031965148,0.007074157750012314,-2.6727456563501555
8642257756.0,-0.0062975004,-0.0032401272,0.007082156137800126,-2.6664045072074853
8642258086.0,-0.0062637223,-0.0031995548,0.007033588555617988,-2.6693366665833964
8642258416.0,-0.0063017903,-0.003216545,0.007075218916909857,-2.6696456992675444
8642258746.0,-0.0062813974,-0.0032454754,0.00707029446831827,-2.664689886091878
8642259076.0,-0.0062755026,-0.0032122446,0.007049854484514976,-2.6684938105004075
8642259406.0,-0.0062722142,-0.0032026865,0.007042575650141352,-2.6694891701553565
8642259736.0,-0.0062846807,-0.003207261,0.007055758968606671,-2.6697152495586187
8642260066.0,-0.006297404,-0.0031913101,0.0070598694955061325,-2.672546923801247
8642260396.0,-0.0062842292,-0.0032054341,0.007054526519021347,-2.669916824587952
8642260726.0,-0.0062697327,-0.0032149902,0.007045971197467765,-2.667773815703181
8642261056.0,-0.0062681662,-0.0031961995,0.007036021514650357,-2.670048653932761
8642261386.0,-0.0062871042,-0.0031924446,0.007051197185281859,-2.671743110274643
8642261716.0,-0.0062712605,-0.0032017803,0.007041314177646694,-2.6695421956054073
8642262046.0,-0.0062936468,-0.0031769707,0.007050044884382562,-2.674120298641944
8642262376.0,-0.0062946406,-0.0032029574,0.0070626791226405805,-2.670899029051846
8642262706.0,-0.0063061951,-0.0032078372,0.007075190184084655,-2.671024944791886
8642263036.0,-0.0062579562,-0.0031863284,0.0070224429135283825,-2.670640446384113
8642263366.0,-0.0062904664,-0.003215523,0.007064669538843127,-2.669045840194419
8642263696.0,-0.0062900979,-0.0031812951,0.007048827569523063,-2.6733457468891078
8642264026.0,-0.0063042986,-0.0031801813,0.007061000916218015,-2.674394183173712
8642264356.0,-0.0062995921,-0.0031686401,0.007051605541272882,-2.6755548588847096
8642264686.0,-0.0062974126,-0.0031479552,0.007040385457902558,-2.6780404661064874
8642265017.0,-0.0063058743,-0.0031727695,0.007059073380234175,-2.675432163532996
8642265347.0,-0.0062827872,-0.0031783503,0.007040974764192379,-2.673250353882094
8642265677.0,-0.0062908808,-0.0031724078,0.007045520029728783,-2.674521532506736
8642266007.0,-0.0062730177,-0.0031730099,0.007029846576562771,-2.67330089643833
8642266337.0,-0.006277532,-0.0031815033,0.0070377106546756305,-2.672513506832182
8642266667.0,-0.0063028807,-0.0031901465,0.0070642295977618634,-2.673044301893802
8642266997.0,-0.0062892457,-0.0031858482,0.007050123419374425,-2.6727148890423087
8642267327.0,-0.0063102104,-0.0031696747,0.007061557405848107,-2.6760996493586333
8642267657.0,-0.0062889243,-0.0031651516,0.007040508042898116,-2.6753166507513324
8642267987.0,-0.0062719992,-0.0031524206,0.007019667342837907,-2.675852723271962
8642268317.0,-0.0062877508,-0.0031549693,0.007034887448057938,-2.6765345473809363
8642268647.0,-0.0062693115,-0.0031279309,0.0070062984805963745,-2.678803542046796
8642268977.0,-0.0062823063,-0.0031566735,0.007030786587048561,-2.675970609452685
8642269307.0,-0.0062773695,-0.0031706132,0.00703264928057304,-2.6738843057135786
8642269637.0,-0.0062768093,-0.0031332574,0.007015385728755138,-2.6786012937059036
8642269967.0,-0.0062812311,-0.0031605135,0.007031551017754863,-2.675413983307829
8642270297.0,-0.0062832621,-0.0031302566,0.007019821151506637,-2.679394315261917
8642270627.0,-0.006275155,-0.0031364875,0.0070153491795976386,-2.6780840149547336
8642270957.0,-0.0062698477,-0.0031686399,0.007025045835940666,-2.673652311813122
8642271287.0,-0.0062800682,-0.0031454749,0.007023764584834919,-2.67725219678759
8642271617.0,-0.0062964581,-0.0031471293,0.007039162410114864,-2.678084783701284
8642271947.0,-0.0062749701,-0.0031091286,0.007002994388633477,-2.681566757524802
8642272277.0,-0.0062767667,-0.0031396812,0.007018219022220832,-2.6777796418947344
8642272607.0,-0.0062756,-0.0031155948,0.007006431782140396,-2.680779720195281
8642272937.0,-0.0062610108,-0.0031325982,0.007000959057183514,-2.6776776730428407
8642273267.0,-0.0062890622,-0.0031488367,0.007033311874126991,-2.6773975008464492
8642273597.0,-0.0062652779,-0.0031235327,0.00700072594037202,-2.6791084781407175
8642273927.0,-0.0062580808,-0.0031311698,0.006997699594563965,-2.677672870389696
8642274257.0,-0.0063096952,-0.0031351514,0.00704566730819906,-2.6804454231088886
8642274587.0,-0.0063161145,-0.0031033168,0.00703732033790366,-2.684902485714668
8642274917.0,-0.0062755284,-0.0031007139,0.00699976309519542,-2.6826793361781696
8642275248.0,-0.0062814033,-0.0031039472,0.007006462419626522,-2.6826370415086322
8642275578.0,-0.0062633014,-0.0031210638,0.00699785564804765,-2.6792982039844357
8642275908.0,-0.0062776,-0.0031107938,0.007006090195402743,-2.681520442488237
8642276238.0,-0.0062975654,-0.0030991479,0.007018835207735794,-2.684270169690997
8642276568.0,-0.0062714809,-0.0031290278,0.00700872938928574,-2.6788016873675153
8642276898.0,-0.0062800962,-0.0031002771,0.007003665210305162,-2.683024158979937
8642277228.0,-0.0062930274,-0.0030850466,0.007008545240013958,-2.685789526940898
8642277558.0,-0.0062804899,-0.0030755263,0.006993097697443795,-2.6862227469603104
8642277888.0,-0.0062803432,-0.0031060638,0.007006450102545274,-2.6822991810908166
8642278218.0,-0.0062892121,-0.0030892821,0.0070069859948601885,-2.6850070904587806
8642278548.0,-0.0062882992,-0.0030973833,0.0070097425156591545,-2.6839123534447578
8642278878.0,-0.0062905355,-0.0030927378,0.007009697851998265,-2.684647839549528
8642279208.0,-0.0062660746,-0.0030692728,0.006977401121734725,-2.6861190533254136
8642279538.0,-0.006286534,-0.0030982378,0.007008536737330043,-2.6836916881544255
8642279868.0,-0.0062760964,-0.0030917725,0.006996316403211709,-2.683861084318746
8642280198.0,-0.0062892516,-0.0030677775,0.006997567039879562,-2.6877679321854155
8642280528.0,-0.006274912,-0.0030738032,0.006987330443028599,-2.6860931385638414
