frequency,Re(S21),Im(S21),Amplitude,phase
7809100000.0,-0.0146609713,-0.0004775774,0.014668747718616421,-3.109029423204806
7809100360.0,-0.0146863551,-0.000465248,0.01469372253123081,-3.1099243154239224
7809100720.0,-0.0146909227,-0.0004445643,0.014697647675536713,-3.1113407298556828
7809101080.0,-0.0146799685,-0.0004456182,0.01468673043060175,-3.1112464438693666
7809101440.0,-0.0146857542,-0.0004124536,0.014691544996867095,-3.1135147489632673
7809101800.0,-0.0147058855,-0.0004060582,0.0147114904615711,-3.113987715990684
7809102160.0,-0.0147075257,-0.0003666155,0.014712094315256436,-3.1166707460898873
7809102520.0,-0.0147057608,-0.0003951853,0.014711069713931504,-3.114726296992041
7809102880.0,-0.0147160553,-0.0003740422,0.014720808101460968,-3.116180838056776
7809103240.0,-0.014712414,-0.0003609324,0.014716840622387869,-3.117065066355326
7809103600.0,-0.0147269886,-0.0003601615,0.014731391975323044,-3.117141645137389
7809103960.0,-0.0147012981,-0.0003810485,0.014706235540899507,-3.115679077759242
7809104320.0,-0.0147055689,-0.000359336,0.014709958498702273,-3.117162146362291
7809104680.0,-0.0147182125,-0.0003408474,0.014722158678170907,-3.118438585990878
7809105041.0,-0.0146898012,-0.0003749672,0.014694586067548731,-3.1160725128619395
7809105401.0,-0.0146891559,-0.0003749791,0.014693941281356124,-3.116070582645677
7809105761.0,-0.0147157866,-0.0003413511,0.01471974510072137,-3.1184005602359006
7809106121.0,-0.014711955,-0.0003551521,0.014716241127956534,-3.1174569670064045
7809106481.0,-0.0147039664,-0.0003609503,0.014708396004031135,-3.1170497640010004
7809106841.0,-0.0146904253,-0.0003401437,0.014694362634409491,-3.1184426815857917
7809107201.0,-0.0146900134,-0.0003509523,0.014694205021335957,-3.1177066608597337
7809107561.0,-0.014726715,-0.0003624929,0.014731175641943022,-3.1169829753669083
7809107921.0,-0.0147158346,-0.0003614279,0.014720272351470116,-3.1170371144059437
7809108281.0,-0.014720674,-0.0003546276,0.014724944948927916,-3.117506866402437
7809108641.0,-0.0146960914,-0.0003535709,0.014700344037419015,-3.117538454743408
7809109001.0,-0.0146859326,-0.0003278911,0.01468959253707202,-3.119269479313231
7809109361.0,-0.0146790043,-0.0003316013,0.014682749288249124,-3.1190063184862313
7809109721.0,-0.0146897072,-0.0003506789,0.014693892381279954,-3.1177247642191706
7809110081.0,-0.0147081562,-0.0003572952,0.014712495324163792,-3.1173051128495874
7809110441.0,-0.0146963076,-0.0003364905,0.014700159282484256,-3.1187003919967227
7809110801.0,-0.0146954539,-0.0003578057,0.014699809190801686,-3.1172494096273122
7809111161.0,-0.0146931709,-0.0003307982,0.014696894180258973,-3.1190827182696608
7809111521.0,-0.0146932791,-0.0003606032,0.01469770340489789,-3.117055528478102
7809111881.0,-0.0146800646,-0.0003353848,0.014683895246978718,-3.118750351748406
7809112241.0,-0.0146925873,-0.0003351732,0.014696409855543616,-3.118784208127125
7809112601.0,-0.0146889317,-0.0003463328,0.014693014016723075,-3.118019213975413
7809112961.0,-0.0146820088,-0.0003551187,0.014686302859956523,-3.1174100313234536
7809113321.0,-0.014706291,-0.0003426193,0.014710281539162108,-3.1182994022771857
7809113681.0,-0.0146678976,-0.0003454263,0.01467196439924857,-3.118047188959747
7809114041.0,-0.0146868768,-0.0003292168,0.014690566151097801,-3.1191806948581418
7809114401.0,-0.0146654926,-0.0003409986,0.014669456474111667,-3.118345076695724
7809114761.0,-0.014678042,-0.0003259801,0.014681661349430454,-3.119387612760389
7809115122.0,-0.0146764799,-0.0003221176,0.014680014373403515,-3.1196482980779696
7809115482.0,-0.014692245,-0.0003255882,0.014695852163655031,-3.1194357321657225
7809115842.0,-0.0146845853,-0.000326762,0.014688220410846923,-3.119344283825845
7809116202.0,-0.0146847007,-0.0003337402,0.0146884926786133,-3.118869496782251
7809116562.0,-0.0146845976,-0.0003034055,0.01468773166868717,-3.1209341142787643
7809116922.0,-0.0146796393,-0.0003109787,0.014682932872214536,-3.120411466086046
7809117282.0,-0.014671298,-0.0003110782,0.014674595553245044,-3.1203926483197533
7809117642.0,-0.0146762689,-0.0003309794,0.014680000551373681,-3.119044463169395
7809118002.0,-0.014675713,-0.0003301298,0.014679425661217712,-3.119101471568414
7809118362.0,-0.0146903598,-0.0003075478,0.014693578757496108,-3.1206603629984104
7809118722.0,-0.0146751642,-0.0003211226,0.014678677189079144,-3.119714100367443
7809119082.0,-0.0146636601,-0.0003157465,0.01466705912514824,-3.120063396053446
7809119442.0,-0.014668174,-0.0002896938,0.014671034421336297,-3.1218454005732394
7809119802.0,-0.0146639363,-0.0002864879,0.014666734576152392,-3.1220582357790203
7809120162.0,-0.014649186,-0.0003154139,0.014652581219393024,-3.120064824495774
7809120522.0,-0.0146653053,-0.0003042654,0.014668461302258164,-3.120848335758436
7809120882.0,-0.0146724955,-0.0003051646,0.014675668626356123,-3.1207972402032835
7809121242.0,-0.0146757043,-0.000284381,0.01467845936241946,-3.122217405374698
7809121602.0,-0.0146564469,-0.000294677,0.014659408933065774,-3.121489738792041
7809121962.0,-0.0146719235,-0.0003028424,0.014675048644181388,-3.1209546368734893
7809122322.0,-0.0146738631,-0.0002681403,0.014676312803222262,-3.1233213600087466
7809122682.0,-0.0146906742,-0.0002989501,0.01469371565033282,-3.121245810397078
7809123042.0,-0.0146966598,-0.0002705826,0.014699150459137385,-3.123183570390825
7809123402.0,-0.0146758985,-0.000310552,0.014679183878097796,-3.1204351305913005
7809123762.0,-0.0146855038,-0.0002789916,0.014688153667928621,-3.122597183838794
7809124122.0,-0.0146828008,-0.0002616523,0.014685131979610395,-3.123774213380697
7809124482.0,-0.014667053,-0.000279425,0.014669714449689673,-3.1225437552359114
7809124842.0,-0.0146790883,-0.0002843101,0.01468184135427702,-3.122226699061163
7809125203.0,-0.0146848694,-0.0002738013,0.014687421708623269,-3.1229496836739807
7809125563.0,-0.0146958939,-0.0002906886,0.014698768566863932,-3.121814972871905
7809125923.0,-0.0146629589,-0.0002678637,0.014665405369946883,-3.1233266330356395
7809126283.0,-0.0146681088,-0.0002837058,0.014670852216200361,-3.1222533894996007
7809126643.0,-0.0146735788,-0.0002695127,0.014676053689438136,-3.123227508814402
7809127003.0,-0.0146851793,-0.0002440167,0.014687206515298524,-3.1249776541858707
7809127363.0,-0.0146685021,-0.000268878,0.01467096619983116,-3.1232644091705772
7809127723.0,-0.0146664435,-0.0002730492,0.014668984995708218,-3.1229775298884794
7809128083.0,-0.0146583918,-0.0002616209,0.014660726300481298,-3.1237466900323345
7809128443.0,-0.0147042574,-0.0002310665,0.01470607280727513,-3.1258796885049893
7809128803.0,-0.0146740531,-0.0002763078,0.014676654263896813,-3.122765193348447
7809129163.0,-0.0146525805,-0.0002491432,0.01465469848352693,-3.1245909252005934
7809129523.0,-0.0146740998,-0.0002201108,0.0146757505329246,-3.1265938259259127
7809129883.0,-0.0146685704,-0.0002453105,0.01467062148721609,-3.1248706671987483
7809130243.0,-0.0146678245,-0.0002564217,0.01467006570029702,-3.1241125165405594
7809130603.0,-0.0146732602,-0.0002543739,0.01467546493225701,-3.1242585084467596
7809130963.0,-0.0146662931,-0.0002308292,0.014668109469685596,-3.125855197518731
7809131323.0,-0.0146635988,-0.0002325287,0.01466544235144938,-3.1257364360665436
7809131683.0,-0.0146865133,-0.0002485684,0.014688616652379334,-3.124669326414993
7809132043.0,-0.0146683976,-0.0002218984,0.014670075904766421,-3.1264661563722
7809132403.0,-0.0146610727,-0.0002468876,0.01466315130528629,-3.1247545768666125
7809132763.0,-0.0146643456,-0.0002358676,0.014666242374956482,-3.1255096131835782
7809133123.0,-0.0146688589,-0.0002290733,0.014670647429642704,-3.12597762293151
7809133483.0,-0.0146490747,-0.0002319492,0.014650910893100154,-3.1257602666335593
7809133843.0,-0.0146625656,-0.0002253534,0.014664297259984705,-3.126224561492067
7809134203.0,-0.0146644904,-0.0002298247,0.014666291217769483,-3.1259217451453094
7809134563.0,-0.0146513401,-0.0002333605,0.014653198417029242,-3.125666412862241
7809134923.0,-0.0146544076,-0.0002198832,0.014656057134460825,-3.1265892015961985
7809135284.0,-0.0146641401,-0.000203739,0.014665555374841726,-3.1276998586102893
7809135644.0,-0.0146893121,-0.0002188532,0.014690942335138228,-3.126694950593389
7809136004.0,-0.0146593161,-0.0001848848,0.014660481946682048,-3.128981219552501
7809136364.0,-0.0146701881,-0.0001764199,0.014671248851767788,-3.129567491062244
7809136724.0,-0.014671675,-0.0002030261,0.01467307966661758,-3.1277555734755595
7809137084.0,-0.0146542479,-0.0001928119,0.014655516297402697,-3.1284360060354888
7809137444.0,-0.0146576611,-0.0001973994,0.014658990260095461,-3.128126148536316
7809137804.0,-0.0146554961,-0.0002007538,0.014656871017557931,-3.1278953182330365
7809138164.0,-0.0146692254,-0.0001919756,0.01467048153493949,-3.128506438326525
7809138524.0,-0.0146670965,-0.0001963424,0.014668410618684971,-3.1282068636330767
7809138884.0,-0.0146489401,-0.0001903227,0.014650176407931861,-3.128601133995077
7809139244.0,-0.0146703335,-0.0001721825,0.01467134389940228,-3.1298564108868074
7809139604.0,-0.0146566733,-0.0001495013,0.01465743575328354,-3.1313927867895712
7809139964.0,-0.014668571,-0.0001913258,0.014669818701803599,-3.1285501458187834
7809140324.0,-0.0146553964,-0.0001761234,0.014656454656333518,-3.1295755837596726
7809140684.0,-0.0146576031,-0.0001740007,0.01465863584651485,-3.129722191137895
7809141044.0,-0.0146625591,-0.0001783157,0.014663643334787549,-3.129431958531504
7809141404.0,-0.0146509623,-0.0001891806,0.014652183646659553,-3.1286808677986593
7809141764.0,-0.0146625423,-0.0001781341,0.01466362432882376,-3.1294443280708295
7809142124.0,-0.0146442709,-0.0001760454,0.014645329022437426,-3.129571780613672
7809142484.0,-0.0146818651,-0.0001548698,0.014682681889544228,-3.1310446710752218
7809142844.0,-0.0146609635,-0.000182458,0.014662098815316185,-3.1291481385305606
7809143204.0,-0.0146617569,-0.0001572252,0.014662599877177739,-3.130869574843041
7809143564.0,-0.0146560329,-0.0001597955,0.01465690400349619,-3.1306900328354526
7809143924.0,-0.0146634803,-0.0001483803,0.014664231013657558,-3.131473961927717
7809144284.0,-0.0146558598,-0.0001386884,0.014656515989468663,-3.132129936127857
7809144644.0,-0.0146563106,-0.0001568001,0.014657149336587669,-3.1308945916841284
7809145005.0,-0.0146561012,-0.0001346536,0.014656719755000927,-3.132405366356563
7809145365.0,-0.0146669633,-0.0001403951,0.014667635229567544,-3.132020746346966
7809145725.0,-0.0146590688,-0.0001384094,0.014659722209003204,-3.1321510383637396
7809146085.0,-0.0146266188,-0.0001454326,0.01462734180094443,-3.131649972398888
7809146445.0,-0.0146447215,-0.0001487762,0.014645477191619556,-3.131433970673146
7809146805.0,-0.014676534,-0.0001352057,0.014677156769431486,-3.1323805415663255
7809147165.0,-0.014655424,-0.0001365966,0.014656060563838686,-3.132272374305899
7809147525.0,-0.0146536503,-0.0001318264,0.014654243252874814,-3.132596748732806
7809147885.0,-0.0146575191,-0.0001326802,0.014658119599810095,-3.132540877817007
7809148245.0,-0.0146404883,-0.0001182927,0.014640966184829135,-3.133512996444358
7809148605.0,-0.0146601684,-0.000138527,0.014660822870701615,-3.1321437254786813
7809148965.0,-0.0146752687,-0.0001310571,0.014675853889319699,-3.1326624173696285
7809149325.0,-0.0146760599,-0.000110893,0.014676478850386322,-3.134036750275698
7809149685.0,-0.0146645676,-8.65791e-05,0.01466482317777908,-3.1356887567668124
7809150045.0,-0.0146579973,-0.0001108771,0.014658416646354124,-3.1340285243930976
7809150405.0,-0.0146495176,-0.0001241312,0.01465004349712052,-3.133119457904673
7809150765.0,-0.0146648374,-0.0001217771,0.014665343011008067,-3.133288824663716
7809151125.0,-0.0146575755,-8.01243e-05,0.014657794494454162,-3.136126299216734
7809151485.0,-0.0146744263,-0.0001020262,0.014674780972117373,-3.134640112209264
7809151845.0,-0.0146410865,-0.0001033676,0.014641451388479628,-3.134532666436783
7809152205.0,-0.0146676872,-9.80444e-05,0.014668014879369844,-3.134908372798717
7809152565.0,-0.0146477384,-7.84407e-05,0.014647948428986602,-3.136237564084348
7809152925.0,-0.0146666066,-8.52307e-05,0.014666854244567444,-3.135781511113117
7809153285.0,-0.014646806,-0.000112257,0.014647236177370973,-3.133928538829916
7809153645.0,-0.0146564661,-9.96113e-05,0.014656804595529576,-3.1347963518317132
7809154005.0,-0.0146756947,-8.05163e-05,0.014675915569468699,-3.136106338031548
7809154365.0,-0.0146461187,-7.10596e-05,0.014646291081404939,-3.136740921612868
7809154725.0,-0.0146486005,-6.66091e-05,0.014648751939356575,-3.137045554300208
7809155086.0,-0.0146565859,-9.69324e-05,0.014656906431244232,-3.134979177064964
7809155446.0,-0.0146676364,-7.9759e-05,0.014667853253311677,-3.1361549530835178
7809155806.0,-0.014671055,-8.64376e-05,0.014671309630422185,-3.135701011858977
7809156166.0,-0.014665101,-5.93917e-05,0.014665221263732433,-3.1375428093166104
7809156526.0,-0.0146431464,-0.0001008668,0.014643493797696477,-3.134704434217744
7809156886.0,-0.0146869903,-7.13337e-05,0.014687163530411506,-3.136735760677396
7809157246.0,-0.0146484058,-5.01418e-05,0.01464849161796466,-3.138169646004694
7809157606.0,-0.0146566453,-6.21147e-05,0.014656776920113378,-3.137354690068044
7809157966.0,-0.0146693932,-5.0505e-05,0.014669480141137628,-3.138149784497653
7809158326.0,-0.0146365375,-7.5754e-05,0.014636733537829478,-3.136417022154608
7809158686.0,-0.0146592547,-4.86581e-05,0.01465933545458892,-3.1382733906191533
7809159046.0,-0.0146673493,-6.40801e-05,0.01466748927892659,-3.1372237870011572
7809159406.0,-0.0146503747,-4.78763e-05,0.014650452927827923,-3.138324741979841
7809159766.0,-0.0146612704,-3.64493e-05,0.014661315708127518,-3.1391065644643485
7809160126.0,-0.0146577435,-7.04725e-05,0.01465791291026961,-3.1367848223569106
7809160486.0,-0.0146694673,-5.10154e-05,0.014669556006805607,-3.138115008948972
7809160846.0,-0.0146609686,-4.70579e-05,0.014661044121621704,-3.138382924431967
7809161206.0,-0.014675923,-5.07195e-05,0.01467601064218779,-3.138136700729098
7809161566.0,-0.0146701909,-5.94681e-05,0.01467031143150548,-3.1375390066619966
7809161926.0,-0.014648767,-3.07426e-05,0.014648799258906641,-3.139494009050858
7809162286.0,-0.0146571064,-3.21102e-05,0.014657141572826026,-3.1394018972594755
7809162646.0,-0.0146535526,-3.1042e-06,0.01465355292879595,-3.1413808141786754
7809163006.0,-0.0146426511,-3.54554e-05,0.014642694025408041,-3.139171279860025
7809163366.0,-0.0146487224,-2.1714e-05,0.014648738493469591,-3.1401103411052382
7809163726.0,-0.0146305074,-1.34493e-05,0.014630513581727924,-3.1406733897636068
7809164086.0,-0.0146649483,-1.97093e-05,0.014664961544381197,-3.140248681028139
7809164446.0,-0.0146912215,-1.2866e-05,0.014691227133769946,-3.1407168927341846
7809164806.0,-0.0146721483,-2.71992e-05,0.014672173510890387,-3.1397388576570755
7809165167.0,-0.0146863954,-7.1225e-06,0.014686397127108725,-3.141107680984357
7809165527.0,-0.0146753234,-5.6368e-06,0.014675324482548992,-3.1412085530443297
7809165887.0,-0.0146694747,-1.11796e-05,0.01466947895998342,-3.1408305541919432
7809166247.0,-0.0146676803,-1.66844e-05,0.014667689789200324,-3.140455159966888
7809166607.0,-0.0146598384,-1.72032e-05,0.014659848493903503,-3.140419162338808
7809166967.0,-0.0146679584,-7.7485e-06,0.014667960446612296,-3.141064393346075
7809167327.0,-0.0146786294,-1.5058e-06,0.014678629477235878,-3.1414900690804575
7809167687.0,-0.0146539277,2.0839e-06,0.014653927848173216,-3.1417348611964235
7809168047.0,-0.0146685677,3.49154e-05,0.014668609254276304,-3.1439729360259165
7809168407.0,-0.0146712211,1.2268e-06,0.014671221151292194,-3.141676273077822
7809168767.0,-0.0146415361,2.8059e-05,0.014641562986070996,-3.143509048526691
7809169127.0,-0.0146672828,3.01736e-05,0.01466731383659983,-3.143649855175509
7809169487.0,-0.0146608169,2.85062e-05,0.014660844613417197,-3.143537031196503
7809169847.0,-0.0146681503,1.34584e-05,0.014668156474210405,-3.142510178700191
7809170207.0,-0.0146604308,3.31603e-05,0.014660468302448075,-3.1438545409723337
7809170567.0,-0.0146856146,1.33092e-05,0.014685620630893943,-3.1424989279759012
7809170927.0,-0.0146296907,1.74743e-05,0.014629701136005034,-3.1427870938584364
7809171287.0,-0.0146717486,1.149e-07,0.014671748600449912,-3.141600484967165
7809171647.0,-0.0146542985,5.63074e-05,0.014654406676846286,-3.145435015808427
7809172007.0,-0.0146600189,2.10391e-05,0.01466003399696215,-3.1430277871799617
7809172367.0,-0.0146429465,1.03658e-05,0.01464295016899504,-3.142300557444285
7809172727.0,-0.0146618139,5.52766e-05,0.014661918098964433,-3.1453627422353168
7809173087.0,-0.0146611631,2.53355e-05,0.014661184990728472,-3.143320720770282
7809173447.0,-0.0146648904,6.36887e-05,0.014665028697364347,-3.145935563618732
7809173807.0,-0.0146560293,5.29203e-05,0.0146561248425568,-3.1452034590082607
7809174167.0,-0.0146492108,4.54263e-05,0.01464928123190924,-3.1446935820300577
7809174527.0,-0.0146490642,4.06275e-05,0.01464912053774826,-3.1443660318262054
7809174887.0,-0.0146408659,4.28221e-05,0.014640928523629613,-3.1445174790873907
7809175248.0,-0.0146622806,6.60286e-05,0.01466242927243485,-3.1460959198592375
7809175608.0,-0.0146515158,4.51253e-05,0.014651585290689528,-3.1446725504368653
7809175968.0,-0.014681249,5.24543e-05,0.01468134270608753,-3.145165515599065
7809176328.0,-0.0146354432,2.91634e-05,0.014635472256279461,-3.1435853066992396
7809176688.0,-0.0146446001,8.49757e-05,0.01464484663485796,-3.14739511632332
7809177048.0,-0.0146646852,6.19419e-05,0.014664816017055061,-3.145816510480479
7809177408.0,-0.0146502376,5.03629e-05,0.014650324165633678,-3.1450303249085554
7809177768.0,-0.0146412196,8.31738e-05,0.014641455844841065,-3.14727338972902
7809178128.0,-0.0146866359,8.46525e-05,0.014686879862820593,-3.1473565033327526
7809178488.0,-0.0146486025,6.10239e-05,0.014648729607695593,-3.145758480807393
7809178848.0,-0.0146371714,4.90834e-05,0.014637253696412231,-3.1449459801773467
7809179208.0,-0.0146554977,8.35427e-05,0.014655735812896895,-3.1472930260249345
7809179568.0,-0.014681205,7.0776e-05,0.014681375599520673,-3.146413473932114
7809179928.0,-0.0146529074,8.93163e-05,0.014653179609709984,-3.1476880441776713
7809180288.0,-0.0146329671,9.112e-05,0.01463325080096977,-3.1478196082223944
7809180648.0,-0.0146509835,8.1821e-05,0.014651211970117465,-3.1471772718093267
7809181008.0,-0.0146330384,9.22119e-05,0.014633328939457903,-3.1478941937700444
7809181368.0,-0.0146550355,8.44613e-05,0.014655278885693644,-3.147355885270473
7809181728.0,-0.0146377404,6.77613e-05,0.014637897240094625,-3.1462218391143733
7809182088.0,-0.014656067,9.53367e-05,0.014656377076032668,-3.148097492530407
7809182448.0,-0.0146541828,9.43139e-05,0.014654486297634219,-3.148028536034053
7809182808.0,-0.0146861715,0.0001119119,0.01468659789062034,-3.149212728972701
7809183168.0,-0.0146683317,0.0001152104,0.01466878414516667,-3.149446854960137
7809183528.0,-0.0146461384,0.0001135776,0.014646578778102971,-3.1493472794341955
7809183888.0,-0.0146509762,0.0001190772,0.014651460097632806,-3.1497200695712153
7809184248.0,-0.0146615343,0.0001249229,0.014662066490130948,-3.1501128994604097
7809184608.0,-0.0146570176,0.000111248,0.01465743978477189,-3.1491825921980663
7809184968.0,-0.0146752789,0.0001047328,0.014675652617590164,-3.148729214514888
7809185329.0,-0.0146530226,0.0001086314,0.014653425268420237,-3.14900610082589
7809185689.0,-0.0146778446,0.0001262215,0.01467838730817563,-3.150191899064156
7809186049.0,-0.0146635084,0.0001254699,0.014664045188578648,-3.1501490532314143
7809186409.0,-0.0146527258,0.0001239797,0.014653250299370367,-3.150053655533659
7809186769.0,-0.0146688201,0.0001001258,0.014669161813204927,-3.148418304485726
7809187129.0,-0.014643892,0.0001421901,0.014644582306511921,-3.1513022056425544
7809187489.0,-0.0146539727,0.0001334499,0.014654580334085152,-3.1506991405333546
7809187849.0,-0.0146316807,0.0001269239,0.014632231196339938,-3.1502670307260265
7809188209.0,-0.0146613536,0.0001336218,0.014661962493802397,-3.1507062800777317
7809188569.0,-0.0146580387,0.0001537205,0.014658844719923122,-3.1520793815994907
7809188929.0,-0.0146804539,0.0001184642,0.014680931866768773,-3.1496619973279105
