frequency,Re(S21),Im(S21),Amplitude,phase
8396400000.0,0.009650609,0.0064453115,0.011605011607185632,0.5888322990370474
8396400260.0,0.0096290705,0.0064395948,0.01158392765352742,0.5894545686627473
8396400520.0,0.0096489185,0.0064125336,0.011585431169825801,0.5865605750615243
8396400780.0,0.0096520882,0.006388654,0.011574873932457978,0.584690787997845
8396401040.0,0.0096369782,0.0063983301,0.01156762624291783,0.586109279177686
8396401300.0,0.0096513597,0.0063897232,0.011574856657056378,0.584802554126015
8396401560.0,0.0096436075,0.0063844306,0.011565471010740229,0.5847910026990278
8396401820.0,0.0096321288,0.0063657482,0.011545590299572937,0.5839905786098144
8396402080.0,0.0096638248,0.0063759016,0.01157763494751746,0.5832127719287712
8396402340.0,0.0096411458,0.0063449332,0.011541658011278964,0.5820552487504811
8396402600.0,0.0096625738,0.0063459792,0.011560137734788417,0.581111824743228
8396402860.0,0.0096581,0.0063389899,0.011552561991277173,0.5808187194038695
8396403120.0,0.0096601033,0.0063351329,0.011552121217652337,0.5804444389812922
8396403380.0,0.0096530817,0.006312248,0.011533709772678473,0.5791190910886395
8396403640.0,0.0096774176,0.0063149619,0.011555568147141938,0.5781630727446024
8396403900.0,0.0096676736,0.0062927426,0.011535272960185715,0.5770115621112301
8396404160.0,0.0096433428,0.0062954119,0.011516348003988652,0.5783583534126208
8396404420.0,0.0096312208,0.0062794787,0.011497489588693103,0.5777742822578293
8396404680.0,0.0096689,0.0062861963,0.011532731295410192,0.5764778238208481
8396404940.0,0.009644788,0.0062688261,0.011503048128082626,0.5763543670994857
8396405201.0,0.0096520798,0.0062643136,0.011506705407922504,0.5756802082525185
8396405461.0,0.0096644364,0.0062581718,0.011513732896326899,0.5746484941067201
8396405721.0,0.0096539138,0.0062510828,0.01150104724928501,0.5746284144258783
8396405981.0,0.0096436222,0.0062642989,0.011499603899477323,0.576079529250987
8396406241.0,0.0096370861,0.0062374225,0.011479497721691462,0.5744263029995499
8396406501.0,0.0096699725,0.0062598064,0.011519268393272084,0.5745063813979048
8396406761.0,0.0096249251,0.0062487111,0.011475433481654331,0.5758279538343336
8396407021.0,0.0096368266,0.0062507088,0.011486504578019592,0.5754096226895751
8396407281.0,0.0096490137,0.0062399633,0.011490892366049497,0.5740479260965999
8396407541.0,0.009655044,0.0062229642,0.011486738356749389,0.5725201657587472
8396407801.0,0.0096270014,0.0061968481,0.011449021020597156,0.5719297705322546
8396408061.0,0.0096516549,0.0062133715,0.011478694512256447,0.5719776841616667
8396408321.0,0.0096386186,0.0061890378,0.011454569280688592,0.5708074906905112
8396408581.0,0.0096430865,0.0062035026,0.011466148514417952,0.5716584795619445
8396408841.0,0.0096578887,0.0062150984,0.011484871016396756,0.5718103076116652
8396409101.0,0.0096703256,0.0062091916,0.011492138945188832,0.570792441559694
8396409361.0,0.0096540418,0.0062051047,0.011476229668933493,0.5712594159453376
8396409621.0,0.0096674722,0.0061967695,0.011483029694897732,0.5700164116566905
8396409881.0,0.0096413323,0.0061859557,0.011455188188824562,0.5704530903079577
8396410141.0,0.0096627401,0.0061646798,0.011461754807911223,0.56788214632778
8396410401.0,0.0096686416,0.0061934512,0.011482224007396475,0.5697181495306727
8396410661.0,0.0096514121,0.0061811743,0.01146109380691943,0.569627032633012
8396410921.0,0.0096602693,0.0061885882,0.011472551017873128,0.5697548519725957
8396411181.0,0.0096508867,0.0061957764,0.011468533441335638,0.5707239314245897
8396411441.0,0.0096608891,0.0061830894,0.01147010779072678,0.5693220305347786
8396411701.0,0.0096545976,0.0061635113,0.011454262366610669,0.5681784841689328
8396411961.0,0.0096574409,0.0061620848,0.011455891664090747,0.5679399741525912
8396412221.0,0.0096479299,0.0061557139,0.011444446905550621,0.5679177097707901
8396412481.0,0.0096502695,0.0061319867,0.01143367667513854,0.5660582027373295
8396412741.0,0.0096448276,0.0061596678,0.011443959403985956,0.5683547863281174
8396413001.0,0.0096560786,0.0061795688,0.01146415825446035,0.5692895702103695
8396413261.0,0.0096506497,0.0061324229,0.011434231511411446,0.5660725681468598
8396413521.0,0.0096582241,0.00615021,0.01145016924809065,0.5670289075143324
8396413781.0,0.0096432519,0.0061484848,0.011436615432140956,0.5676048458814102
8396414041.0,0.0096454118,0.0061179942,0.011422076073236987,0.5652523297102383
8396414301.0,0.009643053,0.006123609,0.011423093203930798,0.5657780086141007
8396414561.0,0.0096671372,0.0061211777,0.011442130836457043,0.5644702694616468
8396414821.0,0.0096580046,0.0061310077,0.011439681301115013,0.5656233389596373
8396415082.0,0.009670439,0.0061560585,0.011463614033460096,0.5668869142873
8396415342.0,0.00964797,0.0061121007,0.011421081388723246,0.5646966001311923
8396415602.0,0.0096593136,0.006118697,0.01143419399000008,0.5646530111619203
8396415862.0,0.0096477291,0.0061327025,0.0114319165821175,0.5662302290698995
8396416122.0,0.0096478686,0.0061210379,0.01142578108910294,0.565362110381757
8396416382.0,0.0096613227,0.0061132117,0.01143295734281171,0.5641536691480435
8396416642.0,0.0096736806,0.0060980077,0.011435287239946168,0.5624522865519166
8396416902.0,0.0096554617,0.0060964038,0.011419022722318286,0.5631842786454261
8396417162.0,0.0096548125,0.0061124985,0.011427074967928516,0.5644055556354758
8396417422.0,0.0096555745,0.006102776,0.011422521342997186,0.563650712600942
8396417682.0,0.0096688872,0.0060916483,0.011427841383971722,0.5622052062463487
8396417942.0,0.0096501953,0.0061012402,0.011417153818103624,0.5637887284822398
8396418202.0,0.0096618211,0.0061041512,0.011428536601020563,0.5634604051073653
8396418462.0,0.0096693929,0.0060652189,0.011414203404508246,0.5602225001269853
8396418722.0,0.0096845883,0.006101115,0.011446172058104049,0.5621737615504304
8396418982.0,0.0096772983,0.0060988612,0.011438802836138419,0.5623467541107435
8396419242.0,0.0096409906,0.0060679005,0.01139158093625238,0.5617467795709357
8396419502.0,0.0096553661,0.0060736733,0.011406822602292107,0.561503796887248
8396419762.0,0.0096677143,0.0060831518,0.011422321813373484,0.5616305844447231
8396420022.0,0.009650215,0.0060893388,0.011410814894976189,0.5629062300117093
8396420282.0,0.009662109,0.0060495141,0.011399691713988577,0.559394965773788
8396420542.0,0.0096473692,0.0060536842,0.01138941723155484,0.5603920757004288
8396420802.0,0.0096645849,0.0060606326,0.01140769340408002,0.5601058793192822
8396421062.0,0.0096472287,0.0060647696,0.011395194245434689,0.561222647921891
8396421322.0,0.009656004,0.0060755293,0.011408350867814965,0.5616117323039631
8396421582.0,0.0096586917,0.0060607325,0.01140275421958244,0.5603878770096116
8396421842.0,0.0096512529,0.0060715496,0.011402210184215101,0.5615382196855523
8396422102.0,0.0096540204,0.0060719009,0.01140473982268061,0.5614350775236878
8396422362.0,0.0096695676,0.0060233588,0.011392163482170856,0.5571015719271439
8396422622.0,0.0096527532,0.0060568702,0.011395671150035801,0.5603777716962807
8396422882.0,0.0096746285,0.0060330697,0.011401594915540122,0.557589809355996
8396423142.0,0.0096721241,0.0060396634,0.011402960957185654,0.5581966830133374
8396423402.0,0.0096490472,0.0060389544,0.01138301726753971,0.5592176313318863
8396423662.0,0.0096691128,0.0060376453,0.011399337836371723,0.5581864351931388
8396423922.0,0.0096694241,0.0060501942,0.011406253209681716,0.5591051692116314
8396424182.0,0.0096677641,0.0060351898,0.011396893375620958,0.5580663621483938
8396424442.0,0.0096598557,0.0060168787,0.01138049390120377,0.5570694735351378
8396424702.0,0.0096805533,0.0060335332,0.011406867890426501,0.5573494480938637
8396424962.0,0.0096621627,0.0060060037,0.011376707277841203,0.5561508858603513
8396425223.0,0.0096568867,0.0060108069,0.011374764187697454,0.5567543830541963
8396425483.0,0.0096667585,0.0060165795,0.011386195535697712,0.556726647800596
8396425743.0,0.009629635,0.0060058119,0.011348993206950412,0.5576496241535555
8396426003.0,0.0096697868,0.0059808777,0.011369946122115598,0.5539200669485039
8396426263.0,0.0095387853,0.0062809098,0.011420956742551482,0.5822996152255906
8396426523.0,0.0095487636,0.0062748534,0.01142596479428221,0.5813766442027317
8396426783.0,0.0095321199,0.0062997193,0.011425750436919603,0.5839953740924015
8396427043.0,0.0095153999,0.0062785834,0.011400151085300386,0.5832572954969762
8396427303.0,0.0095335012,0.0062598928,0.01140499465137504,0.5810153150424373
8396427563.0,0.0095277492,0.006261028,0.01140081034115052,0.5813754681640141
8396427823.0,0.0095381438,0.0062661024,0.01141228401490097,0.5812468588101499
8396428083.0,0.0095331577,0.0062497637,0.011399150934999805,0.5802890823271548
8396428343.0,0.0095316003,0.0062551593,0.0114008079602867,0.5807597710838176
8396428603.0,0.0095288107,0.0062540681,0.011397877046006071,0.5808140133381586
8396428863.0,0.0095157526,0.0062476683,0.011383448806545038,0.5809734292794663
8396429123.0,0.009538159,0.0062450194,0.01140073438054134,0.5797005483359091
8396429383.0,0.0095459329,0.0062351737,0.011401851867151848,0.5786046286363079
8396429643.0,0.0095509241,0.0062466486,0.011412307825143991,0.5792072782014371
8396429903.0,0.0095387766,0.0062339477,0.011395190342905329,0.5788579835551125
8396430163.0,0.0095551404,0.006248753,0.01141698831210408,0.5791593959431771
8396430423.0,0.0095578637,0.0062371177,0.011412904788502837,0.5781755648578192
8396430683.0,0.0095723043,0.0062310759,0.011421703746961715,0.5770416255266778
8396430943.0,0.0095406041,0.0062228628,0.011390660561203669,0.5779555947080762
8396431203.0,0.009533812,0.0062208359,0.011383864482067274,0.5781324166618087
8396431463.0,0.009543337,0.0062055718,0.011383514503900991,0.5765521932132058
8396431723.0,0.0095448318,0.0062200787,0.011392681559864866,0.5775481790824685
8396431983.0,0.0095634859,0.0062201512,0.011408354110491147,0.5766607709426164
8396432243.0,0.0095294332,0.006227136,0.01138364264529409,0.5788061096637456
8396432503.0,0.0095506713,0.0062183042,0.011396606047608268,0.577137979490288
8396432763.0,0.0095424851,0.0062189418,0.011390094775527956,0.5775770403029549
8396433023.0,0.0095376365,0.0062053722,0.011378627076526636,0.5768105915079916
8396433283.0,0.0095355169,0.0061925366,0.011369854532601777,0.5759659940224383
8396433543.0,0.0095438805,0.0062002727,0.011381082398113352,0.5761358209218607
8396433803.0,0.0095650404,0.0061978093,0.0113974926177997,0.5749431552705917
8396434063.0,0.0095378921,0.0061874003,0.011369050452156615,0.5754733157102384
8396434323.0,0.0095447348,0.0061698816,0.011365271723999808,0.5738524947136405
8396434583.0,0.0095320671,0.0061845628,0.011362619426261105,0.5755428131980573
8396434843.0,0.0095481933,0.0061792449,0.011373260870495363,0.574378810492858
8396435104.0,0.0095496876,0.0061892113,0.011379932766657344,0.575042717649117
8396435364.0,0.009561249,0.0061960089,0.011393331765944509,0.5749914973090124
8396435624.0,0.0095496454,0.0061867946,0.011378583158211322,0.5748665033934601
8396435884.0,0.0095542287,0.0061881955,0.011383191538321928,0.5747508663757603
8396436144.0,0.0095384606,0.0061753015,0.011362947647228451,0.5745528237702443
8396436404.0,0.0095781089,0.0061677313,0.011392149906372322,0.5721035963515237
8396436664.0,0.0095430686,0.0061649272,0.011361183287211142,0.5735658827509362
8396436924.0,0.0095614829,0.0061743491,0.011381763574054031,0.5733833065706551
8396437184.0,0.0095427354,0.0061552353,0.011355647075916865,0.5728648998406256
8396437444.0,0.0095559081,0.0061849477,0.011382836099469275,0.574431180337319
8396437704.0,0.009543506,0.0061626075,0.011360292160463668,0.5733734732395304
8396437964.0,0.0095763922,0.0061622562,0.011387742930127079,0.5717809826284206
8396438224.0,0.0095549406,0.0061407701,0.011358078503452173,0.5712121915952226
8396438484.0,0.0095694201,0.0061658828,0.011383844331051784,0.572380302567138
8396438744.0,0.0095772326,0.0061560301,0.011385081943781027,0.5712811589095922
8396439004.0,0.0095566015,0.006161543,0.011370718727092463,0.5726700730735478
8396439264.0,0.0095485162,0.0061507991,0.011358102446721603,0.5722608021838914
8396439524.0,0.0095633624,0.0061322593,0.011360567966266928,0.5701811740344191
8396439784.0,0.0095576727,0.0061059454,0.011341590570467021,0.568498877210356
8396440044.0,0.0095464574,0.0061532097,0.011357677513567149,0.5725373948841582
8396440304.0,0.0095467964,0.006133434,0.011347261085187427,0.5710563577990024
8396440564.0,0.0095507836,0.0061244814,0.011345780704428184,0.5702025371383388
8396440824.0,0.0095762986,0.0061349186,0.011372894139355555,0.5697640283188147
8396441084.0,0.009553974,0.0061536274,0.011364222339021126,0.5722099502603477
8396441344.0,0.0095592677,0.0061452081,0.011364118159917596,0.5713348579193821
8396441604.0,0.0095373014,0.0061513072,0.011348951416902524,0.5728335727398578
8396441864.0,0.0095736927,0.0061242728,0.011364959711448746,0.5690989704480907
8396442124.0,0.00955996,0.0061122587,0.011346917714398289,0.5688592282261966
8396442384.0,0.0095529918,0.006116513,0.011343340936868479,0.5695061175063814
8396442644.0,0.0095461669,0.0061123298,0.011335337580620334,0.5695199805175393
8396442904.0,0.0095801789,0.00611741,0.011366729206948901,0.568282871720281
8396443164.0,0.0095641584,0.0061103355,0.011349419624934609,0.5685171944898739
8396443424.0,0.0095572396,0.0061391514,0.01135913767342971,0.5709828885658425
8396443684.0,0.0095598342,0.0061148042,0.0113481831292867,0.5690541836102989
8396443944.0,0.0095712607,0.0061008687,0.011350314104993051,0.5674774492810228
8396444204.0,0.0095601792,0.0060860989,0.011333032522528727,0.5669040461944815
8396444464.0,0.0095719508,0.0060926335,0.011346471922273588,0.5668327251008322
8396444724.0,0.0095746476,0.0060881022,0.011346315043300649,0.5663681942853638
8396444984.0,0.0095681576,0.0061010018,0.011347769068060955,0.5676343236904806
8396445245.0,0.0095646301,0.0060936896,0.01134086424797397,0.5672579022232677
8396445505.0,0.0095514603,0.0060731972,0.011318750730207107,0.5663561759324309
8396445765.0,0.0095720742,0.0060843003,0.011342103624587714,0.5662070741017344
8396446025.0,0.0095791384,0.0060699157,0.011340360183497745,0.5648024227319375
8396446285.0,0.0095618563,0.0060871532,0.011335013453107142,0.5669030521149316
8396446545.0,0.0095621951,0.0060853721,0.011334342889021949,0.5667544398529146
8396446805.0,0.0095861943,0.0060675635,0.011345062713968785,0.5642943996875552
8396447065.0,0.0095667978,0.0060597683,0.01132450493380482,0.5646288028982019
8396447325.0,0.0095854777,0.0060776894,0.0113498762627647,0.5650820114273356
8396447585.0,0.0095632975,0.0060535212,0.011318205599491277,0.5643280085535929
8396447845.0,0.0095796983,0.0060838946,0.01134832115437927,0.5658165123109663
8396448105.0,0.0095940574,0.0060589027,0.011347080651981022,0.5632788586398401
8396448365.0,0.0095717648,0.0060738508,0.011336240334748539,0.5654437878264507
8396448625.0,0.0095752021,0.0060654906,0.011334666800331307,0.5646585317193803
8396448885.0,0.0095829264,0.0060584285,0.011337417443025957,0.5637677339872973
8396449145.0,0.0095731571,0.0060383464,0.011318434702187108,0.5627292612966719
8396449405.0,0.0095784152,0.00605206,0.011330201586343954,0.5635054006762934
8396449665.0,0.0095767657,0.0060524739,0.011329028271783847,0.5636140588262756
8396449925.0,0.0095659513,0.0060571799,0.011322404895380472,0.5644756831886752
8396450185.0,0.0095717351,0.0060327252,0.01131423378595683,0.5623760963022306
8396450445.0,0.0095700518,0.0060388717,0.01131608867337757,0.562914923229679
8396450705.0,0.0096078472,0.0060397429,0.011348533919262356,0.5612025535849445
8396450965.0,0.0095823276,0.0060375869,0.011325787293110063,0.5622405696585715
8396451225.0,0.0095787883,0.0060170933,0.011311878583025977,0.560874559896664
8396451485.0,0.0095780162,0.0060473544,0.01132735139238921,0.5631730255090471
8396451745.0,0.009589624,0.0060256994,0.01132563206715353,0.561009100763778
8396452005.0,0.0095726419,0.0060271987,0.011312055388607205,0.5619200455928056
8396452265.0,0.0096016319,0.0060252039,0.011335537798431656,0.5604084902355067
8396452525.0,0.0095827774,0.0060238955,0.011318875372265171,0.5611959811146885
8396452785.0,0.0095781624,0.0060179687,0.011311814276894464,0.5609695237314436
8396453045.0,0.0095841312,0.0060399308,0.011328562791793234,0.5623307503657724
8396453305.0,0.009574593,0.0060019561,0.011300279117879177,0.5599377298118153
8396453565.0,0.0095812489,0.0060171571,0.011313996201600547,0.5607636499877507
8396453825.0,0.0095752313,0.0060409075,0.011321555452854345,0.5628228531540247
8396454085.0,0.0095934704,0.0059847778,0.011307176465902041,0.5577637645911367
8396454345.0,0.0095868432,0.0060011041,0.011310208351768903,0.5592986274499314
8396454605.0,0.009612489,0.0059914894,0.011326865850950711,0.5573777828604602
8396454865.0,0.0095875775,0.0059753699,0.01129719822612369,0.5573333045389707
8396455126.0,0.0095761426,0.0059853182,0.01129276498696338,0.5586165170839443
8396455386.0,0.0095645228,0.0059971323,0.011289184745384545,0.5600494713791887
8396455646.0,0.0095713033,0.005984481,0.011288217737975817,0.5587808439923317
8396455906.0,0.0095971922,0.0059968659,0.011316735339589932,0.5584959657088996
8396456166.0,0.0095940829,0.0059967211,0.011314021859765768,0.5586307413999512
8396456426.0,0.0095809654,0.0059584228,0.011282628251411858,0.5563685320919769
8396456686.0,0.0095847552,0.0059845824,0.011299679586002285,0.558157323078572
8396456946.0,0.0095782974,0.0059830856,0.01129340933375631,0.5583477502524589
8396457206.0,0.0095775096,0.0059733954,0.011287610143109717,0.5576566207466013
8396457466.0,0.0095745105,0.0059594155,0.01127767194132949,0.5567455470064168
8396457726.0,0.0095968464,0.0059735592,0.011304108560213742,0.5567636676724329
8396457986.0,0.0095884019,0.0059757939,0.011298122132956468,0.5573265591497791
8396458246.0,0.0095976878,0.0059575247,0.011296358336091281,0.5555192453961263
8396458506.0,0.0096027306,0.0059510936,0.01129725409168694,0.5548001742195977
8396458766.0,0.0096030589,0.0059689806,0.011306965536342877,0.5561295421184556
8396459026.0,0.0095851179,0.0059678175,0.011291117343744448,0.5568808655964953
8396459286.0,0.0095921213,0.0059637857,0.011294933860339255,0.5562501217080991
8396459546.0,0.0095965296,0.005964366,0.011298984120071688,0.5560877361805918
8396459806.0,0.0096001997,0.0059502493,0.011294658074153046,0.5548546735334096
8396460066.0,0.009600257,0.0059522657,0.011295769182727022,0.5550037299499034
8396460326.0,0.0095940035,0.0059599628,0.011294514586089837,0.5558746850025474
8396460586.0,0.0095972968,0.0059380691,0.011285777354868607,0.5540728411920577
8396460846.0,0.0095886918,0.0059694856,0.011295032924431634,0.5568389985887595
8396461106.0,0.0096038295,0.0059411871,0.011292973267580006,0.5540032668189814
8396461366.0,0.0095870941,0.0059583393,0.011287788999453317,0.5560755155216422
8396461626.0,0.0096064996,0.0059274263,0.011288012097208784,0.552842100160487
8396461886.0,0.009579851,0.0059428589,0.01127346961177038,0.5552483790971909
8396462146.0,0.0096148567,0.005930916,0.011296956845123862,0.552716533430379
8396462406.0,0.0096092342,0.0059401872,0.011297044121428113,0.5536763024543903
8396462666.0,0.0096169083,0.0059041928,0.011284698395180117,0.550605598389813
8396462926.0,0.0095810957,0.0059277749,0.011266583780260478,0.5540524464028351
8396463186.0,0.0096105772,0.005919516,0.01128733200501411,0.5520559863013216
8396463446.0,0.0096051723,0.0059122301,0.011278909507041595,0.5517572849226615
8396463706.0,0.009601468,0.0059315652,0.011285905080093268,0.5533883111285538
8396463966.0,0.0095879963,0.0059095359,0.01126287208496139,0.5523529589921787
8396464226.0,0.0095680267,0.0059023713,0.011242113764545196,0.5527424511693427
8396464486.0,0.0096165226,0.0059009769,0.011282687414381574,0.5503805796934346
8396464746.0,0.0096130145,0.0058903878,0.011274161441615029,0.5497427864784361
8396465007.0,0.0095899667,0.005910082,0.011264836019837701,0.5523024512112586
8396465267.0,0.0096007938,0.0058941462,0.011265709077421308,0.5505940030578401
8396465527.0,0.0096084513,0.0058741608,0.011261798323923596,0.5487258997843063
8396465787.0,0.0095968895,0.0059184443,0.011275117338964271,0.5526117114062931
