frequency,Re(S21),Im(S21),Amplitude,phase
7811500000.0,-0.008613385,0.0071686605,0.011206252474511059,2.4474823449918377
7811500100.0,-0.0085978686,0.0071889765,0.011207351497138751,2.445203373036598
7811500200.0,-0.0086276923,0.0072281109,0.01125533924882667,2.444235653768608
7811500300.0,-0.0086181553,0.0072269956,0.011247313731613315,2.443767125937494
7811500400.0,-0.0086091058,0.0072379364,0.011247418637449155,2.4425047847917907
7811500500.0,-0.0086116074,0.0072762508,0.011274023581500767,2.4400462862882186
7811500600.0,-0.0086116937,0.0072643911,0.011266438942113826,2.4408552972346897
7811500700.0,-0.0085917172,0.0072819296,0.011262508741134544,2.4385213278213342
7811500800.0,-0.008587884,0.0072797033,0.011258145128460855,2.4384520399514407
7811500900.0,-0.0085790867,0.0072996713,0.011264365481204904,2.436594821663357
7811501000.0,-0.0085772369,0.0072926353,0.011258397863707238,2.4369643217454513
7811501100.0,-0.0085514014,0.0073111669,0.011250761189518581,2.4342219877036535
7811501200.0,-0.0085601545,0.007310422,0.01125693185916812,2.43477758063043
7811501300.0,-0.0085589788,0.0073472034,0.011279960811094204,2.432230286485632
7811501400.0,-0.0085480246,0.007323376,0.011256134354190215,2.4332026162214917
7811501500.0,-0.0085453243,0.0073498487,0.011271328373579673,2.4312631373826936
7811501600.0,-0.0085320481,0.0073459101,0.011258696193520617,2.4307594240881047
7811501700.0,-0.0085132831,0.0073583887,0.01125263850841363,2.4288309838328628
7811501800.0,-0.0085270512,0.0073550019,0.011260846110147542,2.4298580495456266
7811501900.0,-0.0085261457,0.0073354157,0.011247376760357723,2.431124108095384
7811502000.0,-0.0085087024,0.0073555812,0.011247337076906658,2.428753507877118
7811502100.0,-0.0084983215,0.0073795263,0.011255171110638609,2.4265408690033428
7811502200.0,-0.0084856414,0.0073803466,0.011246138266335049,2.425746537111195
7811502300.0,-0.0085018082,0.0073633689,0.011247219399792754,2.4278288208101526
7811502400.0,-0.008510581,0.0073887751,0.011270491845342909,2.4266344433338567
7811502500.0,-0.0084876816,0.0073950935,0.011257359673419022,2.424877043031714
7811502600.0,-0.0084943058,0.007397584,0.011263990414634132,2.4250966597076733
7811502700.0,-0.008490833,0.0073821474,0.011251237499458258,2.4259285834508315
7811502800.0,-0.0084887071,0.0074225485,0.011276186166627556,2.423101041768897
7811502900.0,-0.0084694772,0.0074029338,0.011248798730909105,2.423288426765202
7811503000.0,-0.0084825339,0.0073937351,0.011252586373524144,2.424667544871143
7811503100.0,-0.0084796676,0.007401673,0.011255644175497855,2.4239685902282857
7811503200.0,-0.0084709019,0.0074078461,0.01125310458676666,2.423043074463151
7811503300.0,-0.008471209,0.0074017122,0.011249298885411029,2.423471503365691
7811503400.0,-0.0084469489,0.0073867272,0.011221171260008067,2.423054604975167
7811503500.0,-0.0084585044,0.0074264462,0.011256038372638652,2.421074118451435
7811503600.0,-0.0084656603,0.0074261539,0.011261224003698767,2.421512874734028
7811503700.0,-0.0084423986,0.0074313477,0.011247178435482263,2.4198018439688926
7811503800.0,-0.0084414758,0.0074113693,0.011233294645070436,2.42108254950988
7811503900.0,-0.0084397884,0.0074413528,0.011251833616386372,2.4189811152077882
7811504000.0,-0.0084263417,0.0074073666,0.011219283149647059,2.4204606656993213
7811504100.0,-0.0084474108,0.0074190474,0.011242820533451709,2.4209176324707298
7811504200.0,-0.0084402898,0.0074189403,0.011237400370323563,2.4205066281235874
7811504300.0,-0.0084429579,0.0074230334,0.011242106695752714,2.4203898527278054
7811504400.0,-0.008435633,0.0074351208,0.011244595387175194,2.4191524285745514
7811504500.0,-0.0084444889,0.0074419304,0.011255741684165793,2.419218808032665
7811504600.0,-0.0084215374,0.0074213391,0.011224908294359806,2.4192431821416434
7811504700.0,-0.0084351617,0.0074319971,0.011242176559703878,2.419333154316071
7811504800.0,-0.008424918,0.007426171,0.011230639297384855,2.4191194070411837
7811504900.0,-0.0084065045,0.007460752,0.011239757039812927,2.415728090614799
7811505001.0,-0.0084003308,0.0074393502,0.011220939753321406,2.4167894070824127
7811505101.0,-0.0084174491,0.0074345435,0.011230578186562038,2.418120386987086
7811505201.0,-0.0084255538,0.0074408742,0.011240843638131442,2.418175570248657
7811505301.0,-0.008419344,0.0074436822,0.011238049567648865,2.4176225109819813
7811505401.0,-0.0084277944,0.0074432512,0.011244096534402967,2.4181490219811677
7811505501.0,-0.0084109018,0.0074613432,0.011243438594906341,2.415948368090279
7811505601.0,-0.0084062165,0.0074385425,0.011224811373434233,2.4171909120823307
7811505701.0,-0.00840912,0.0074486131,0.011233660858682338,2.4166908329656236
7811505801.0,-0.0084011066,0.0074341977,0.011218105345701154,2.4171791040638406
7811505901.0,-0.0084055211,0.0074514664,0.011232859674761106,2.4162882486664268
7811506001.0,-0.0084123746,0.0074543483,0.011239900132493973,2.4165008699037434
7811506101.0,-0.0084018211,0.0074457887,0.011226324739711252,2.4164480663140178
7811506201.0,-0.0084009151,0.0074625694,0.011236784084747039,2.4152769450364677
7811506301.0,-0.0084080125,0.0074739487,0.011249648144292688,2.414939695303664
7811506401.0,-0.008391827,0.0074538458,0.011224196078477364,2.415320280577129
7811506501.0,-0.0083889291,0.0074392474,0.011212338441343695,2.416122085671632
7811506601.0,-0.0083824093,0.0074641968,0.01122403757753228,2.4140735673688734
7811506701.0,-0.0083933654,0.0074593434,0.011228997582021324,2.4150452180337107
7811506801.0,-0.0083981254,0.0074392748,0.01121923882373667,2.416664112717916
7811506901.0,-0.0083917857,0.0074583433,0.011227152444648615,2.415018333533292
7811507001.0,-0.0084020145,0.007492361,0.011257411825660962,2.4133632846467132
7811507101.0,-0.0083956891,0.0074773068,0.011242673723149,2.413988215918221
7811507201.0,-0.008376958,0.0074649071,0.011220439534411939,2.413703199670201
7811507301.0,-0.0083886429,0.0074821568,0.011240640554857479,2.4132490997356006
7811507401.0,-0.0083767883,0.007459329,0.011216602487083952,2.414064414082206
7811507501.0,-0.008397452,0.0074582583,0.01123133193178008,2.4153591417714684
7811507601.0,-0.0083840574,0.0074574197,0.01122076321238635,2.4146223122295902
7811507701.0,-0.0083797008,0.0074579674,0.011217872491563781,2.4143277223124584
7811507801.0,-0.0083821181,0.0074636406,0.01122345022033403,2.414093323453625
7811507901.0,-0.0083833608,0.0074813539,0.01123616458049729,2.412989512867625
7811508001.0,-0.0083880732,0.0074567524,0.01122332073690599,2.4149045404178575
7811508101.0,-0.0083796902,0.0074537931,0.01121508980907347,2.414605128594318
7811508201.0,-0.008368986,0.0074590862,0.01121061521983635,2.4136177479418173
7811508301.0,-0.008388593,0.0074747523,0.011235675968360972,2.413737953332589
7811508401.0,-0.0083574934,0.0074840956,0.011218706827481629,2.411271948829872
7811508501.0,-0.0083796619,0.0074759127,0.011229782021763954,2.4131317129670937
7811508601.0,-0.0083790498,0.0074534253,0.011214366868154444,2.4145916805759016
7811508701.0,-0.008374446,0.0074666209,0.011219704696257956,2.4134402060021816
7811508801.0,-0.0083565084,0.0074960865,0.011225976369775273,2.410417693519504
7811508901.0,-0.0083666475,0.0074771906,0.011220925525908485,2.412274605228396
7811509001.0,-0.0083703349,0.0074875545,0.01123058229695274,2.4118053077527226
7811509101.0,-0.0083707296,0.007457948,0.011211159726229046,2.4137970169264777
7811509201.0,-0.0083593784,0.0074704496,0.011211013534044401,2.412290878344458
7811509301.0,-0.0083478268,0.0074747154,0.011205247993408954,2.411320069730647
7811509401.0,-0.0083529525,0.0074843311,0.01121548159829454,2.4109862088399447
7811509501.0,-0.0083617627,0.007472726,0.011214308240912022,2.4122811944470444
7811509601.0,-0.0083437676,0.0074869903,0.011210418436218332,2.410262794880615
7811509701.0,-0.0083550428,0.0074471797,0.011192284202696245,2.413583013616288
7811509801.0,-0.0083379585,0.0074782009,0.011200225026689554,2.4105004838249764
7811509901.0,-0.0083707355,0.0074840828,0.011228566612360462,2.4120595342148463
7811510001.0,-0.0083444276,0.0074655503,0.011196602755008854,2.411727373467446
7811510101.0,-0.008349562,0.0074744839,0.011206386356145464,2.411438749414968
7811510201.0,-0.0083321016,0.0074839855,0.011199730176970017,2.4097668166854214
7811510301.0,-0.0083477575,0.0074960511,0.011219440154152856,2.4098992170114495
7811510401.0,-0.0083348378,0.0074828627,0.011201015817298005,2.410004627417301
7811510501.0,-0.0083496483,0.0074925884,0.011218534113934291,2.4102414812160933
7811510601.0,-0.0083294283,0.0074940271,0.011204455273701409,2.4089406380037106
7811510701.0,-0.0083493158,0.0074924509,0.01121819481097741,2.410230808265397
7811510801.0,-0.0083290776,0.0074867583,0.01119933406544517,2.409402191000868
7811510901.0,-0.0083395623,0.0074890651,0.011208675007672374,2.409874452965229
7811511001.0,-0.0083416318,0.0074898941,0.011210768694250455,2.4099427743809185
7811511101.0,-0.008336498,0.0074844888,0.011203337516174786,2.409995620785269
7811511201.0,-0.008343919,0.0074825168,0.011207543974521948,2.4105688995473966
7811511301.0,-0.0083244774,0.0075210025,0.011218841410240054,2.4068579814296562
7811511401.0,-0.0083149014,0.0074869609,0.0111889306374582,2.40854174493816
7811511501.0,-0.0083317735,0.0074826884,0.011198619350026896,2.4098334087158557
7811511601.0,-0.0083314319,0.0075030989,0.011212013673177482,2.4084586629547573
7811511701.0,-0.0083242218,0.0074900755,0.011197941756023537,2.408891995004917
7811511801.0,-0.0083302233,0.0074852465,0.011199175656878729,2.409570975245959
7811511901.0,-0.0083264111,0.0074789595,0.011192138178598559,2.4097611486924104
7811512001.0,-0.0083189817,0.0074771509,0.011185403081977229,2.4094375965256627
7811512101.0,-0.0083136926,0.007496762,0.0111945935670724,2.407818859284677
7811512201.0,-0.0083159033,0.0074881542,0.01119047367263462,2.4085224094484685
7811512301.0,-0.008325176,0.0074875794,0.011196981767524691,2.4091147132918644
7811512401.0,-0.0083218196,0.0074895722,0.011195819451650558,2.4087818963864716
7811512501.0,-0.0083052516,0.007501051,0.011191200572052293,2.4070291333745595
7811512601.0,-0.0083141506,0.0075028271,0.011198996146618446,2.4074440444810694
7811512701.0,-0.008326165,0.0074986799,0.011205142741165281,2.4084371599186123
7811512801.0,-0.0083071937,0.0074983633,0.011190840868679466,2.4073236888459824
7811512901.0,-0.0083020047,0.0074907209,0.011181868432445398,2.4075201006118467
7811513001.0,-0.0083111476,0.0074980295,0.01119355264479763,2.4075825053655318
7811513101.0,-0.0083193525,0.0074975225,0.011199306659667039,2.4081068697724497
7811513201.0,-0.0083131984,0.0075062449,0.011200579455391518,2.4071605492319263
7811513301.0,-0.0083208117,0.0074918095,0.011196567194062076,2.4085731516193962
7811513401.0,-0.0083030694,0.0074888234,0.011181387989762447,2.407709884268254
7811513501.0,-0.0083211527,0.0075025845,0.011204033043344596,2.407878816575855
7811513601.0,-0.008330825,0.0074712674,0.011190285150206305,2.4105361126201075
7811513701.0,-0.0083048634,0.0075033045,0.011192423084943661,2.4068564655576834
7811513801.0,-0.0082962816,0.0074893329,0.011176689835256277,2.407269277305378
7811513901.0,-0.0083068657,0.0075087285,0.011197545331212049,2.4066169197814022
7811514001.0,-0.0083197869,0.0074899057,0.01119453176583568,2.408638282731881
7811514101.0,-0.0083207294,0.0074895066,0.011194965246014295,2.4087211064216407
7811514201.0,-0.0082839019,0.0074891584,0.01116738663381519,2.4065380476611864
7811514301.0,-0.0083067789,0.0074953969,0.011188545498947341,2.4074956581011033
7811514401.0,-0.0082822115,0.0075167889,0.011184683397302556,2.404604172151078
7811514501.0,-0.008303695,0.0075078527,0.011194605969748212,2.406485029119079
7811514601.0,-0.0082877373,0.0075182201,0.01118973739753777,2.4048413427531194
7811514701.0,-0.0083170261,0.0075140388,0.011208644085525538,2.4068733130240814
7811514801.0,-0.0083009691,0.0074891333,0.011180036027863403,2.407563478837188
7811514901.0,-0.0082902113,0.0074920645,0.011174016013538192,2.406723793793351
7811515002.0,-0.0082722367,0.0074911755,0.011160090070990787,2.4057029934827354
7811515102.0,-0.0082854129,0.0074998403,0.011175673198916946,2.4059196998729715
7811515202.0,-0.0082850959,0.0075196601,0.011188748906456379,2.404587403604485
7811515302.0,-0.0082815034,0.0075175966,0.011184701927389174,2.4045081494897516
7811515402.0,-0.008295158,0.0075144103,0.011192676552179558,2.405538906743459
7811515502.0,-0.0082992714,0.0075025549,0.011187771708359622,2.4065710986347377
7811515602.0,-0.0082805579,0.0074886503,0.011164565484197874,2.406370940995301
7811515702.0,-0.0082718753,0.0075074855,0.011170777032572996,2.404599031293778
7811515802.0,-0.0082636675,0.0075084414,0.011165343380648453,2.404041591199638
7811515902.0,-0.0082865763,0.0075069895,0.011181334362625596,2.405515497007819
7811516002.0,-0.0082920424,0.0075155098,0.011191106054242084,2.4052791843181285
7811516102.0,-0.0082728783,0.0074985411,0.011165510915090276,2.4052525922090155
7811516202.0,-0.0082809033,0.0074971658,0.011170535103415617,2.405826283447685
7811516302.0,-0.0082596645,0.0075291816,0.011176342568941719,2.402427277521033
7811516402.0,-0.0082835669,0.007511781,0.011182322405419038,2.4050172563454333
7811516502.0,-0.0082813302,0.0075181675,0.011184957417866565,2.4044599485462563
7811516602.0,-0.0082931617,0.0074902145,0.011174965066538558,2.4070236392876083
7811516702.0,-0.008268022,0.0075068838,0.011167519517743698,2.404407035850795
7811516802.0,-0.008261666,0.0075062608,0.0111623956341447,2.4040655947329506
7811516902.0,-0.0082838623,0.0074988433,0.011173854547259696,2.40589272340568
7811517002.0,-0.0082843354,0.0075131566,0.011183815767251207,2.4049723017279336
7811517102.0,-0.0082767005,0.0074877339,0.011161090006084059,2.406200018635542
7811517202.0,-0.008287844,0.007512217,0.011185783943176491,2.4052452409150784
7811517302.0,-0.0082878412,0.0075071266,0.011182363862119895,2.405582354967853
7811517402.0,-0.0082794592,0.0075055775,0.011175112449231592,2.4051815517595942
7811517502.0,-0.0082713703,0.0075017621,0.01116655726912814,2.4049481757424833
7811517602.0,-0.0082719771,0.0075088083,0.011171741459104453,2.404517476673469
7811517702.0,-0.0082829836,0.007513687,0.011183170822796098,2.404855964989526
7811517802.0,-0.0082613144,0.0075087836,0.011163832082545686,2.403877160663221
7811517902.0,-0.0082973638,0.0075300498,0.011204815751275453,2.4046366249661615
7811518002.0,-0.0082740019,0.0075176544,0.011179187587613108,2.4040533046618773
7811518102.0,-0.0082559835,0.0075247774,0.011170655239144345,2.4024966607828993
7811518202.0,-0.0082573172,0.007513719,0.011164195472687533,2.403309207126337
7811518302.0,-0.0082553017,0.007524904,0.011170236629867734,2.4024471684199336
7811518402.0,-0.0082337876,0.007520625,0.011151459932786325,2.401431090985373
7811518502.0,-0.0082465623,0.0075160181,0.011157791799783186,2.4025080873329387
7811518602.0,-0.0082634443,0.007524149,0.011175747396635426,2.402987919312235
7811518702.0,-0.0082661504,0.0075196098,0.011174693462447916,2.403451307810033
7811518802.0,-0.0082515892,0.0075085103,0.011156453345519925,2.403308976747523
7811518902.0,-0.0082906132,0.007520749,0.011193566578754748,2.404846634362536
7811519002.0,-0.0082547929,0.007518258,0.0111653844168687,2.402856373608326
7811519102.0,-0.0082542494,0.007509506,0.011159091070577224,2.4034034218958626
7811519202.0,-0.008236933,0.0075149005,0.011149923532087082,2.402000424071143
7811519302.0,-0.0082481913,0.0075172436,0.011159821282759714,2.402525252842073
7811519402.0,-0.0082501484,0.0075097684,0.01115623458177808,2.4031386497107428
7811519502.0,-0.0082325772,0.0075101274,0.011143488722935498,2.402053400745483
7811519602.0,-0.0082629525,0.0075327083,0.0111811483466657,2.402392280260663
7811519702.0,-0.0082423465,0.0075228256,0.011159264350040178,2.401802741812297
7811519802.0,-0.0082483323,0.0075180649,0.011160478733989653,2.402479372822561
7811519902.0,-0.0082459219,0.0075170207,0.011157993914011968,2.4024030157561125
7811520002.0,-0.0082450735,0.0075053641,0.011149516908546804,2.4031243781197307
7811520102.0,-0.0082378291,0.0075143594,0.01115022087104893,2.402090439650522
7811520202.0,-0.0082354872,0.0075073981,0.011143799874963991,2.4024103290442778
7811520302.0,-0.008237802,0.007533938,0.011163404658931253,2.40079307401208
7811520402.0,-0.0082413678,0.0075294122,0.01116298308215083,2.4013078289498986
7811520502.0,-0.0082449994,0.007514328,0.011155498213777112,2.402525687698234
7811520602.0,-0.0082516011,0.0075264072,0.01116851494397232,2.4021244876090266
7811520702.0,-0.0082488464,0.0075207673,0.011162679235360223,2.4023314748353153
7811520802.0,-0.0082381333,0.0075310972,0.01116173218207715,2.4010009177693257
7811520902.0,-0.0082417305,0.0075364262,0.011167982875285792,2.4008660633323116
7811521002.0,-0.0082315068,0.0075175804,0.011147722604591057,2.401494765129758
7811521102.0,-0.0082404662,0.0075136363,0.011151682099218041,2.4022977110100525
7811521202.0,-0.0082219613,0.0075366997,0.011153586418129273,2.3996518729879357
7811521302.0,-0.0082022377,0.0075262744,0.011132003846181363,2.3991449984376976
7811521402.0,-0.0082326823,0.0075088969,0.011142737119198448,2.402141341404492
7811521502.0,-0.0082358478,0.0075177225,0.011151024193847446,2.401747878259933
7811521602.0,-0.0082240431,0.0075187418,0.011142996148510725,2.4009661098998576
7811521702.0,-0.0082158942,0.0075267776,0.011142409907441721,2.3999403654040035
7811521802.0,-0.0082307056,0.0075341945,0.011158342235193436,2.4003469069855363
7811521902.0,-0.0082292433,0.0075249254,0.011151006571882201,2.400871504669834
7811522002.0,-0.0082234672,0.0075390408,0.011156278455360484,2.3995883934587137
7811522102.0,-0.0082373054,0.0075208056,0.011154179356898495,2.4016318302676964
7811522202.0,-0.0082142208,0.0075198856,0.011136521125927971,2.4002951841332565
7811522302.0,-0.0082134838,0.0075160593,0.011133394070721604,2.4005039790830995
7811522402.0,-0.0082213912,0.0075170653,0.011139907719002952,2.400916555025517
7811522502.0,-0.0082086902,0.0075465827,0.011150493497936105,2.398194279285765
7811522602.0,-0.0082156645,0.0075149802,0.011134274587190325,2.400707697857667
7811522702.0,-0.0082286948,0.0075290992,0.01115341888727343,2.40056215300615
7811522802.0,-0.0082292872,0.007514921,0.011144290262566066,2.4015366608306215
7811522902.0,-0.0082055427,0.0075127946,0.011125332071597344,2.400238594776873
7811523002.0,-0.0082292377,0.0075107197,0.011141421073412016,2.401812118516861
7811523102.0,-0.0082036127,0.0075168935,0.011126677366668971,2.3998497573990667
7811523202.0,-0.008212349,0.0075430923,0.011150825868253897,2.398646783008265
7811523302.0,-0.008212232,0.00752094,0.01113576638159332,2.400104748532191
7811523402.0,-0.0082225631,0.0075277278,0.011147969759753318,2.400281616464034
7811523502.0,-0.0082090097,0.0075298568,0.011139415769383973,2.3993190591991995
7811523602.0,-0.0082027767,0.0075286099,0.011133980088739198,2.399023171450669
7811523702.0,-0.0082050995,0.007541778,0.011144598386939937,2.3982936033433186
7811523802.0,-0.0082098444,0.0075092629,0.011126121263653735,2.4007337993166042
7811523902.0,-0.0082108374,0.0075081755,0.011126120174977395,2.400866152563967
7811524002.0,-0.0082026969,0.0075266797,0.011132616212717553,2.3991460611347293
7811524102.0,-0.0081965645,0.0075099587,0.011116795818866421,2.3998813666621004
7811524202.0,-0.0081973625,0.0075220467,0.011125553402567762,2.399128724740002
7811524302.0,-0.0081894032,0.0075347363,0.011128278208362152,2.397804971914725
7811524402.0,-0.0081978857,0.0075281119,0.011130040374104044,2.398758992841389
7811524502.0,-0.0081962503,0.0075400097,0.011136887592875497,2.397872790818998
7811524602.0,-0.0081568716,0.007527664,0.011099562135317887,2.396289422408664
7811524702.0,-0.0081917611,0.0075319412,0.011128121501840761,2.39813327776426
7811524802.0,-0.0081830665,0.0075297986,0.011120271772757364,2.397745912697251
7811524902.0,-0.0081935428,0.0075131748,0.011116741392637812,2.399484435081797
7811525003.0,-0.0081716072,0.0075381807,0.011117523667478488,2.3964931610361937
7811525103.0,-0.0081860135,0.0075399705,0.011129329367174487,2.3972526479559098
