frequency,Re(S21),Im(S21),Amplitude,phase
7490000000.0,0.0045035973,0.0067518472,0.00811602299483652,0.982551179289296
7490000300.0,0.0045430002,0.0067526378,0.008138609713900088,0.9785773713433675
7490000600.0,0.0045579329,0.0067229511,0.00812236565379161,0.9750117841807204
7490000900.0,0.0045678284,0.0067383776,0.008140687254281933,0.9750690421276914
7490001200.0,0.0045649212,0.0067383061,0.00813899715318212,0.9753597767378426
7490001500.0,0.0045801619,0.0067371807,0.008146624258836546,0.9737334538401035
7490001800.0,0.0045960179,0.0067241105,0.008144755524466689,0.9712212781102446
7490002100.0,0.0045888739,0.0067166575,0.00813457138652108,0.9714293093882038
7490002400.0,0.0046355444,0.0067131866,0.008158133745581211,0.9664657147749816
7490002700.0,0.0046097185,0.0066918636,0.008125917984464723,0.967589983496283
7490003000.0,0.0046185104,0.0067263852,0.008159344101929223,0.9691027652723184
7490003300.0,0.0046218676,0.0067097587,0.008147546988152659,0.9676079765496909
7490003600.0,0.0046284923,0.0066763726,0.008123847122219254,0.9646051317964871
7490003900.0,0.0046856667,0.0067018486,0.008177423009775808,0.9606341195220389
7490004200.0,0.0046673329,0.0067081406,0.008172095613047535,0.9629139378902604
7490004500.0,0.0046563457,0.0066806534,0.00814326010445694,0.9620936480752198
7490004800.0,0.0046403674,0.0066716301,0.008126724912177646,0.9630717655219706
7490005101.0,0.0046536347,0.0066923089,0.008151276852988328,0.9631841198934948
7490005401.0,0.0046607279,0.0066749744,0.00814110973998593,0.9612531743328577
7490005701.0,0.0046713241,0.006654342,0.008130285130313991,0.9587317557799295
7490006001.0,0.0046661827,0.0066452626,0.008119900000168602,0.9586075427227261
7490006301.0,0.0046739115,0.0066506753,0.00812877178027913,0.9582120676416069
7490006601.0,0.004692822,0.0066567272,0.008144605290552996,0.9567396615302718
7490006901.0,0.0047026715,0.0066603265,0.008153224412679592,0.9560066637863553
7490007201.0,0.0046957475,0.00665546,0.008145255821357378,0.9563564682707811
7490007501.0,0.004703096,0.0066435969,0.008139809073615032,0.9547786023867726
7490007801.0,0.004709896,0.0066653765,0.00816151727423083,0.9556404471329425
7490008101.0,0.0047061589,0.0066354431,0.008134926964969435,0.9538921683238216
7490008401.0,0.0047169337,0.0066308809,0.008137447083710008,0.9524877952273861
7490008701.0,0.0046954696,0.006643474,0.00813530463800835,0.9555350030648868
7490009001.0,0.0047084661,0.0066306597,0.008132361346623335,0.9533204795550514
7490009301.0,0.0047195379,0.0066362831,0.008143358727999279,0.9526117450739453
7490009601.0,0.0047149133,0.006606502,0.008116420153153784,0.9509495458545032
7490009901.0,0.0047381621,0.0066128059,0.008135071109520262,0.9490734990038523
7490010201.0,0.0047303213,0.0066300249,0.008144517774297855,0.9510874407779603
7490010501.0,0.0047388345,0.0066127056,0.008135381230812826,0.9489991329310711
7490010801.0,0.0047426736,0.0066115122,0.008136648354628937,0.9485301807751844
7490011101.0,0.0047223073,0.0066081614,0.008122067675418818,0.9503272273491898
7490011401.0,0.0047367341,0.006618595,0.008138946474091583,0.9496303979179133
7490011701.0,0.0047351441,0.0066000633,0.008122956679176107,0.9484618381248288
7490012001.0,0.0047435549,0.0065996991,0.008127566751485639,0.9475948816043873
7490012301.0,0.0047262495,0.0065828799,0.008103810345391498,0.9481175874853587
7490012601.0,0.0047413358,0.0066057473,0.008131184572976985,0.9482506161828086
7490012901.0,0.0047437882,0.0065997604,0.008127752692095607,0.9475759752831809
7490013201.0,0.004744311,0.0065639923,0.008099042028485857,0.9449459478319793
7490013501.0,0.0047699113,0.0065899888,0.008135109476460236,0.9442674381051375
7490013801.0,0.0047471741,0.0065674641,0.00810353297275328,0.9449105671035741
7490014101.0,0.0047663338,0.0065886627,0.008131937903562331,0.9445281971260667
7490014401.0,0.0047629269,0.0065735907,0.00811773166259332,0.9437799906342675
7490014701.0,0.0047626703,0.0065730417,0.008117136537994231,0.9437659061759972
7490015002.0,0.0047623849,0.0065917982,0.008132165360177523,0.9451476232416556
7490015302.0,0.004742251,0.0065586025,0.00809346719892082,0.9447621311068687
7490015602.0,0.0047598103,0.0065703478,0.008113277038592416,0.9438565386075056
7490015902.0,0.004760537,0.0065685499,0.00811224755028833,0.9436539716013213
7490016202.0,0.0047736785,0.006552368,0.008106881819095814,0.9411700482341029
7490016502.0,0.0047849296,0.0065669318,0.008125278120951146,0.941106310477938
7490016802.0,0.0047592336,0.0065422445,0.008090195767541674,0.9418763237464864
7490017102.0,0.0047705397,0.0065758177,0.008124003166722018,0.9431820026779062
7490017402.0,0.0047641229,0.0065590344,0.008106651544669215,0.9426069863110679
7490017702.0,0.0047582074,0.0065580541,0.008102383059319127,0.9431265971377953
7490018002.0,0.004794025,0.006567479,0.008131079640248643,0.9402418801259831
7490018302.0,0.0047587248,0.006544433,0.008091666392877553,0.9420862781046868
7490018602.0,0.0047993292,0.006547228,0.008117866422524864,0.938243318254485
7490018902.0,0.0047916037,0.0065221334,0.00809306432108687,0.9371800254843741
7490019202.0,0.004781285,0.0065522324,0.008111253643847833,0.940402252830026
7490019502.0,0.0047685415,0.0065499059,0.008101867398080338,0.9415035736144508
7490019802.0,0.0047798145,0.0065380916,0.008098967120837127,0.9395197182845769
7490020102.0,0.0048077557,0.0065467119,0.008122435076532413,0.9373690398498276
7490020402.0,0.0047932699,0.0065350835,0.008104489662293256,0.9379603952322458
7490020702.0,0.0047838371,0.0065572211,0.00811678790862627,0.940510556807006
7490021002.0,0.0047887029,0.0065294939,0.008097281399000877,0.9380069216463791
7490021302.0,0.0047809743,0.0065166644,0.008082365381464009,0.9378392574089104
7490021602.0,0.0047788788,0.0065427454,0.008102172545330702,0.9399519390577107
7490021902.0,0.0047767181,0.0065321435,0.00809233801267964,0.9393948125729211
7490022202.0,0.0047960016,0.0065299812,0.008101992706708392,0.9373160612343233
7490022502.0,0.0047791074,0.0065156366,0.008080432404518605,0.9379502999084985
7490022802.0,0.0048057383,0.0065150926,0.00809577372427501,0.9352580889338419
7490023102.0,0.004805035,0.0065357919,0.008112024230198687,0.936842565789259
7490023402.0,0.0048030779,0.0065253748,0.008102473301032436,0.9362756287143564
7490023702.0,0.0047901636,0.0065288356,0.008097614562733418,0.937813383541324
7490024002.0,0.0047846481,0.0065041591,0.008074462399376594,0.9365562740587926
7490024302.0,0.0047950306,0.0065327332,0.008103636314477507,0.9376136627755027
7490024602.0,0.0048047681,0.0065239592,0.008102335474296424,0.9360040566036173
7490024902.0,0.0048051423,0.0065275518,0.008105450328324302,0.9362297250964213
7490025203.0,0.0047940767,0.0064973408,0.008074565553441717,0.9351152998572904
7490025503.0,0.0048183284,0.0065109783,0.008099946110519344,0.9337057070253263
7490025803.0,0.0047898646,0.0064695243,0.008049692388819814,0.9334846741582954
7490026103.0,0.0048076142,0.0064813689,0.008069776769770578,0.9325903061926047
7490026403.0,0.0048113651,0.006505409,0.0080913274796401,0.9339880288446364
7490026703.0,0.0047991348,0.0064839156,0.008066774841068419,0.9336226365291133
7490027003.0,0.004787614,0.0064939047,0.00806796418346525,0.9355070001927879
7490027303.0,0.0047981141,0.0064953791,0.008075385351135611,0.9345687653743361
7490027603.0,0.0047999589,0.0064988097,0.008079240865236243,0.9346373970438683
7490027903.0,0.0048227124,0.0064990377,0.008092962740500852,0.932392594570593
7490028203.0,0.0048112589,0.0064856326,0.008075372587380223,0.9325423609635904
7490028503.0,0.0048114009,0.0064834536,0.008073707277569194,0.9323674375147043
7490028803.0,0.0048067387,0.0064932086,0.008078768151964236,0.9335504451105191
7490029103.0,0.0048145086,0.0064722775,0.008066589681921364,0.9312324087235846
7490029403.0,0.0047969344,0.0064817849,0.008063753166347006,0.9336847700531861
7490029703.0,0.0047999323,0.0064797684,0.00806391645555817,0.9332371796056901
7490030003.0,0.0048321118,0.0064815095,0.008084508015104536,0.930166919268544
7490030303.0,0.0048459421,0.0064952178,0.008103765119127604,0.9298097308451688
7490030603.0,0.0048262681,0.0064784818,0.00807858837953815,0.9305228419437315
7490030903.0,0.0047989659,0.0064651418,0.00805159190492601,0.9322523151733991
7490031203.0,0.0048108513,0.0064677521,0.008060775859541444,0.9312613751525664
7490031503.0,0.0048107409,0.0064611256,0.008055393970868723,0.9307814158195858
7490031803.0,0.004815945,0.0064754956,0.008070029089702488,0.931327601011159
7490032103.0,0.0048079508,0.0064541241,0.008048112126046794,0.9305399374355624
7490032403.0,0.0048113587,0.0064805968,0.00807138819684916,0.9321607100318489
7490032703.0,0.0048130642,0.0064620543,0.00805752646719017,0.9306189761573501
7490033003.0,0.0048339059,0.0064560861,0.00806521506103018,0.9281044885124474
7490033303.0,0.0048297868,0.0064507971,0.00805851250286445,0.9281202859967275
7490033603.0,0.0048371174,0.0064615889,0.008071544824504536,0.9281946023371415
7490033903.0,0.0048327315,0.0064364632,0.008048810612509559,0.9267600730699013
7490034203.0,0.0048243758,0.0064624985,0.008064644364268514,0.9295269934064818
7490034503.0,0.004823641,0.0064506921,0.008054746492961985,0.9287232534983865
7490034803.0,0.0048285228,0.0064413442,0.008050189285538165,0.9275422035009204
7490035104.0,0.0048158342,0.0064524978,0.00805152078187062,0.9296340726948842
7490035404.0,0.0048340197,0.0064323725,0.00804631359311482,0.9263267917617175
7490035704.0,0.004822651,0.0064471254,0.008051297323483102,0.9285564361983922
7490036004.0,0.0048050474,0.0064585041,0.008049891659268687,0.9311542285842405
7490036304.0,0.0048245318,0.0064466558,0.008052048068217483,0.9283344618604903
7490036604.0,0.0048186966,0.0064405048,0.008043627229159404,0.9284570821502601
7490036904.0,0.0048436568,0.0064352919,0.008054439337060765,0.9255880468251172
7490037204.0,0.0048419279,0.0064589963,0.008072353993242127,0.9275250716499893
7490037504.0,0.0048482425,0.0064469027,0.008066474431997758,0.9259994371728097
7490037804.0,0.004836211,0.0064252596,0.008041946142813514,0.9255775931199411
7490038104.0,0.0048304817,0.006409732,0.008026096047634795,0.9249844835680275
7490038404.0,0.0048427506,0.0064292636,0.008049078444895746,0.9252276108871345
7490038704.0,0.0048088123,0.0064066819,0.00801063347709898,0.9269156350283415
7490039004.0,0.0048168296,0.0064111953,0.008019056837944114,0.9264539094871321
7490039304.0,0.0048129035,0.0064163547,0.00802082587621277,0.9272316360203781
7490039604.0,0.0048215281,0.006427103,0.008034599317433236,0.9271756501222029
7490039904.0,0.0048483517,0.0064284393,0.008051791480203482,0.9246103737623231
7490040204.0,0.0048478893,0.006407877,0.008035105370322376,0.9231153925672706
7490040504.0,0.0048495079,0.0063880983,0.008020319617236291,0.9214665718971958
7490040804.0,0.0048312008,0.0063847974,0.008006630939975154,0.923038458425208
7490041104.0,0.0048296237,0.0064128687,0.008028085079708697,0.9253049861605944
7490041404.0,0.004852259,0.0063979716,0.008029847943609366,0.9219371531707912
7490041704.0,0.0048504363,0.0064013,0.008031399254822144,0.9223684052726302
7490042004.0,0.0048447525,0.0064133122,0.008037549387775175,0.9238346189837942
7490042304.0,0.0048573229,0.0064092664,0.008041907829677817,0.9222841373588877
7490042604.0,0.0048374733,0.0063977352,0.008020733359084563,0.9233881438817984
7490042904.0,0.0048576276,0.0063984943,0.008033509519967862,0.921444005887782
7490043204.0,0.0048688164,0.0063758256,0.008022251879523873,0.9186245065074655
7490043504.0,0.0048489543,0.0064092203,0.008036819187801886,0.9231105577063778
7490043804.0,0.0048354307,0.0063910528,0.008014171569594098,0.9230885474632541
7490044104.0,0.0048521273,0.0063850407,0.008019469064474392,0.9209758772962966
7490044404.0,0.0048176179,0.0064315466,0.008035809473747617,0.9278967305570398
7490044704.0,0.004841697,0.0063873585,0.00801500957250403,0.922186967326346
7490045005.0,0.004834294,0.0063841356,0.008007970144651102,0.9226805690346385
7490045305.0,0.0048406129,0.0063889172,0.008015597060487899,0.9224122186136238
7490045605.0,0.0048469212,0.0063878677,0.008018572121750401,0.921706121507975
7490045905.0,0.0048533508,0.0063977465,0.008030328403379458,0.9218118855096102
7490046205.0,0.0048409409,0.0063894792,0.00801624308791378,0.9224219433020664
7490046505.0,0.0048229847,0.0063755998,0.007994338886123989,0.9231637977018909
7490046805.0,0.0048447862,0.0063625393,0.007997115709288877,0.9200043523099607
7490047105.0,0.004844261,0.00638782,0.00801692640533272,0.9219668664648708
7490047405.0,0.0048614109,0.0063665982,0.00801042374527603,0.9186601367861315
7490047705.0,0.0048374899,0.006378633,0.008005514816755448,0.9219473640473715
7490048005.0,0.0048598285,0.0063845161,0.008023713534303893,0.9201721292886048
7490048305.0,0.0048792235,0.006369002,0.008023154519199804,0.9170774132367006
7490048605.0,0.0048589724,0.0063595998,0.00800338193516477,0.9183716169000272
7490048905.0,0.004866773,0.0063778974,0.008022658828496681,0.9189836682821354
7490049205.0,0.0048662583,0.0063621397,0.008009824680018594,0.9178413346767184
7490049505.0,0.0048274772,0.0063638668,0.007987699090768385,0.921829076008734
7490049805.0,0.0048556134,0.006345704,0.007990302919531622,0.9176498371222217
7490050105.0,0.0048724954,0.0063684924,0.008018659917459958,0.9177048301266353
7490050405.0,0.0048493993,0.0063580607,0.007996349756965674,0.9192060614004526
7490050705.0,0.0048554543,0.0063607931,0.00800219503138958,0.9188114964612082
7490051005.0,0.0048611005,0.0063443612,0.007992572621325732,0.9170025204669467
7490051305.0,0.0048658033,0.0063622056,0.008009600604959166,0.9178914544662468
7490051605.0,0.004862494,0.0063792749,0.008021159277174715,0.9195119427694254
7490051905.0,0.0048679967,0.0063622174,0.008010942648407467,0.9176748634231037
7490052205.0,0.0048711011,0.0063534689,0.008005884897354472,0.9167028691446044
7490052505.0,0.0048723431,0.0063411434,0.007996863566641685,0.9156418305898878
7490052805.0,0.0048550574,0.0063380749,0.007983907301272027,0.9171244611383678
7490053105.0,0.0048521912,0.0063620636,0.008001225699341469,0.9192320159993654
7490053405.0,0.0048473738,0.0063434893,0.007983538642490616,0.9183009071611131
7490053705.0,0.004869091,0.0063431418,0.007996467661485804,0.9161165844490177
7490054005.0,0.0048440552,0.0063337124,0.007973755924692003,0.9178871263357842
7490054305.0,0.0048695583,0.006334526,0.007989919754401473,0.9154135875755557
7490054605.0,0.0048710252,0.0063348838,0.007991097500252233,0.9152953417211261
7490054905.0,0.00487317,0.0063228208,0.007982847156109946,0.9141612405765989
7490055206.0,0.0048762305,0.0063199137,0.007982413987295944,0.9136352435653197
7490055506.0,0.0048617568,0.0063079303,0.007964085876734651,0.914154943876195
7490055806.0,0.0048714104,0.0063053225,0.007967918869707095,0.9129955363819283
7490056106.0,0.0048821505,0.0063157544,0.007982740578633983,0.9127298102933219
7490056406.0,0.0048591844,0.0063320467,0.00798163444691526,0.9162547110978949
7490056706.0,0.0048595301,0.0063271446,0.007977956604426673,0.9158462568257377
7490057006.0,0.0048644241,0.006342009,0.007992727943621115,0.9164934542595342
7490057306.0,0.0048875113,0.0062983567,0.007972268424235512,0.9108631426779361
7490057606.0,0.0048654001,0.0063032587,0.007962611906416494,0.9134343900087214
7490057906.0,0.0048805525,0.0063341977,0.007996364999669634,0.9142985244104177
7490058206.0,0.0048720385,0.0063205495,0.007980357456118898,0.9140997995679562
7490058506.0,0.0048697367,0.0063005533,0.007963121712837735,0.9127957001224528
7490058806.0,0.0048783699,0.0063214289,0.0079849205518265,0.9135390330104958
7490059106.0,0.0048691945,0.0063202041,0.007978347883145174,0.9143556943920927
7490059406.0,0.0048934315,0.0063042445,0.0079805495149753,0.9107293729525502
7490059706.0,0.004857879,0.0063250763,0.007975310563198319,0.9158524772089702
7490060006.0,0.0048642667,0.0062955529,0.007955820312540204,0.9129553353217924
7490060306.0,0.0048756131,0.0063129946,0.007976559654419992,0.9131666369804873
7490060606.0,0.0048718801,0.0063151242,0.00797596447899573,0.9137002602505551
7490060906.0,0.0048691345,0.0063055139,0.007966679127602886,0.913236292344296
7490061206.0,0.0048820663,0.0062936548,0.007965215759736752,0.9110413129706372
7490061506.0,0.004865355,0.0063174745,0.00797384244478001,0.9145282156130767
7490061806.0,0.0048730245,0.006290054,0.00795683021689644,0.9116618233555401
7490062106.0,0.0048650759,0.0062784639,0.007942800038800173,0.9115592637327615
7490062406.0,0.0048652612,0.0062940579,0.007955245526869542,0.9127415116779085
7490062706.0,0.0048869558,0.006287371,0.007963251288437069,0.9100725014054334
7490063006.0,0.0048879716,0.0062888566,0.007965047626836272,0.910086270632573
7490063306.0,0.0048782173,0.0062872941,0.007957830805308323,0.9109335746828251
7490063606.0,0.0048879836,0.006292734,0.007968116770518925,0.9103837059098979
7490063906.0,0.0048750772,0.0063006386,0.007966456205476171,0.9122718375949826
7490064206.0,0.0048804769,0.0062852896,0.007957632821844808,0.9105548148062576
7490064506.0,0.0048612121,0.0062738089,0.007936753819724134,0.9115848316144438
7490064806.0,0.0048762236,0.0062727261,0.00794510222230137,0.9100078304616349
7490065107.0,0.0049106765,0.0062566657,0.007953653837652777,0.9053486012883787
7490065407.0,0.0048959302,0.0062877692,0.007969076109295273,0.9092140139643153
7490065707.0,0.0049041248,0.0062595089,0.007951848321186356,0.9062174882176094
7490066007.0,0.0048732951,0.0062747431,0.007944898117828926,0.9104546566573182
7490066307.0,0.0048724597,0.0062589282,0.007931900512542963,0.9093148456729229
7490066607.0,0.0048805504,0.0062544067,0.00793330797183275,0.9081600017124629
7490066907.0,0.0048746489,0.0062757504,0.007946524081720974,0.910397859073741
7490067207.0,0.0048783305,0.0062495828,0.007928139355566733,0.9080064295825866
7490067507.0,0.0048864435,0.0062628518,0.007943591300378909,0.908229169663289
7490067807.0,0.0048814703,0.0062615111,0.007939475646741748,0.908619148416692
7490068107.0,0.0049092423,0.0062696899,0.007963018987938638,0.9065001106872471
7490068407.0,0.0049036512,0.0062498599,0.007943962730331095,0.9055153199178161
7490068707.0,0.0048829859,0.006257731,0.007937427074812077,0.90817575215449
7490069007.0,0.0048945412,0.0062533552,0.007941094686242224,0.9066895678143729
7490069307.0,0.0048825766,0.0062538129,0.007934086591604226,0.9079126253054032
7490069607.0,0.0048782865,0.0062315212,0.007913882463249736,0.9066064902594704
7490069907.0,0.0048847061,0.0062255191,0.007913118332733438,0.9055001345964732
7490070207.0,0.0048651911,0.0062544045,0.007923866486074804,0.9096879818278072
7490070507.0,0.0049054825,0.0062447212,0.007941051657276616,0.9049344420287685
7490070807.0,0.004884514,0.006217902,0.007907008429096304,0.90492458886501
7490071107.0,0.0049039626,0.0062160615,0.007917592421562316,0.902849345195112
7490071407.0,0.0048979001,0.0062471841,0.007938308041949041,0.9058772259189656
7490071707.0,0.0048762253,0.0062349516,0.007915313931279205,0.9070786881932891
7490072007.0,0.0048690967,0.0062480442,0.007921247313340528,0.9088058085970635
7490072307.0,0.0048880015,0.0062263471,0.0079158042468015,0.9052371814970174
7490072607.0,0.0048850393,0.0062245069,0.007912527732064648,0.9053880385705528
7490072907.0,0.0049094825,0.0062317474,0.00793332805795985,0.9035277259219927
7490073207.0,0.0049019465,0.006216148,0.00791641177849954,0.9030560557455469
7490073507.0,0.0048863899,0.0062145902,0.007905563712269864,0.904479204410057
7490073807.0,0.0048937677,0.0062296245,0.00792194317781714,0.904920120643189
7490074107.0,0.004875342,0.0062157729,0.007899670395740471,0.9056711294023602
7490074407.0,0.0048983283,0.0062363358,0.007930038104885911,0.9049906813746469
7490074707.0,0.0049144839,0.0062118205,0.007920786951280755,0.9014748613255302
7490075008.0,0.0049190709,0.0062193445,0.007929533689247247,0.9016099227254342
7490075308.0,0.0049124656,0.0062106454,0.0079186131712393,0.901582675892367
7490075608.0,0.004929412,0.0062281674,0.00794286924405575,0.9012778599405602
7490075908.0,0.0048862304,0.0061956576,0.007890590638115877,0.9030120433588614
