frequency,Re(S21),Im(S21),Amplitude,phase
7809000000.0,-0.0145078909,-0.0024267171,0.014709447788742284,-2.97585820089526
7809003504.0,-0.014498788,-0.0024185401,0.014699122071887559,-2.976304702902523
7809007007.0,-0.0145156242,-0.0023825761,0.014709861141014108,-2.9789045953921316
7809010511.0,-0.0145434923,-0.0023512179,0.014732324795952595,-2.981311411558474
7809014014.0,-0.0145260461,-0.0023305539,0.014711814870373078,-2.9825087350110295
7809017518.0,-0.0145291744,-0.0022970066,0.014709627733768755,-2.9847942644454597
7809021021.0,-0.0145198958,-0.0022680292,0.014695963067962245,-2.9866432765782465
7809024525.0,-0.0145280203,-0.0022406668,0.014699794608967648,-2.988567688006389
7809028028.0,-0.0145247553,-0.002251367,0.014698202947760898,-2.987814341296756
7809031532.0,-0.014527086,-0.0021883065,0.014690980668060872,-2.9920804648333084
7809035035.0,-0.0145255348,-0.0021880301,0.014689405602151403,-2.9920833414803205
7809038539.0,-0.0145281563,-0.0021665359,0.014688812180813617,-2.993556905479245
7809042042.0,-0.0145408709,-0.0021502628,0.01469899849103777,-2.9947794696541976
7809045546.0,-0.0145315233,-0.0021126619,0.01468429466205832,-2.9972194240724717
7809049049.0,-0.0145294374,-0.0020915728,0.01467921073962148,-2.9986206982187733
7809052553.0,-0.0145146104,-0.0020716733,0.014661710177387939,-2.99982000150351
7809056056.0,-0.0145170249,-0.0020590693,0.014662325133805432,-3.0006942633339406
7809059560.0,-0.0145310889,-0.0020372847,0.014673209382018552,-3.0022988049224972
7809063063.0,-0.0145118422,-0.0020124879,0.01465072256188572,-3.003792543384265
7809066567.0,-0.0145160996,-0.0019790654,0.014650387280020872,-3.006092176722584
7809070070.0,-0.0145130157,-0.0019581367,0.014644518566492152,-3.0074797456202966
7809073574.0,-0.0145295963,-0.0019349514,0.014657871795091388,-3.0091985578108864
7809077077.0,-0.0145253449,-0.001921915,0.014651941909903309,-3.010042206977787
7809080581.0,-0.0145269823,-0.0019084625,0.014651806846202264,-3.010967079149336
7809084084.0,-0.014525748,-0.0018647203,0.014644949189284887,-3.01391750471791
7809087588.0,-0.0145265811,-0.0018441222,0.014643167182799288,-3.0153199696080644
7809091091.0,-0.0145240287,-0.0018311395,0.014639005483532136,-3.0161778074719607
7809094595.0,-0.0145195978,-0.0018077102,0.014631696294037438,-3.0177286219935775
7809098098.0,-0.0145254733,-0.0017808435,0.014634233090958512,-3.019600041174739
7809101602.0,-0.0145154485,-0.0017518993,0.014620786446477246,-3.0214815532415322
7809105105.0,-0.0145220386,-0.0017135457,0.01462278509607108,-3.0241395259036787
7809108609.0,-0.0145301713,-0.0017043403,0.014629786528365607,-3.024829556119969
7809112112.0,-0.0145222789,-0.0016888006,0.014620144729651124,-3.0258223262500406
7809115616.0,-0.0144990237,-0.0016633105,0.014594118338309169,-3.0273731721530734
7809119119.0,-0.0145029102,-0.001639528,0.014595288840308987,-3.0290223683329325
7809122623.0,-0.0144998134,-0.0016295018,0.014591088538934401,-3.0296813232501045
7809126126.0,-0.0145102771,-0.0015956405,0.014597746748180852,-3.032066491091639
7809129630.0,-0.0144991847,-0.0015843391,0.014585488930731904,-3.0327535576978306
7809133133.0,-0.0145112948,-0.0015584223,0.014594737299370768,-3.0346089466318547
7809136637.0,-0.0145059591,-0.001533093,0.014586748217389707,-3.0362964201810843
7809140140.0,-0.0145087873,-0.0015013385,0.014586258129082437,-3.038481757963301
7809143644.0,-0.0145236273,-0.0014918573,0.014600047539404403,-3.039232324012706
7809147147.0,-0.0144994897,-0.0014333989,0.014570169318402833,-3.0430542514270185
7809150651.0,-0.0144923542,-0.0014311629,0.014562848536759354,-3.0431588442713506
7809154154.0,-0.0145165717,-0.0014057189,0.014584474606479938,-3.0450581806404613
7809157658.0,-0.01450086,-0.0013956304,0.014567866177069453,-3.0456435212739015
7809161161.0,-0.0144976553,-0.0013754773,0.014562758907584558,-3.0469999533643652
7809164665.0,-0.0144953122,-0.0013483543,0.014557889101576415,-3.0488395367198193
7809168168.0,-0.0145007454,-0.0013208159,0.014560775109770564,-3.0507572414711257
7809171672.0,-0.0144903634,-0.0012826169,0.014547018167866058,-3.053307578581416
7809175175.0,-0.0144997205,-0.0012627218,0.014554599304766706,-3.054725868612191
7809178679.0,-0.0144874657,-0.0012442811,0.014540801142457512,-3.055916172750619
7809182182.0,-0.0144922737,-0.0012259184,0.014544032209781793,-3.057202389634626
7809185686.0,-0.0144583087,-0.0012051584,0.014508449167074552,-3.058430860739614
7809189189.0,-0.0144730445,-0.0011814806,0.014521188433015964,-3.060140089046711
7809192693.0,-0.0144773274,-0.0011503214,0.014522955896445073,-3.062302485340665
7809196196.0,-0.0144800012,-0.0011251773,0.014523651700190168,-3.0640428808728863
7809199700.0,-0.0144687532,-0.0011154315,0.014511685174151984,-3.06465239685042
7809203203.0,-0.0144850465,-0.0010975866,0.014526571118184147,-3.0659634073016235
7809206707.0,-0.0144645369,-0.0010578726,0.014503169383596552,-3.068587031953267
7809210210.0,-0.0144665202,-0.0010329235,0.014503349187475983,-3.070312655322808
7809213714.0,-0.0144604907,-0.0010404627,0.014497874117086194,-3.0697643352992086
7809217217.0,-0.0144595496,-0.001004356,0.014494388762883247,-3.072244336020492
7809220721.0,-0.0144542274,-0.0009834815,0.01448764734495401,-3.07365626591221
7809224224.0,-0.0144641011,-0.000954438,0.014495556992639684,-3.0757014988828955
7809227728.0,-0.0144465614,-0.0009624249,0.014478584114895696,-3.075071296119212
7809231231.0,-0.0144433184,-0.0009019824,0.014471455305313572,-3.079223844654851
7809234735.0,-0.0144591882,-0.0008903368,0.014486573888275085,-3.0800944506427954
7809238238.0,-0.0144379485,-0.0008669347,0.014463952871283712,-3.0816191022223887
7809241742.0,-0.0144454383,-0.0008503206,0.014470443421052834,-3.082796201917885
7809245245.0,-0.0144380954,-0.0008152802,0.014461095414387292,-3.0851852598583505
7809248749.0,-0.0144604359,-0.0008098157,0.014483093864432948,-3.085648925313456
7809252252.0,-0.0144280598,-0.0007908068,0.014449715740709307,-3.0868371058219934
7809255756.0,-0.0144370536,-0.0007476753,0.014456401177454335,-3.0898502443028617
7809259259.0,-0.0144272193,-0.0007142288,0.014444887659966136,-3.0921273919739374
7809262763.0,-0.0144177149,-0.0007135058,0.014435359138736925,-3.092144860865599
7809266266.0,-0.0144270558,-0.0006734097,0.014442763574896867,-3.094949645587303
7809269770.0,-0.0144236305,-0.0006651509,0.01443895919103247,-3.0955099428894957
7809273273.0,-0.0144062717,-0.0006379549,0.014420390103899925,-3.097338429166109
7809276777.0,-0.014427229,-0.0006299097,0.014440973750014057,-3.097959195492019
7809280280.0,-0.0143941753,-0.0005941423,0.014406432162051066,-3.1003394933596073
7809283784.0,-0.0144078041,-0.0005766428,0.01441933895512442,-3.1015910547498673
7809287287.0,-0.0144009111,-0.0005504969,0.014411429052908419,-3.1033847242513604
7809290791.0,-0.0144002606,-0.0005177798,0.014409566310933871,-3.105651857141599
7809294294.0,-0.0144050639,-0.0005059854,0.01441394766148734,-3.106481566120871
7809297798.0,-0.0144054677,-0.0004742171,0.014413271020614153,-3.108685293562236
7809301301.0,-0.0143669871,-0.0004371658,0.014373636709902476,-3.1111735442179245
7809304805.0,-0.0144052039,-0.0004402281,0.0144119290929634,-3.1110418101833988
7809308308.0,-0.0143874314,-0.0004058053,0.014393153241427467,-3.113394587729021
7809311812.0,-0.0143948633,-0.0003765463,0.01439978737835148,-3.1154402378215167
7809315315.0,-0.0143779492,-0.0003482331,0.014382165674533034,-3.1173774454760825
7809318819.0,-0.014377326,-0.0003590667,0.014381809058853648,-3.116623332116732
7809322322.0,-0.0143582496,-0.0003257023,0.014361943237742078,-3.118912559461582
7809325826.0,-0.0143611309,-0.0003049736,0.014364368751310716,-3.1203598015308276
7809329329.0,-0.0143457125,-0.0002533877,0.014347950113488947,-3.1239315332866866
7809332833.0,-0.0143569053,-0.0002589617,0.014359240612067024,-3.1235571775756337
7809336336.0,-0.0143555317,-0.0002440282,0.014357605655265091,-3.124595393984578
7809339840.0,-0.0143620844,-0.0002055814,0.014363555688782264,-3.1272794553735266
7809343343.0,-0.0143250083,-0.0001744348,0.014326070301883905,-3.129416313059721
7809346847.0,-0.0143432402,-0.0001593154,0.014344124958726941,-3.130485759574832
7809350350.0,-0.0143434114,-0.0001400818,0.014344095422867948,-3.1318266821155873
7809353854.0,-0.0143294565,-9.95144e-05,0.014329802046825336,-3.134648021725752
7809357357.0,-0.0143146227,-8.63266e-05,0.014314883000752149,-3.135562068271604
7809360861.0,-0.0143058188,-6.71103e-05,0.014305976210339494,-3.1369015688881827
7809364364.0,-0.0143195172,-4.99537e-05,0.0143196043315882,-3.138104163254269
7809367868.0,-0.0143104917,-1.41918e-05,0.014310498737044637,-3.1406009479485713
7809371371.0,-0.0143120077,1.48157e-05,0.01431201536855749,-3.142627846905662
7809374875.0,-0.0143171851,3.73969e-05,0.01431723394080685,-3.1442046764623015
7809378378.0,-0.0143097708,4.72843e-05,0.014309848921409307,-3.1448969782060687
7809381882.0,-0.0142866027,4.69794e-05,0.014286679942228413,-3.144880995237837
7809385385.0,-0.0142883364,6.82879e-05,0.01428849958242122,-3.1463718929752096
7809388889.0,-0.0142783168,0.0001156203,0.014278784916614379,-3.14969009074519
7809392392.0,-0.0142740213,0.0001305133,0.014274617956160179,-3.1507358137673087
7809395896.0,-0.0142840189,0.0001746505,0.014285086584711606,-3.1538190303983034
7809399399.0,-0.0142761019,0.0001883307,0.014277344077654852,-3.1547839138809395
7809402903.0,-0.0142454057,0.0001909984,0.014246686068921257,-3.1549995694889064
7809406406.0,-0.0142482915,0.0002188822,0.014249972634585972,-3.156953441538751
7809409910.0,-0.0142348525,0.0002369726,0.014236824846499553,-3.1582384679780056
7809413413.0,-0.0142605884,0.0002777315,0.01426329261777612,-3.161065650515519
7809416917.0,-0.0142342826,0.0002846729,0.014237128916907971,-3.16158909205582
7809420420.0,-0.0142259576,0.0003132556,0.014229406126326182,-3.163609096561627
7809423924.0,-0.0142290291,0.0003457949,0.014233230246205982,-3.165889943816748
7809427427.0,-0.0142334616,0.0003636758,0.014238106938992284,-3.1671378582857095
7809430931.0,-0.0142258542,0.0003838122,0.014231030866543943,-3.168566015446842
7809434434.0,-0.0142118765,0.0004295761,0.014218367321072537,-3.1718100105319587
7809437938.0,-0.0142027781,0.0004208233,0.01420901115516708,-3.171213634266962
7809441441.0,-0.0142086651,0.000442579,0.014215556271043319,-3.1727311135057987
7809444945.0,-0.0142019079,0.0004831098,0.014210122556788116,-3.1755967877851026
7809448448.0,-0.0141904178,0.0004931325,0.01419898366085098,-3.176329765779917
7809451952.0,-0.0141621251,0.0005224341,0.014171757997400775,-3.1784654609567617
7809455455.0,-0.0141974368,0.0005504231,0.014208102522117716,-3.1803424353315872
7809458959.0,-0.0141947082,0.0005684901,0.014206087493639663,-3.181620700626979
7809462462.0,-0.0141610217,0.0006013117,0.014173782534963198,-3.1840296120865252
7809465966.0,-0.0141325074,0.0006079441,0.014145577451619977,-3.1845835750614584
7809469469.0,-0.0141525234,0.0006177905,0.014166000977320233,-3.1852172797761393
7809472973.0,-0.0141507555,0.0006578045,0.014166036424526112,-3.1880446820386816
7809476476.0,-0.0141358194,0.00067468,0.014151910938520506,-3.1892848582665017
7809479980.0,-0.0141300446,0.0007181788,0.01414828403682788,-3.192375319088041
7809483483.0,-0.0141168715,0.0007440401,0.014136465492403688,-3.1942496669403586
7809486987.0,-0.0141350263,0.0007434315,0.014154563182835561,-3.194139222538008
7809490490.0,-0.0141193643,0.0007597326,0.014139789314541332,-3.1953486613653483
7809493994.0,-0.0141028094,0.0007679574,0.014123703180856751,-3.195993139412585
7809497497.0,-0.01409664,0.0008238734,0.01412069497825187,-3.1999709097837328
7809501001.0,-0.0140798285,0.0008517395,0.014105567367719476,-3.2020126226275765
7809504505.0,-0.0140918628,0.000854072,0.014117720643050273,-3.2021260668683533
7809508008.0,-0.0140735253,0.0008860829,0.01410139203325021,-3.204470633498287
7809511512.0,-0.0140590838,0.000902092,0.01408799514735459,-3.205669166099441
7809515015.0,-0.0140739427,0.0009271184,0.014104446520530391,-3.2073724301990407
7809518519.0,-0.0140614159,0.0009623896,0.0140943112940988,-3.2099279558349996
7809522022.0,-0.0140520847,0.0009858648,0.014086625352434596,-3.21163578687355
7809525526.0,-0.0140212439,0.0009903517,0.014056175759892165,-3.2121077729082637
7809529029.0,-0.0140212113,0.0010240197,0.01405855549710694,-3.214496827633282
7809532533.0,-0.014014813,0.0010417261,0.014053475608986917,-3.2157865741074962
7809536036.0,-0.0140264387,0.0010693901,0.0140671453319725,-3.2176864723252194
7809539540.0,-0.014016001,0.0010800427,0.014057552285722585,-3.2184985093983913
7809543043.0,-0.0140092229,0.0011117403,0.014053266266478,-3.2207844333643147
7809546547.0,-0.013977804,0.0011349222,0.014023803088408966,-3.2226095288858434
7809550050.0,-0.0139896208,0.0011489841,0.014036725208888485,-3.223539907189519
7809553554.0,-0.0139982348,0.001178066,0.01404771928165875,-3.2255529900045397
7809557057.0,-0.0139688677,0.0011991512,0.014020243522156266,-3.2272272627766205
7809560561.0,-0.0139701839,0.0012384752,0.014024972692338272,-3.230012820925818
7809564064.0,-0.0139588376,0.0012482309,0.014014536293537811,-3.230777707114319
7809567568.0,-0.0139491961,0.0012767131,0.014007500425699327,-3.232864286467174
7809571071.0,-0.0139476509,0.0012988331,0.014007995325881803,-3.2344468665884736
7809574575.0,-0.0139232994,0.0013257709,0.013986276654682874,-3.236526023826275
7809578078.0,-0.0139412045,0.001340609,0.01400551375000936,-3.2374595168664726
7809581582.0,-0.0139071036,0.0013576804,0.013973218190870603,-3.238909230242294
7809585085.0,-0.0139051352,0.0013809466,0.013973539223916417,-3.240580058346967
7809588589.0,-0.0138854722,0.0013929438,0.01395516501682912,-3.241574792928019
7809592092.0,-0.0138892903,0.0014151723,0.013961199721956613,-3.243131707292056
7809595596.0,-0.0138583079,0.0014404697,0.013932969920581201,-3.2451634092049555
7809599099.0,-0.0138700038,0.001459991,0.013946633254377038,-3.246468922025549
7809602603.0,-0.0138623139,0.0014914844,0.013942319476241267,-3.2487730866317674
7809606106.0,-0.013869252,0.001489601,0.013949016530877902,-3.248585632694117
7809609610.0,-0.0138549956,0.0015521064,0.013941661929373425,-3.2531525647978783
7809613113.0,-0.0138426134,0.0015526159,0.013929413551000358,-3.2532878774852687
7809616617.0,-0.0138277182,0.0015744172,0.013917060757870789,-3.2549639298892794
7809620120.0,-0.0138164614,0.0016085939,0.01390978720012665,-3.25749673651378
7809623624.0,-0.0138230905,0.0016165619,0.0139172951160677,-3.25801033627775
7809627127.0,-0.0137846687,0.0016549925,0.01388366274957066,-3.2610810975985554
7809630631.0,-0.013820297,0.0016526144,0.013918755099623543,-3.26060632878347
7809634134.0,-0.0137953997,0.0016893149,0.013898447313067821,-3.263440967068602
7809637638.0,-0.01376753,0.0017014967,0.013872273545493936,-3.264556787226467
7809641141.0,-0.0137815239,0.0017346902,0.013890268215417844,-3.2668048706548163
7809644645.0,-0.0137559356,0.0017451704,0.013866195727609772,-3.2677852229612268
7809648148.0,-0.0137474474,0.0017837931,0.013862691940578292,-3.2706262255093104
7809651652.0,-0.0137401135,0.0018068659,0.01385840839972127,-3.2723453764932513
7809655155.0,-0.0137213555,0.0018298426,0.013842829215812605,-3.274167710803322
7809658659.0,-0.0137306311,0.0018465506,0.013854240488841226,-3.275274611817569
7809662162.0,-0.0137141324,0.0018797087,0.01384235284485934,-3.2778075129796544
7809665666.0,-0.013698486,0.0018863183,0.013827751640129745,-3.2784347345400473
7809669169.0,-0.013702314,0.0019144436,0.01383540759255675,-3.280410837982033
7809672673.0,-0.0136797945,0.0019412821,0.013816850355779738,-3.2825601286727024
7809676176.0,-0.013671551,0.0019461718,0.013809376938179225,-3.2829945738653126
7809679680.0,-0.0136532571,0.0019761552,0.013795528942856359,-3.2853331835697164
7809683183.0,-0.013647005,0.0020101325,0.013794251633835786,-3.2878358579684743
7809686687.0,-0.0136185789,0.0020246844,0.013768261988178777,-3.289182352765125
7809690190.0,-0.0136379994,0.0020463602,0.013790671401441787,-3.2905299509450474
7809693694.0,-0.0136165898,0.0020783115,0.013774283882383734,-3.29305454875002
7809697197.0,-0.0136072943,0.002105195,0.013769179501874375,-3.295086498598669
7809700701.0,-0.013590277,0.002114343,0.01375376585733442,-3.2959329761316685
7809704204.0,-0.0135921621,0.0021307008,0.013758152363300713,-3.297086733357748
7809707708.0,-0.0135756792,0.0021418331,0.013743599047177134,-3.298072695630432
7809711211.0,-0.0135640584,0.0021820286,0.013738447113477874,-3.301094541110308
7809714715.0,-0.0135584859,0.002189719,0.013734169403333418,-3.3017118221896014
7809718218.0,-0.0135349864,0.0022183357,0.01371557035365571,-3.304044742694801
7809721722.0,-0.013518669,0.0022506998,0.013704745934211296,-3.3065677498049237
7809725225.0,-0.0135082283,0.0022833009,0.013699842875188812,-3.3090402704346316
7809728729.0,-0.0134748443,0.0022758955,0.013665691685244575,-3.308913102435647
7809732232.0,-0.0134874625,0.0023211987,0.013685744703661103,-3.312023575786391
7809735736.0,-0.0135001129,0.0023380079,0.013701070368887564,-3.3130760534241963
7809739239.0,-0.0134672671,0.0023607625,0.013672617990865854,-3.3151258302893774
7809742743.0,-0.0134738589,0.0023605963,0.013679082153005841,-3.3150306581666635
7809746246.0,-0.0134358961,0.0023980091,0.013648214229476251,-3.318210767410354
7809749750.0,-0.0134377471,0.0024097759,0.013652108518898434,-3.319035440623718
7809753253.0,-0.0134160279,0.0024391346,0.013635951826348448,-3.3214358211243606
7809756757.0,-0.0134091958,0.0024566106,0.013632368379807304,-3.3227867413523846
7809760260.0,-0.0133782476,0.0024769963,0.013605624554467151,-3.324670446288434
7809763764.0,-0.0133821446,0.0024980153,0.013613297709752155,-3.3261365321055107
7809767267.0,-0.0133643085,0.0025239751,0.013600558517523913,-3.328253497904332
7809770771.0,-0.0133626054,0.0025601486,0.013605645296353684,-3.3308892600570226
7809774274.0,-0.0133515672,0.0025733338,0.013597293610948403,-3.3319943851900033
7809777778.0,-0.013351114,0.0025992729,0.013601781671886607,-3.3338732655654186
7809781281.0,-0.0133160518,0.0026094942,0.013569329221450736,-3.3351064327053126
7809784785.0,-0.0132831677,0.0026382662,0.013542636105588368,-3.3376582903850593
7809788288.0,-0.0132851213,0.0026688092,0.013550534694310713,-3.3398410274495745
7809791792.0,-0.0132897467,0.0026788258,0.013557045217041454,-3.340498207741853
7809795295.0,-0.0132703198,0.0027246204,0.013547137849685009,-3.3440953130452344
7809798799.0,-0.0132821507,0.0027071349,0.013555224328070286,-3.3426561880971
7809802302.0,-0.0132640554,0.0027357988,0.013543255174748447,-3.3449968607825045
7809805806.0,-0.0132219782,0.0027688396,0.01350878159760544,-3.3480215227061065
7809809309.0,-0.013216376,0.0027762895,0.013504827950077196,-3.3486464838370114
7809812813.0,-0.0131970585,0.0028026264,0.013491370122800694,-3.3508512735537916
7809816316.0,-0.0131773404,0.0028157186,0.013474812475573012,-3.352105668391119
7809819820.0,-0.0131833485,0.0028492269,0.013487726702455677,-3.354442098583232
7809823323.0,-0.0131584674,0.0028610995,0.013465925689151972,-3.3556942000337884
7809826827.0,-0.0131530876,0.0028967467,0.013468290717727868,-3.35836539114257
7809830330.0,-0.0131096177,0.0029107568,0.013428871188186278,-3.3600804788047216
7809833834.0,-0.0131328612,0.0029319028,0.013456154626308114,-3.3612401839820905
7809837337.0,-0.0130969522,0.0029600138,0.013427279643519578,-3.3638661596459585
7809840841.0,-0.0130810184,0.0029785565,0.013415842918163242,-3.365476129817554
7809844344.0,-0.0130701675,0.0030129709,0.01341295165585499,-3.368157466750745
7809847848.0,-0.0130535006,0.0030298352,0.01340051414138127,-3.369663172423687
7809851351.0,-0.0130236419,0.0030376412,0.013373201277157727,-3.370736577889711
7809854855.0,-0.0130205423,0.0030748162,0.013378677679422274,-3.373495250549354
7809858358.0,-0.0130234804,0.0030663645,0.013379597638794838,-3.3728300049480167
7809861862.0,-0.012997989,0.003090695,0.013360393468275774,-3.3750399028704363
