frequency,Re(S21),Im(S21),Amplitude,phase
8394000000.0,0.0001014529,0.0124565488,0.012456961936913022,1.5626519636592222
8394005005.0,0.0001673617,0.0124426066,0.012443732114642714,1.5573464433915842
8394010010.0,0.0001877946,0.0124468034,0.012448220020952422,1.555709694027215
8394015015.0,0.0001953461,0.0124538435,0.012455375466892899,1.555112005605875
8394020020.0,0.0002300921,0.0124436527,0.012445779802515378,1.5523077135573846
8394025025.0,0.0002934036,0.0124450426,0.012448500752633134,1.5472247515745248
8394030030.0,0.0003257145,0.0124376044,0.012441868555261689,1.5446144302444855
8394035035.0,0.000359739,0.0124273708,0.012432576448540891,1.5418570945516776
8394040040.0,0.0003635791,0.0124194853,0.012424806029828914,1.5415297928104499
8394045045.0,0.0004050298,0.0124121357,0.012418742358793925,1.5381761445212927
8394050050.0,0.0004407688,0.0124210125,0.012428830542742535,1.535325472162727
8394055055.0,0.0004864601,0.0124073489,0.012416881659870293,1.5316089816234617
8394060060.0,0.0005007408,0.0124097413,0.012419839792916425,1.5304675811028627
8394065065.0,0.0005071296,0.0124002858,0.01241065140727423,1.5299224984542872
8394070070.0,0.000565922,0.012396769,0.01240967966345002,1.5251772332140914
8394075075.0,0.0006053946,0.0124037773,0.012418542343194085,1.5220277494790648
8394080080.0,0.0006360122,0.0123930055,0.012409314922330687,1.5195210561537738
8394085085.0,0.0006735387,0.0123903753,0.012408668520645063,1.5164899459258678
8394090090.0,0.0006805625,0.0123580422,0.012376767442809414,1.5157814833342669
8394095095.0,0.0006984722,0.012366789,0.012386498035550397,1.5143765948554213
8394100100.0,0.0007436587,0.012349135,0.012371506113255196,1.510649464747392
8394105105.0,0.0008031607,0.0123749021,0.01240093823444859,1.5059848388430408
8394110110.0,0.0007889355,0.0123460618,0.012371243316359899,1.5069812998341543
8394115115.0,0.0008475966,0.0123505833,0.012379633590965868,1.5022757027946605
8394120120.0,0.0008671685,0.0123470226,0.012377437064768418,1.5006784600851721
8394125125.0,0.0009025568,0.012339115,0.012372080171113152,1.4977803700639736
8394130130.0,0.0009158759,0.0123378017,0.0123717492478923,1.4966989206645382
8394135135.0,0.0009441255,0.0123222351,0.012358351460426357,1.4943260717119238
8394140140.0,0.0009879957,0.0123172936,0.012356854661758364,1.4907556165153708
8394145145.0,0.0010084212,0.0123106818,0.012351914819065937,1.4890644807419162
8394150150.0,0.0010445152,0.0122918938,0.01233619330237288,1.4860240421596054
8394155155.0,0.0010577822,0.0123066527,0.012352028329835313,1.4850549938524484
8394160160.0,0.0011017674,0.0123046243,0.012353852458559364,1.4814935609624453
8394165165.0,0.0011270284,0.0122991201,0.012350649709575225,1.479416646375752
8394170170.0,0.001171729,0.0122746476,0.01233044697298629,1.475625430235419
8394175175.0,0.0011925655,0.0122597202,0.012317587095453325,1.4738263172997073
8394180180.0,0.001231125,0.0122707562,0.012332360945312273,1.4708009498600658
8394185185.0,0.0012506779,0.0122711116,0.012334681800079116,1.46922654728175
8394190190.0,0.0012863666,0.0122582826,0.012325592534684016,1.4662404334377874
8394195195.0,0.0013106014,0.0122378097,0.012307788683719591,1.4641085201465478
8394200200.0,0.0013574349,0.0122416287,0.01231665956079008,1.4603606974416723
8394205205.0,0.0013628147,0.0122036898,0.012279548389137125,1.4595847468222074
8394210210.0,0.0014018583,0.0122257278,0.012305837108176418,1.4566303257975075
8394215215.0,0.0014409506,0.0122087198,0.01229346077337673,1.4533134884924543
8394220220.0,0.001473614,0.0122323495,0.012320791878412129,1.4509054799950556
8394225225.0,0.0014998418,0.0121932531,0.012285151467755164,1.4484052551920348
8394230230.0,0.0015201532,0.0121887048,0.012283134390415716,1.4467188164157856
8394235235.0,0.0015442615,0.0121880563,0.012285497952966821,1.4447650303427841
8394240240.0,0.0015760548,0.0121619272,0.012263621893661876,1.4419252857721028
8394245245.0,0.0016172218,0.0121563656,0.012263467329889153,1.4385379522720458
8394250250.0,0.0016216644,0.0121527882,0.012260508001721895,1.4381402881567487
8394255255.0,0.0016464981,0.012163567,0.012274498692687723,1.4362510179969572
8394260260.0,0.0017010684,0.0121648146,0.012283173366595936,1.4318620921398433
8394265265.0,0.0017306539,0.0121242329,0.012247129718224904,1.4290107683601643
8394270270.0,0.0017686126,0.0121188368,0.012247211760801435,1.4258802284713177
8394275275.0,0.0017768305,0.0121119492,0.012241586500495385,1.4251347045749083
8394280280.0,0.0018007151,0.0121230017,0.012256008530087228,1.4233374279192945
8394285285.0,0.0018431446,0.0121000558,0.012239629585065996,1.4196330289623877
8394290290.0,0.0018657866,0.012065953,0.012209356307150209,1.4173790765320893
8394295295.0,0.0018925694,0.0120795716,0.012226932116166463,1.4153845368967874
8394300300.0,0.0019416675,0.0120575819,0.012212917503846649,1.4111340997509318
8394305305.0,0.0019763371,0.0120543524,0.012215290422917588,1.4082899490504417
8394310310.0,0.0019986623,0.0120711501,0.012235494094076108,1.4067114810403332
8394315315.0,0.0020325512,0.0120559088,0.012226046023737145,1.403773211056763
8394320320.0,0.0020567917,0.0120384022,0.01221284240568729,1.4015776842903327
8394325325.0,0.0020793056,0.0120192178,0.01219775013279204,1.3994934284668257
8394330330.0,0.0021315493,0.0120096937,0.012197386817927446,1.3951398122305507
8394335335.0,0.0021485465,0.0120031646,0.012193941630061848,1.3936737855276762
8394340340.0,0.0021813282,0.0119827526,0.012179677852427871,1.3907290914347976
8394345345.0,0.0022122677,0.0119840802,0.012186562543083892,1.3882508271359346
8394350350.0,0.0022369699,0.011979528,0.012186596138228672,1.3861896969117598
8394355355.0,0.002256706,0.0119658093,0.012176753022641235,1.3843896300803102
8394360360.0,0.0022780335,0.0119564305,0.012171510462077107,1.3825249304795328
8394365365.0,0.0023136313,0.0119523889,0.012174255221950248,1.3795904395839846
8394370370.0,0.0023716654,0.0119306326,0.012164077893771476,1.3745665189367795
8394375375.0,0.0023852077,0.0119170776,0.012153433847952644,1.373256167722815
8394380380.0,0.0024094649,0.0119188501,0.012159955131932108,1.371328726337301
8394385385.0,0.0024452599,0.0118936957,0.012142458292403005,1.368028766979908
8394390390.0,0.0024739568,0.011874239,0.012129221495107888,1.365388265061872
8394395395.0,0.0025053926,0.0118693253,0.01213086456759595,1.362768730520821
8394400400.0,0.0025449577,0.0118926804,0.012161934747043064,1.3599822833487716
8394405405.0,0.0025638342,0.0118497672,0.012123952676387576,1.35771912219088
8394410410.0,0.0025963294,0.0118457786,0.012126969819106598,1.355030584329891
8394415415.0,0.0026183598,0.0118322089,0.012118455986448739,1.3530150797698843
8394420420.0,0.0026561369,0.0118104993,0.012105492841964018,1.3495806457016934
8394425425.0,0.0026710532,0.0117771236,0.012076223146617786,1.3477691538045702
8394430430.0,0.0027188071,0.011778323,0.012088043875637588,1.343938428532297
8394435435.0,0.0027268535,0.0117690308,0.012080803614901242,1.3431164459840181
8394440440.0,0.0027764352,0.0117670056,0.01209012047955811,1.3390834517082688
8394445445.0,0.0027969742,0.0117517339,0.012079996454133374,1.3371383213321952
8394450450.0,0.0028074291,0.0117503065,0.012081033109609007,1.3362690830800827
8394455455.0,0.0028580029,0.0117323412,0.01207543003828956,1.3318498355051414
8394460460.0,0.0028669971,0.0116889338,0.012035399692249147,1.3302701379617954
8394465465.0,0.0029279515,0.011725401,0.012085442838272549,1.326090493708884
8394470470.0,0.0029526133,0.0116892224,0.01205636120958553,1.323378883302482
8394475475.0,0.0029586769,0.0116758418,0.01204487653474376,1.3226187365803481
8394480480.0,0.0029766075,0.0116705638,0.012044179159200792,1.3210679691826785
8394485485.0,0.0030507075,0.0116603744,0.012052848103196671,1.31490178555289
8394490490.0,0.0030676114,0.0116155918,0.01201383421583789,1.312597071505543
8394495495.0,0.0030734294,0.0115998833,0.012000135867997632,1.3117940681623967
8394500501.0,0.0031102276,0.0115919346,0.012001935822794543,1.3086606831991963
8394505506.0,0.0031462438,0.0116106357,0.012029368703600074,1.306171807988531
8394510511.0,0.0031797666,0.0115936841,0.012021831251563482,1.3031115759842324
8394515516.0,0.0032060339,0.0115765939,0.012012334481418106,1.3006264478521112
8394520521.0,0.0032092519,0.0115395138,0.011977465362005604,1.299541262450772
8394525526.0,0.0032593943,0.0115188294,0.011971093598714231,1.2950428147439677
8394530531.0,0.0032929483,0.0115141881,0.011975810457278226,1.2922413274783544
8394535536.0,0.0033309928,0.0115154371,0.011987527044295176,1.2892186315020835
8394540541.0,0.0033594078,0.0114833133,0.011964618887062711,1.2861911792112202
8394545546.0,0.0033843332,0.011473707,0.01196242715883659,1.2839658799496918
8394550551.0,0.0033987496,0.011472314,0.011965178116438392,1.2827773037659138
8394555556.0,0.0034333324,0.0114247803,0.011929517017555985,1.278865954337364
8394560561.0,0.0034559832,0.0114248462,0.01193611873987255,1.2770501637024994
8394565566.0,0.0035097518,0.0114141231,0.011941547799157229,1.2724803685036654
8394570571.0,0.0035220033,0.0113927568,0.011924739609281082,1.2709717248955545
8394575576.0,0.0035432651,0.011404895,0.011942627748109,1.269571008774871
8394580581.0,0.0035798707,0.0113696487,0.011919915511031536,1.2657610204502887
8394585586.0,0.003593951,0.0113578725,0.011912923718242187,1.2643367674989978
8394590591.0,0.0036428379,0.0113271466,0.011898509068936662,1.2596404737200604
8394595596.0,0.0036491205,0.0113264408,0.01189976225054202,1.2591197070919071
8394600601.0,0.0037167545,0.0113019316,0.011897391390735567,1.2530770589862499
8394605606.0,0.0037521282,0.0113040587,0.011910508348608842,1.2503115351788392
8394610611.0,0.0037481413,0.0112628263,0.011870122976142133,1.2495360242756912
8394615616.0,0.0037770061,0.0112498381,0.011866955479635406,1.246882500330916
8394620621.0,0.0037993562,0.0112367916,0.011861728077995593,1.2447461946116247
8394625626.0,0.0038197632,0.011209641,0.011842577517287156,1.2423794530367862
8394630631.0,0.0038639651,0.0111878636,0.01183632198895514,1.2382511587219
8394635636.0,0.0038929297,0.0111692062,0.011828189581980014,1.235421603942877
8394640641.0,0.0039248445,0.0111773593,0.011846424155435123,1.2331041633903161
8394645646.0,0.0039527033,0.0111485398,0.011828516519412522,1.230074735145355
8394650651.0,0.0039817395,0.0111397504,0.01182997415128877,1.2275130911971246
8394655656.0,0.0040080307,0.0110984175,0.011799965300645962,1.2242360348062407
8394660661.0,0.004033612,0.0110853319,0.01179638118660556,1.2218196031987238
8394665666.0,0.004049018,0.0110911473,0.011807120529350977,1.220761861855584
8394670671.0,0.0040900012,0.0110554443,0.011787746115623797,1.2164572383995997
8394675676.0,0.0041141236,0.0110448184,0.01178617946940634,1.2142249020460563
8394680681.0,0.0041438303,0.0110120084,0.011765868372409605,1.2108855000090317
8394685686.0,0.0041798353,0.0110097592,0.01177649441799684,1.2079567597900345
8394690691.0,0.0042139042,0.0109437924,0.011727044840925415,1.2032441836671095
8394695696.0,0.004211452,0.0109549587,0.011736585877801502,1.2037810372147348
8394700701.0,0.0042708077,0.0109728039,0.011774643257365996,1.1996195958091442
8394705706.0,0.0042902966,0.0109292674,0.011741189497520016,1.1967278104980663
8394710711.0,0.0043053604,0.0108777038,0.011698742160353076,1.1939186378595015
8394715716.0,0.0043401704,0.0108875057,0.01172070217472352,1.1914648842406446
8394720721.0,0.0043603346,0.0108449276,0.01168866855006159,1.1885135236493098
8394725726.0,0.004380442,0.010826636,0.011679225967154674,1.1863319179668017
8394730731.0,0.0044208396,0.0108160096,0.011684600396942137,1.1827858655135055
8394735736.0,0.0044586842,0.0108043438,0.011688186760311801,1.1794110759116623
8394740741.0,0.0044446882,0.0107916046,0.011671074630811013,1.1801032170501087
8394745746.0,0.0045076088,0.0107432043,0.011650535426553404,1.1735273778645243
8394750751.0,0.0045209217,0.0107375949,0.011650522617206357,1.1722873996451444
8394755756.0,0.0045445779,0.0107188549,0.01164246703480076,1.1697901196710678
8394760761.0,0.0045887381,0.0107197908,0.011660636009504639,1.1663347618401572
8394765766.0,0.0045933358,0.0106741639,0.0116205210182515,1.164425895825872
8394770771.0,0.0046576913,0.0107030304,0.011672572466659602,1.1603390220711784
8394775776.0,0.0046579671,0.0106243961,0.011600622827864789,1.1576124208361267
8394780781.0,0.0046863017,0.0106332854,0.011620162736436871,1.1556863827031667
8394785786.0,0.004711472,0.0105865987,0.011587667601447053,1.1520738324169466
8394790791.0,0.0047435385,0.0105458301,0.011563550060385794,1.1481068309081517
8394795796.0,0.0047687948,0.0105643941,0.011590850984488666,1.1467766226750606
8394800801.0,0.0047831281,0.0105391131,0.01157372970807601,1.1447491610128082
8394805806.0,0.0048067992,0.0105151968,0.01156177677919146,1.1420299341583915
8394810811.0,0.0048439926,0.0104571132,0.011524559895565167,1.136999366230571
8394815816.0,0.0048670556,0.0104635934,0.01154014805165059,1.1354219968040367
8394820821.0,0.0049075869,0.0104285794,0.011525609636073747,1.130952164180231
8394825826.0,0.0049270994,0.0104189087,0.01152518837140704,1.129062993845351
8394830831.0,0.0049486141,0.0103819244,0.011501005858534034,1.125997118371088
8394835836.0,0.0049648719,0.0103752117,0.011501955086124553,1.1244700568200712
8394840841.0,0.0050335378,0.0103225179,0.011484375410959416,1.1170960722926941
8394845846.0,0.0050354818,0.0103032783,0.011467938815906811,1.1162083853758489
8394850851.0,0.0050719265,0.0102850983,0.011467680038354102,1.112656993022857
8394855856.0,0.0050957425,0.0102721536,0.011466635566211181,1.110294902562771
8394860861.0,0.0051002713,0.0102555261,0.011453758462678742,1.1092955578638126
8394865866.0,0.005120518,0.0102180159,0.011429241161204747,1.1062479665598925
8394870871.0,0.0051651073,0.0102036708,0.011436486838854227,1.1022003154094102
8394875876.0,0.0051730251,0.01017713,0.011416398894665954,1.1005315732818326
8394880881.0,0.0052115692,0.0101350931,0.011396515505717362,1.0958452174029611
8394885886.0,0.0052399046,0.0100947506,0.011373679698905783,1.09200761786786
8394890891.0,0.0052533835,0.0101110189,0.011394329352543284,1.0916154606261972
8394895896.0,0.0052904274,0.0100689434,0.011374191983041008,1.087019885930477
8394900901.0,0.0053260289,0.0100397712,0.01136501604011119,1.0830528968985291
8394905906.0,0.0053400324,0.0100282647,0.011361427679931596,1.081489455294475
8394910911.0,0.0053449251,0.0099819904,0.011322912905710357,1.0791872044039992
8394915916.0,0.0053941262,0.0099514914,0.011319398329672846,1.074083436279566
8394920921.0,0.0054053748,0.00991146,0.01128960212142461,1.0715177326080672
8394925926.0,0.0054182056,0.0099030349,0.011288359143581912,1.070162495877922
8394930931.0,0.0054484491,0.0098873538,0.011289170153809591,1.067145563314398
8394935936.0,0.0054933901,0.0098700361,0.011295793350007834,1.0629211027285683
8394940941.0,0.0055138591,0.0098335587,0.011273930941823199,1.0597611391239141
8394945946.0,0.0055190933,0.0098282645,0.011271875351336402,1.0591263945365634
8394950951.0,0.0055582416,0.0097814123,0.011250336717919241,1.0540531973991414
8394955956.0,0.0055651013,0.0097629418,0.011237677031728973,1.0527104444038697
8394960961.0,0.0055716913,0.0097110232,0.011195879399736043,1.049902602582786
8394965966.0,0.0056319538,0.0096918709,0.01120942751203652,1.044389231584851
8394970971.0,0.0056502327,0.0096743512,0.011203490558977177,1.042192888653464
8394975976.0,0.0056733409,0.0096406513,0.011186105419483785,1.0388896764458033
8394980981.0,0.0057013366,0.0096085941,0.01117274897261432,1.0352749314962297
8394985986.0,0.0057114502,0.0095751935,0.011149214947677809,1.0329660943319752
8394990991.0,0.0057448576,0.0095331833,0.011130362647985764,1.0284548387588943
8394995996.0,0.005757102,0.0094999491,0.0111082517229758,1.0259665098589106
8395001001.0,0.0057932185,0.0094917406,0.01112000540496409,1.0228062875169635
8395006006.0,0.0057966381,0.0094701159,0.011103337715381101,1.021528765328638
8395011011.0,0.0058250858,0.0094189083,0.011074631286917436,1.016923916527453
8395016016.0,0.0058522625,0.0093766202,0.011053053096043387,1.012820377014332
8395021021.0,0.0058677813,0.0093665187,0.011052715953198082,1.0111453595003936
8395026026.0,0.0059151461,0.0093477752,0.011062090877138926,1.0066173037530048
8395031031.0,0.0059087608,0.0093309825,0.011044486796901107,1.0062928274871725
8395036036.0,0.0059170489,0.0092749167,0.011001615675751,1.0029299297279708
8395041041.0,0.0059576639,0.0092615236,0.011012246752535114,0.9991664958637131
8395046046.0,0.0059751092,0.0092348474,0.010999287997557452,0.9965205242801881
8395051051.0,0.0059699195,0.0091817313,0.010951900679876527,0.9942837512499835
8395056056.0,0.0060274661,0.0091414508,0.010949724668477734,0.9878723759682967
8395061061.0,0.0060542759,0.0091341386,0.010958409767723179,0.9854625834661338
8395066066.0,0.0060617056,0.0090808216,0.010918131511943695,0.9821974302239536
8395071071.0,0.0060713747,0.0090685713,0.010913321042239332,0.9808373215145018
8395076076.0,0.0061069835,0.0090157659,0.010889411473209884,0.9754222475706041
8395081081.0,0.0061240451,0.0089871707,0.010875346687704833,0.972648752894812
8395086086.0,0.0061296178,0.0089538551,0.010850978551535011,0.9704954335553313
8395091091.0,0.0061588302,0.0089188611,0.010838693313934352,0.9664476229367555
8395096096.0,0.006176497,0.0089003127,0.010833498112280735,0.9641328367532368
8395101101.0,0.0062020917,0.0088485934,0.010805718236828705,0.9594580588629946
8395106106.0,0.0062318372,0.0088145827,0.010795029553569695,0.9553933134163293
8395111111.0,0.0062414637,0.0087937771,0.010783616499250245,0.9535505867512071
8395116116.0,0.0062843685,0.0087434762,0.010767621069844475,0.9475973753383159
8395121121.0,0.0062834197,0.0086862302,0.010720632360721084,0.9445527394851913
8395126126.0,0.0063120789,0.0087067093,0.010754028402163149,0.9435096163545285
8395131131.0,0.006315846,0.0086404563,0.010702681709175776,0.9395912293846116
8395136136.0,0.0063359215,0.0086172671,0.010695849359770577,0.9367965287998348
8395141141.0,0.0063602614,0.0085503993,0.010656559166343067,0.931239321188649
8395146146.0,0.0063937947,0.0085348478,0.010664156677155158,0.9278459338692293
8395151151.0,0.0063842101,0.0084839835,0.010617726434091916,0.9256961951467211
8395156156.0,0.0063943994,0.0084750169,0.010616696997748686,0.9244214972955429
8395161161.0,0.0064158571,0.0084562557,0.010614682415946456,0.9217432325109723
8395166166.0,0.0064137101,0.0083710998,0.010545662099100371,0.9170246344050589
8395171171.0,0.0064498212,0.0083431212,0.01054551396897557,0.9126928275512785
8395176176.0,0.0064459209,0.0083209261,0.010525573970606925,0.911696285447433
8395181181.0,0.0064965501,0.0082664936,0.010513804242073894,0.9047187958145835
8395186186.0,0.006489224,0.0082617127,0.010505518781074892,0.9049858941397322
8395191191.0,0.006524155,0.0081976389,0.010476921398904271,0.8985862142200222
8395196196.0,0.0065455881,0.0081784948,0.01047532819383186,0.8958472394214017
8395201201.0,0.0065272445,0.00813716,0.010431600722246814,0.8947441675506548
8395206206.0,0.0065440673,0.0081073872,0.010418951196624981,0.8916966394383459
8395211211.0,0.0065663525,0.0080522585,0.01039018056171684,0.8866950782636841
8395216216.0,0.006586236,0.0080090457,0.010369345093706954,0.8825753324021176
8395221221.0,0.0066027993,0.0079756885,0.010354156925849286,0.879293513012083
8395226226.0,0.0066078925,0.0079343386,0.010325597915423892,0.8763598405435925
8395231231.0,0.0066107969,0.0078938905,0.01029641407865087,0.8736291149204853
8395236236.0,0.0066593066,0.0078575601,0.010299884228374393,0.8677536247167978
8395241241.0,0.0066427378,0.0078061008,0.010249935374396732,0.8657408680411518
8395246246.0,0.0066565795,0.0077696143,0.01023117573940477,0.8623993564655692
8395251251.0,0.0066783069,0.0077365701,0.010220288643810489,0.8586813471757074
8395256256.0,0.0067089406,0.0077097851,0.010220111068990902,0.8546998304488593
8395261261.0,0.0066980784,0.0076521822,0.0101695696405769,0.8517873162333659
8395266266.0,0.0067000668,0.0076229217,0.010148883207959048,0.8497409512410715
