frequency,Re(S21),Im(S21),Amplitude,phase
8632000000.0,-0.0007344802,0.0086531595,0.008684274897573906,1.6554733633759384
8632013213.0,-0.0006923267,0.0086555925,0.008683236596200124,1.65061245642907
8632026426.0,-0.0006660669,0.0086686047,0.008694156230488253,1.64748233964269
8632039640.0,-0.0006058883,0.0086431902,0.008664400583159398,1.640781916916232
8632052853.0,-0.0005409781,0.0086756026,0.008692452920655158,1.633071951206846
8632066066.0,-0.0004737094,0.0086464367,0.00865940345536315,1.6255282712425758
8632079279.0,-0.0004540166,0.0086688403,0.008680721353665238,1.6231219145097993
8632092492.0,-0.0004034612,0.0086822032,0.008691572547358487,1.6172328300631273
8632105706.0,-0.000329386,0.008671274,0.008677527753921159,1.6087639553501318
8632118919.0,-0.0002943506,0.0086544283,0.008659432514637506,1.6047947803356442
8632132132.0,-0.0002752885,0.0086596642,0.008664038770399974,1.6025753675794787
8632145345.0,-0.0002083636,0.0086803854,0.008682885815346078,1.5947956753519805
8632158559.0,-0.0001540203,0.0086543959,0.008655766323483376,1.5885912190292197
8632171772.0,-9.66196e-05,0.0086709612,0.008671499494263355,1.5819387594704362
8632184985.0,-7.39111e-05,0.0086883396,0.008688653972603086,1.5793030519634117
8632198198.0,-2.16929e-05,0.0086579741,0.008658001276171147,1.573301861502619
8632211411.0,4.78709e-05,0.0086739529,0.008674084996959923,1.5652774573088757
8632224625.0,8.24065e-05,0.0086539299,0.008654322246447509,1.5612741778635122
8632237838.0,0.000137331,0.008646091,0.008647181586149444,1.5549140682419373
8632251051.0,0.0001706109,0.0086349226,0.008636607921353706,1.551040654207111
8632264264.0,0.0002115392,0.0086219321,0.008624526767895562,1.5462662369788103
8632277477.0,0.0002621902,0.0086542603,0.008658231057273312,1.5405095064622933
8632290691.0,0.0003097406,0.0086411995,0.008646748986647445,1.5349670363446963
8632303904.0,0.0003565388,0.0086495998,0.008656944993244757,1.5295993834750286
8632317117.0,0.0004081833,0.0086258032,0.008635455659751205,1.5235104082240756
8632330330.0,0.0004707153,0.008642954,0.008655762631898479,1.5163877619216828
8632343544.0,0.0005277908,0.0086213347,0.008637475044131168,1.5096534819451062
8632356757.0,0.0005489946,0.0086246213,0.008642076581426645,1.5072277488273926
8632369970.0,0.0005993315,0.0086010286,0.00862188443583595,1.5012274034522126
8632383183.0,0.0006497524,0.0086474827,0.008671858810434188,1.4957995002247384
8632396396.0,0.0006986661,0.0085975566,0.00862589785526659,1.4897111692798983
8632409610.0,0.0007068954,0.0085847187,0.008613773636721066,1.4886382264791442
8632422823.0,0.0007687648,0.0086070651,0.008641329119606373,1.4817148338258854
8632436036.0,0.0008362965,0.0085823659,0.00862301549792154,1.4736594137902013
8632449249.0,0.0008966088,0.0085832969,0.008629999595236785,1.4667140864119528
8632462462.0,0.0009344953,0.0085827361,0.008633460512909369,1.4623427390297405
8632475676.0,0.0009856937,0.0085694391,0.008625942183832934,1.456275321167307
8632488889.0,0.0010237855,0.0085331777,0.008594373648485825,1.451390023613543
8632502102.0,0.0010653751,0.0085441178,0.008610282985127542,1.4467455314870268
8632515315.0,0.0011191506,0.0085271275,0.008600255895421753,1.4402963153942832
8632528529.0,0.001152771,0.0085122532,0.008589955501593197,1.4361903319994915
8632541742.0,0.0012055692,0.0085025417,0.008587584785970239,1.4299459414731852
8632554955.0,0.001258951,0.008494489,0.00858727552786808,1.4236594314722206
8632568168.0,0.001319665,0.0084966332,0.008598505186808183,1.4167112348194688
8632581381.0,0.0013515298,0.0084749508,0.008582040774938599,1.4126544954216647
8632594595.0,0.0014106589,0.0084818493,0.00859835601031149,1.4059898157072743
8632607808.0,0.001420419,0.0084618405,0.008580229296644773,1.4044851321726148
8632621021.0,0.0014866035,0.0084541418,0.008583851323311669,1.3967326158034952
8632634234.0,0.0015412014,0.008446727,0.008586180685723482,1.390320289153038
8632647447.0,0.001587178,0.008405159,0.008553702813341425,1.3841602006457856
8632660661.0,0.0016359477,0.0084330629,0.008590277920561808,1.379184197898047
8632673874.0,0.0016482702,0.0084079508,0.008567988755094668,1.3772141459085414
8632687087.0,0.0017051083,0.008394155,0.008565584187827114,1.3703925598120716
8632700300.0,0.0017678079,0.0083908135,0.008575015799582218,1.3631493700352872
8632713514.0,0.0017995701,0.008367435,0.008558762820877735,1.3589548763210964
8632726727.0,0.0018577422,0.0083748832,0.008578454097056362,1.3525077932887182
8632739940.0,0.0018899157,0.0083559377,0.008566999252911591,1.3483624761207595
8632753153.0,0.0019408965,0.0083245806,0.008547848933480784,1.341735928403185
8632766366.0,0.0019657635,0.0083082277,0.008537615220480455,1.338464445819428
8632779580.0,0.0020195688,0.0083150625,0.008556805625748412,1.332529255525508
8632792793.0,0.002078756,0.0082750365,0.008532142496692624,1.3246809743313988
8632806006.0,0.0021447763,0.008257111,0.00853111642420631,1.316663392243392
8632819219.0,0.0021938898,0.0082656973,0.00855189477892305,1.3113572443671435
8632832432.0,0.0022143347,0.0082340858,0.008526631640066652,1.3080886258280484
8632845646.0,0.0022521237,0.0082158652,0.008518949591626466,1.3032494781016302
8632858859.0,0.0022841928,0.0082165962,0.008528187958847196,1.2996455506365876
8632872072.0,0.0023353714,0.0081696079,0.008496849581796796,1.2923611315583168
8632885285.0,0.0023976855,0.0081874751,0.008531333088681408,1.285913870227896
8632898498.0,0.002456443,0.0081727155,0.008533896581057757,1.2788200561967742
8632911712.0,0.002488061,0.0081598072,0.008530703434119186,1.2748349788842481
8632924925.0,0.0025078804,0.0081574902,0.0085342902729987,1.2725344374348195
8632938138.0,0.0025565141,0.0081276563,0.008520244202746097,1.266049433845216
8632951351.0,0.0026236244,0.0081056465,0.008519677821093802,1.2577600427477291
8632964565.0,0.0026715941,0.008100608,0.00852978692610893,1.2522276238804573
8632977778.0,0.0026985896,0.0080779704,0.008516806420983415,1.248384920383762
8632990991.0,0.0027357824,0.0080361815,0.008489094088363729,1.2426696251759248
8633004204.0,0.0028019268,0.0080102242,0.008486134899164867,1.234305212069803
8633017417.0,0.002824637,0.0080008461,0.008484816585976046,1.2314138051647623
8633030631.0,0.0028812031,0.0079842448,0.00848819747235988,1.2244786792067424
8633043844.0,0.0029075455,0.0079712141,0.008484932236771785,1.2210370987360886
8633057057.0,0.0029499533,0.0079670492,0.008495651677617292,1.2161796037413506
8633070270.0,0.0030134001,0.0079321131,0.008485222353826188,1.2077377667609677
8633083483.0,0.0030587106,0.007904569,0.008475725432687951,1.2015861824250806
8633096697.0,0.0031001031,0.0078962807,0.008483035313130678,1.1966829363404299
8633109910.0,0.0031455031,0.0078630357,0.008468855895077215,1.1902582851175387
8633123123.0,0.0031912271,0.0078567688,0.008480138346774057,1.1849775940191742
8633136336.0,0.003230922,0.0078081721,0.008450231269811637,1.1784611869522703
8633149550.0,0.003276188,0.0077760754,0.008438054067012675,1.1720498644945723
8633162763.0,0.0033170405,0.0077791608,0.008456837495831222,1.1677397755662835
8633175976.0,0.0033351066,0.0077582451,0.008444720425510697,1.1648003962163485
8633189189.0,0.00338477,0.0077468191,0.00845398569439438,1.1588695785551737
8633202402.0,0.0034223274,0.00769875,0.008425145482143959,1.1525003324886482
8633215616.0,0.0034670025,0.0076815242,0.008427687723817957,1.1468260872932396
8633228829.0,0.0035408714,0.0076703906,0.008448234266869399,1.138314273965432
8633242042.0,0.0035727589,0.007635105,0.008429675825235168,1.1331253606178309
8633255255.0,0.0035979738,0.0076291799,0.00843503416780575,1.130120102538442
8633268468.0,0.0036483382,0.0076107183,0.008439988427926554,1.1237897701727206
8633281682.0,0.0036680785,0.0075677575,0.008409860489982489,1.1194649162635586
8633294895.0,0.0037261802,0.0075349594,0.008405952179409565,1.1115431651900598
8633308108.0,0.0037878793,0.0075264941,0.008425920900928474,1.1045339556167937
8633321321.0,0.0038015532,0.007490773,0.0084002075492192,1.101168231850106
8633334535.0,0.003880347,0.0074829366,0.008429201207708152,1.0924116888845554
8633347748.0,0.0039086108,0.007461465,0.008423223749378954,1.0882594356656348
8633360961.0,0.0039317088,0.0073978871,0.008377772235644978,1.0822956904269059
8633374174.0,0.0039595068,0.0074093673,0.008400977198252328,1.0800151215024598
8633387387.0,0.0040057874,0.0073616042,0.008380903834996343,1.0724586649372463
8633400601.0,0.0040405347,0.0073552298,0.008391979866081194,1.0684586421017592
8633413814.0,0.0040891815,0.0072952739,0.008363158889795379,1.0599086277560839
8633427027.0,0.0041346772,0.0072681429,0.008361905091725226,1.053576040240861
8633440240.0,0.0041885983,0.0072544379,0.008376826664299512,1.0471720541847942
8633453453.0,0.0042092728,0.0072427124,0.008377043655964412,1.044334845688771
8633466667.0,0.0042437865,0.0072056644,0.00836249504053722,1.0385403715885995
8633479880.0,0.0042967471,0.0071545533,0.008345637696659212,1.0299642832030365
8633493093.0,0.004309147,0.0071510312,0.008349011623598475,1.0284738613194515
8633506306.0,0.0043518686,0.0071248476,0.008348785159224768,1.0224722780380844
8633519520.0,0.0044284566,0.0070907019,0.008359980938539704,1.0125248596590808
8633532733.0,0.0044401651,0.0070551376,0.008336068178115613,1.0090735884532336
8633545946.0,0.0044718241,0.0070137371,0.00831803575907541,1.0032012538561337
8633559159.0,0.0045247784,0.0070376591,0.008366735634458602,0.999401642748252
8633572372.0,0.0045564784,0.0069791747,0.008334889015625022,0.9924077224228586
8633585586.0,0.0046082935,0.0069375878,0.008328654961327854,0.9844685864162399
8633598799.0,0.0046300864,0.006891288,0.008302261762339764,0.979196389008171
8633612012.0,0.004663903,0.0068821517,0.008313603503609124,0.9752071730270667
8633625225.0,0.0046801782,0.006827427,0.008277549602635083,0.9698706318921767
8633638438.0,0.0047492544,0.006826303,0.00831587818596018,0.9629428132621314
8633651652.0,0.0047749443,0.0067846574,0.008296485346426958,0.9575341952659189
8633664865.0,0.0048134729,0.0067566686,0.008295908143733292,0.9517944250007536
8633678078.0,0.0048592839,0.0067196553,0.008292551318600162,0.9447052222091995
8633691291.0,0.0048742396,0.0066574783,0.00825107441447349,0.9388206752456979
8633704505.0,0.004915453,0.0066596575,0.00827724085746665,0.934958728340946
8633717718.0,0.0049662554,0.0066180679,0.008274207842871702,0.927033733148229
8633730931.0,0.0049664573,0.0065768561,0.008241403659136623,0.9240127397128852
8633744144.0,0.0050274197,0.0065651866,0.00826901589868877,0.9172788888592496
8633757357.0,0.0050551306,0.0065240289,0.008253320451254246,0.9115812422541402
8633770571.0,0.0051040848,0.0065072859,0.008270214714862598,0.9056621334259495
8633783784.0,0.0051179396,0.0064768781,0.008254892832224279,0.9020681300439521
8633796997.0,0.0051828274,0.0064192538,0.008250364792359499,0.8915668160275773
8633810210.0,0.0052023452,0.0064176086,0.008261361614331926,0.8896035228382777
8633823423.0,0.0052303164,0.006350612,0.008227179493523461,0.8818343482372816
8633836637.0,0.0052822242,0.0063067285,0.008226585979115388,0.8735724683005494
8633849850.0,0.0053243016,0.0062927077,0.008242958068885335,0.8685669213291801
8633863063.0,0.0053197954,0.00625734,0.00821307049607278,0.8662042586822685
8633876276.0,0.0053737576,0.0061930529,0.008199461870498342,0.856111627991632
8633889489.0,0.0054071382,0.006184685,0.008215075901239394,0.8523750119462226
8633902703.0,0.0054361732,0.0061517955,0.008209541213382054,0.8470754649037932
8633915916.0,0.0054385436,0.0060909368,0.008165614954839298,0.8419226750106344
8633929129.0,0.0054818354,0.006085599,0.008190545436141243,0.8375459595118475
8633942342.0,0.0055251965,0.0060176521,0.0081694512153661,0.828035571305389
8633955556.0,0.0055527656,0.0059765976,0.008157997590148524,0.8221427110557497
8633968769.0,0.0055684534,0.0059665309,0.00816132123179981,0.8198949229543937
8633981982.0,0.0056115807,0.0059183206,0.008155756045701517,0.8119957513646794
8633995195.0,0.0056509974,0.0058896966,0.008162248321072959,0.8060784769418785
8634008408.0,0.0056626322,0.0058246712,0.008123558211805113,0.799503149423764
8634021622.0,0.0057326529,0.0058390301,0.008182761256482094,0.7945907936772564
8634034835.0,0.0057519511,0.0057713221,0.008148196134037253,0.787079194595544
8634048048.0,0.0057574901,0.0057482769,0.008135808476769327,0.7845974172993525
8634061261.0,0.0057741341,0.0056827252,0.008101480747585458,0.7774198023059192
8634074474.0,0.0058173447,0.0056734068,0.00812582574738742,0.772872405423519
8634087688.0,0.0058370406,0.0056146978,0.008099127999443718,0.7659849651631436
8634100901.0,0.0058794665,0.0055846627,0.008109043334290028,0.7596885051917641
8634114114.0,0.0059079628,0.0055479747,0.00810456955784969,0.7539847867012694
8634127327.0,0.0059364037,0.0054954357,0.008089542782024716,0.746843607994898
8634140541.0,0.0059544207,0.0054469059,0.008069938646361774,0.7409138671432326
8634153754.0,0.0059824753,0.005428554,0.008078317228608078,0.736893614389405
8634166967.0,0.0060192722,0.0053863283,0.008077386357793821,0.7299608928925482
8634180180.0,0.0060172213,0.005327211,0.008036549583726507,0.7246493076767029
8634193393.0,0.0060684765,0.005290651,0.008050925104287907,0.7170290757260573
8634206607.0,0.0060995019,0.0052308178,0.008035258445432882,0.7088788752713022
8634219820.0,0.0061127078,0.005186951,0.008016835867384454,0.7036528790301482
8634233033.0,0.006150669,0.0051588243,0.008027714326371579,0.6979217859471516
8634246246.0,0.0061784267,0.0051215449,0.008025159104341104,0.6921398685625181
8634259459.0,0.0062043883,0.0051019635,0.008032712227666888,0.6882005037341298
8634272673.0,0.0062200665,0.0050636181,0.0080205645391749,0.6832662183632299
8634285886.0,0.0062342647,0.0049931662,0.00798735031474697,0.675303514637653
8634299099.0,0.0062716907,0.0049539326,0.007992218242879084,0.668544541666972
8634312312.0,0.0062971709,0.0049196032,0.007991048553804255,0.6631969215112109
8634325526.0,0.0063277619,0.0048759327,0.007988447305829895,0.656531421393785
8634338739.0,0.0063490539,0.0048262881,0.007975182897545787,0.6499709917592759
8634351952.0,0.0063608978,0.0047767705,0.007954782035462385,0.6441142896804436
8634365165.0,0.0064026189,0.0047535471,0.007974317451077278,0.6386437887092942
8634378378.0,0.0063935632,0.004688116,0.00792818276920066,0.6326982819250349
8634391592.0,0.0064204414,0.0046551229,0.007930462595898071,0.6273391134050437
8634404805.0,0.0064506695,0.0046299311,0.00794023922744003,0.622535869590334
8634418018.0,0.0064637145,0.0045708962,0.007916608946303,0.6155168221033872
8634431231.0,0.006490673,0.0045366689,0.007918977250955845,0.6100222649526432
8634444444.0,0.0065297068,0.0044858374,0.00792210881477937,0.601940339475548
8634457658.0,0.0065496353,0.0044535031,0.00792031643463288,0.5971506710862501
8634470871.0,0.0065375096,0.0043739603,0.007865784161548565,0.5896549630250336
8634484084.0,0.0065711163,0.00435699,0.007884347232854834,0.5854957746093059
8634497297.0,0.0066192757,0.0043091876,0.007898348470699697,0.5770820378793942
8634510511.0,0.0066100628,0.0042554336,0.007861402250486411,0.5719909904615258
8634523724.0,0.0066157118,0.0042034775,0.00783816724200661,0.5660273381406745
8634536937.0,0.0066482356,0.0041532867,0.007838930220731923,0.5583980451178119
8634550150.0,0.0066619337,0.004123984,0.007835088043886405,0.5542998786018405
8634563363.0,0.0066677061,0.0040770111,0.007815390210699682,0.5488007140694987
8634576577.0,0.0066823578,0.0040307713,0.007803910752957426,0.5427661656739692
8634589790.0,0.00670983,0.0039788242,0.0078008243566565225,0.5352449663011399
8634603003.0,0.0067198983,0.0039358514,0.007787679975783857,0.5298392045192355
8634616216.0,0.0067302684,0.0038867987,0.007771982814595016,0.523718720999724
8634629429.0,0.0067490683,0.0038442868,0.0077671400089556215,0.5177685242749055
8634642643.0,0.0067650101,0.0038038616,0.007761103318797951,0.5122258855535353
8634655856.0,0.0067758772,0.0037447949,0.007741834451378164,0.5048875078448952
8634669069.0,0.0067770948,0.0037003779,0.007721516077234797,0.49977657143826115
8634682282.0,0.0068087099,0.0036506366,0.007725650657881029,0.4921644126603411
8634695495.0,0.0068223954,0.003598469,0.007713239146940938,0.48536529563111325
8634708709.0,0.0068657039,0.0035558365,0.007731873204936011,0.47787500691610785
8634721922.0,0.0068463677,0.0035243304,0.007700237363352343,0.4753966372096177
8634735135.0,0.0068573535,0.0034384888,0.007671147388213036,0.4647916577056164
8634748348.0,0.0068872089,0.0034200754,0.007689639924855023,0.46091080356184616
8634761562.0,0.0068669477,0.0034070804,0.007665713767588732,0.4605680449349187
8634774775.0,0.0068803725,0.0033198944,0.007639451849832396,0.4495633709169984
8634787988.0,0.0069119129,0.0032618124,0.007642902594563153,0.44092552688263237
8634801201.0,0.0069064592,0.0032468514,0.007631593719200898,0.4394576056947804
8634814414.0,0.0069288642,0.0031861979,0.007626337008027251,0.43101012912371656
8634827628.0,0.0069596906,0.0031542292,0.007641103002437606,0.42552347221489517
8634840841.0,0.0069470092,0.0030766338,0.007597803127495939,0.4169102437128675
8634854054.0,0.0069597174,0.0030428904,0.007595844144943662,0.41217090875628426
8634867267.0,0.0069328608,0.0029945443,0.0075519437522295636,0.40772984712163646
8634880480.0,0.0069675404,0.002938115,0.007561688897254181,0.3990604068371874
8634893694.0,0.0069843742,0.0029050377,0.007564438313850337,0.39416655144982055
8634906907.0,0.0069784371,0.002838447,0.007533615714281252,0.3863077944091262
8634920120.0,0.0069856489,0.0028193147,0.00753311528729697,0.3835944953163722
8634933333.0,0.0070118984,0.0027845841,0.007544576050507766,0.3780234969924485
8634946547.0,0.0070027344,0.0027110233,0.007509190130106325,0.3693693503482205
8634959760.0,0.0070132299,0.0026763914,0.007506561433589148,0.36456216118036433
8634972973.0,0.0070135896,0.0025885394,0.007476026705582352,0.35356591004894694
8634986186.0,0.0070071735,0.0025707007,0.007463845024388083,0.35162137157596485
8634999399.0,0.0070066719,0.0025304528,0.007449606867968098,0.34657241367881775
8635012613.0,0.0070153165,0.0024748873,0.007439068002302005,0.3391523196112906
8635025826.0,0.00701557,0.0024269725,0.007423504424505736,0.3330541152550861
8635039039.0,0.0070268441,0.0024046407,0.007426899413739309,0.3297161777800204
8635052252.0,0.0070261523,0.0023309362,0.0074027075932570595,0.3203261826793602
8635065465.0,0.0070282504,0.0022654695,0.007384352086712172,0.31182198520343335
8635078679.0,0.007032062,0.0022509153,0.007383530027000506,0.30978749433503294
8635091892.0,0.007035741,0.0021862032,0.007367573267417925,0.30126989680897187
8635105105.0,0.0070104177,0.002153052,0.007333593201369797,0.29797766816299315
8635118318.0,0.0070458881,0.00208728,0.007348556110973203,0.2880044905331994
8635131532.0,0.0070112361,0.0020380335,0.007301439049739815,0.2828855281919625
8635144745.0,0.0070095036,0.002005351,0.007290718301485386,0.2786472619269331
8635157958.0,0.0070321717,0.0019360844,0.0072938235255731445,0.2686619547575463
8635171171.0,0.0070279712,0.0018920021,0.0072781901001852,0.26297562785984474
8635184384.0,0.0070183417,0.0018489406,0.0072578028052770385,0.2575913497555433
8635197598.0,0.0070051842,0.001809743,0.007235176252309176,0.2528157148665804
8635210811.0,0.0070030734,0.0017547941,0.007219580277217116,0.2455196296665361
8635224024.0,0.0070374985,0.0017065205,0.007241449948347534,0.23789769704463548
8635237237.0,0.0070170728,0.0016849,0.007216522617611605,0.23565311701857275
8635250450.0,0.0070312845,0.0016324698,0.007218304466275463,0.2281306066566474
8635263664.0,0.006995671,0.0015855977,0.007173111793809315,0.22288830496002346
8635276877.0,0.006987291,0.0015305942,0.00715296820374274,0.21564782018637044
8635290090.0,0.0069897912,0.0014790516,0.007144562593683395,0.20852573367475966
8635303303.0,0.0069907358,0.0014246651,0.00713442763454502,0.20104028629829881
8635316517.0,0.0069578543,0.0013870907,0.007094769698168854,0.19677634896811297
8635329730.0,0.0069881003,0.0013378824,0.007115017576864435,0.18916251528737962
8635342943.0,0.0069623409,0.0012879309,0.00708046303648198,0.18291757764156585
