frequency,Re(S21),Im(S21),Amplitude,phase
7986000000.0,0.0081861237,0.0144539598,0.01661112805115046,1.0554805762964516
7986008008.0,0.0082499895,0.0144086544,0.0166033625621062,1.0507888020646503
7986016016.0,0.0083327975,0.0143830326,0.01662248901183782,1.0456996991671113
7986024024.0,0.0083758444,0.014361633,0.016625620945988767,1.0428140901415235
7986032032.0,0.0084317975,0.0143191401,0.016617249540294997,1.038617158046913
7986040040.0,0.0084737548,0.0142954685,0.01661821109641514,1.0357187668553811
7986048048.0,0.0085097479,0.014253264,0.016600341682485042,1.0325572174170068
7986056056.0,0.0085527562,0.0142441573,0.016614621747237632,1.030053649353791
7986064064.0,0.0086236794,0.0141925317,0.016607100964632245,1.024792032223422
7986072072.0,0.0086603867,0.0141820188,0.016617218631199696,1.0225756913928787
7986080080.0,0.0087043623,0.0141323025,0.01659782808084141,1.0187533907597215
7986088088.0,0.008764991,0.0141117367,0.016612229829863538,1.0149966386666296
7986096096.0,0.0087795481,0.0141183729,0.016625550161834285,1.0144634510416757
7986104104.0,0.0088264579,0.0140498461,0.016592303471614712,1.0098816111962077
7986112112.0,0.0088773672,0.0140367698,0.01660838808619993,1.0068671965892992
7986120120.0,0.0089318218,0.013981057,0.016590581530018897,1.0022982005117957
7986128128.0,0.0089661083,0.0139779087,0.01660641531676432,1.0004562285627203
7986136136.0,0.009008065,0.0139196982,0.016580206060942314,0.9964306584755905
7986144144.0,0.0090710111,0.0138829996,0.016583754709652558,0.9920417696307966
7986152152.0,0.0091046598,0.0138794407,0.016599207939493755,0.9902274966106775
7986160160.0,0.0091444872,0.0138317547,0.01658128717054065,0.9866416716423245
7986168168.0,0.0092049669,0.0138061641,0.01659341986409747,0.9827507252919071
7986176176.0,0.0092549088,0.013767582,0.016589142564431756,0.9789557123177588
7986184184.0,0.0092726554,0.0137484383,0.016583175023380053,0.9774235417244447
7986192192.0,0.0093073865,0.0137131047,0.01657337273983616,0.9744940614789473
7986200200.0,0.0093451174,0.0136532302,0.01654514775134918,0.97057483915046
7986208208.0,0.0093900118,0.0136472294,0.016565602672416226,0.968133830745759
7986216216.0,0.0094575351,0.013603272,0.016567859827802622,0.9632723269311888
7986224224.0,0.0094892269,0.0135921344,0.016576837596699406,0.9613190737872278
7986232232.0,0.0095299113,0.0135422522,0.01655934189617065,0.9575801737870965
7986240240.0,0.0095719666,0.0135080824,0.01655568889284603,0.9543149688026942
7986248248.0,0.0096049535,0.013468912,0.016542875270064338,0.9513190119714446
7986256256.0,0.0096556857,0.0134379798,0.016547252564773178,0.947737456213261
7986264264.0,0.0096945717,0.0134335144,0.01656635233180341,0.9456739421795614
7986272272.0,0.0097478752,0.0133672441,0.01654401057010542,0.9407171731011833
7986280280.0,0.009799007,0.0133305596,0.01654461717402978,0.9369136100119163
7986288288.0,0.0098247412,0.0133119123,0.01654486472383104,0.9349928135892845
7986296296.0,0.0098466758,0.01325913,0.016515494321006734,0.9320263904380147
7986304304.0,0.0099261241,0.013260383,0.016563987954453775,0.9282207512868859
7986312312.0,0.0099554655,0.0132149174,0.016545251137728704,0.9251543023536906
7986320320.0,0.0100009985,0.0131723513,0.01653876687566561,0.921406714732449
7986328328.0,0.0100401799,0.0131230095,0.01652327421431522,0.9177123325889914
7986336336.0,0.0100572298,0.0131225499,0.01653327514825777,0.9168764101792285
7986344344.0,0.0101252852,0.0130848688,0.016544944602341603,0.9122261850431911
7986352352.0,0.010152629,0.0130399263,0.016526208080532956,0.9092533541875654
7986360360.0,0.0101792341,0.0130298143,0.01653459608079639,0.9076080284394409
7986368368.0,0.0102337578,0.0129860788,0.01653384532735414,0.903380838810226
7986376376.0,0.0102757853,0.0129256721,0.01651256378544575,0.8991174888910389
7986384384.0,0.010330059,0.0129050692,0.016530303385003848,0.8957717808665129
7986392392.0,0.0103658547,0.0128593574,0.016517082563287225,0.8923503794223937
7986400400.0,0.0103952276,0.0128324649,0.016514627221512868,0.889943690014055
7986408408.0,0.0104390026,0.0128030969,0.016519445072810297,0.8867655741765872
7986416416.0,0.0104573317,0.0127584044,0.016496444135563403,0.8841924218882873
7986424424.0,0.010521217,0.0127192141,0.01650679903805483,0.8796941152443815
7986432432.0,0.0105621998,0.0127009128,0.016518875584261898,0.8770762550855523
7986440440.0,0.010598382,0.0126365009,0.016492630354604593,0.8728922774458607
7986448448.0,0.0106380789,0.0126281334,0.016511767799082592,0.8707245815208984
7986456456.0,0.0106797297,0.0125707192,0.016494835787915888,0.8665508535642049
7986464464.0,0.0107098434,0.012532169,0.016485023672930667,0.8636446156648443
7986472472.0,0.0107578273,0.0125100051,0.01649942652999344,0.8605610281312119
7986480480.0,0.0107727937,0.0124652214,0.01647527931944638,0.8580999341462617
7986488488.0,0.0108381914,0.0124441055,0.016502186355697362,0.8542648459707786
7986496496.0,0.0108817942,0.0123741862,0.01647828659549967,0.8494826877468384
7986504505.0,0.0109144111,0.0123606156,0.016489669119505296,0.8474538440175552
7986512513.0,0.0109591101,0.012333542,0.01649904095545211,0.8443369237939015
7986520521.0,0.0109910081,0.0122736255,0.016475561962146112,0.8404740473587132
7986528529.0,0.0110192713,0.0122495281,0.0164765068705625,0.8382205005288231
7986536537.0,0.0110605962,0.0122242396,0.016485412403020514,0.8353309244734923
7986544545.0,0.0110864353,0.0121664311,0.016459984610324923,0.8318105150948166
7986552553.0,0.0111246792,0.012121192,0.016452409635180392,0.8282403108828488
7986560561.0,0.0111712232,0.0121033339,0.016470789880242764,0.8254252557914143
7986568569.0,0.0112147794,0.0120567733,0.0164662399896958,0.8215636391556266
7986576577.0,0.0112461311,0.0120175684,0.01645896153975292,0.8185465765758103
7986584585.0,0.0112800309,0.0119892437,0.016461502410258445,0.8158672402913241
7986592593.0,0.0113313121,0.0119565262,0.016472921801516962,0.8122389523176339
7986600601.0,0.0113599883,0.0118931251,0.01644675526723697,0.8083216920392223
7986608609.0,0.0113941156,0.0118574623,0.016444612567709967,0.8053230641460501
7986616617.0,0.0114520789,0.0118241265,0.01646086506292508,0.8013808338431154
7986624625.0,0.011476775,0.0117883743,0.016452420279020517,0.7987907561599501
7986632633.0,0.011500927,0.0117583074,0.016447769294716644,0.7964634414243889
7986640641.0,0.0115514596,0.0117318601,0.01646428742145873,0.7931460658656685
7986648649.0,0.0115821853,0.011687127,0.01645405584765243,0.789908008260365
7986656657.0,0.0116326483,0.0116531906,0.01646558099890257,0.7862803431101597
7986664665.0,0.0116569551,0.0115995511,0.016444883335704367,0.7829298698829859
7986672673.0,0.0116791072,0.0115468278,0.016423482494037148,0.779702893442218
7986680681.0,0.011723649,0.01150988,0.01642928128341593,0.7761975392472582
7986688689.0,0.0117516603,0.0114774464,0.016426603290743618,0.7735939572707581
7986696697.0,0.0117643474,0.0114541649,0.016419432490323127,0.7720396826650684
7986704705.0,0.0118292992,0.0114069839,0.01643324682641808,0.7672253425945746
7986712713.0,0.0118566521,0.0113507784,0.016414029648637196,0.7636036954148406
7986720721.0,0.0119027788,0.0113252654,0.016429783307827482,0.7605405197169561
7986728729.0,0.0119283474,0.0112647853,0.016406732141111553,0.756795682443189
7986736737.0,0.0119552939,0.0112410446,0.016410062033233343,0.7546164217750192
7986744745.0,0.0120012512,0.011190689,0.01640919104222455,0.7504622159546261
7986752753.0,0.0120310184,0.01114254,0.016398219458000265,0.7470767531555943
7986760761.0,0.0120542536,0.0111082745,0.016392034413716415,0.744579921830817
7986768769.0,0.0120936212,0.0110861265,0.01640603165006979,0.7419610650940547
7986776777.0,0.0121381142,0.0110488181,0.01641371980201713,0.738453799171178
7986784785.0,0.0121699882,0.0109922343,0.016399324001136015,0.7345938662457322
7986792793.0,0.0122036156,0.0109545442,0.016399093643927918,0.7315138187706497
7986800801.0,0.0122398175,0.0108962938,0.016387261852097948,0.7273928861738955
7986808809.0,0.012250597,0.0108533861,0.016366829769142287,0.7249968324800573
7986816817.0,0.0122893647,0.0108283946,0.01637933497865268,0.7222852221325373
7986824825.0,0.0123559481,0.0107697567,0.016390763033705555,0.7169154531506937
7986832833.0,0.0123651399,0.0107278949,0.01637022949539859,0.7146188112651858
7986840841.0,0.0124094341,0.01070536,0.016388983721141552,0.7118090617321893
7986848849.0,0.0124478757,0.0106352231,0.01637246407323663,0.7070317181218915
7986856857.0,0.012461899,0.0106073836,0.016365069921138436,0.7051817133386039
7986864865.0,0.0124989932,0.010558456,0.016361718250770065,0.7014350630528351
7986872873.0,0.0125536397,0.0105145574,0.01637527975441369,0.6972336526604942
7986880881.0,0.0125755631,0.0104655875,0.016360724586711856,0.6940786297761877
7986888889.0,0.012610417,0.0104341932,0.016367498423669247,0.6912421340199743
7986896897.0,0.0126345268,0.0103935292,0.016360217501340587,0.6883876667806799
7986904905.0,0.0126607288,0.0103438761,0.016349000780454464,0.6850240537459233
7986912913.0,0.0126959168,0.0103143606,0.01635763852086708,0.6822657016305819
7986920921.0,0.0127333004,0.0102936321,0.016373631267583576,0.6798434698814617
7986928929.0,0.0127548543,0.0102317998,0.01635163708505997,0.6760740822107528
7986936937.0,0.0127901555,0.0101807977,0.01634737653333114,0.6722892057511637
7986944945.0,0.0128033284,0.0101262816,0.016323810742615987,0.669173684828604
7986952953.0,0.0128435137,0.0100884032,0.01633192344115836,0.6658282178100565
7986960961.0,0.012869908,0.0100380551,0.016321675224041803,0.662403436376672
7986968969.0,0.012918086,0.010005791,0.016339914303296607,0.6590330999279235
7986976977.0,0.0129415417,0.009966059,0.01633419216136261,0.6562307126472497
7986984985.0,0.0129849549,0.0099063945,0.0163323515068916,0.6517145107743331
7986992993.0,0.012997525,0.0098572738,0.016312617904364442,0.6488530674607946
7987001001.0,0.0130288106,0.0098149699,0.01631206730578863,0.6456277298706177
7987009009.0,0.0130550193,0.0097868577,0.016316130440868073,0.6432850391779913
7987017017.0,0.0130981964,0.0097531226,0.016330528141600433,0.6400462375392793
7987025025.0,0.0131142367,0.0097014042,0.01631258556070755,0.6369160437869936
7987033033.0,0.0131408058,0.0096700894,0.016315373304871268,0.6344045344129737
7987041041.0,0.0131580957,0.0096076085,0.016292379308732986,0.6306867537026613
7987049049.0,0.0132302304,0.0095777527,0.016333166968455364,0.6266060872552177
7987057057.0,0.0132480239,0.0095032908,0.016304069224716135,0.6222666726396201
7987065065.0,0.0132687126,0.0094873515,0.01631160852111008,0.6207333698591054
7987073073.0,0.0133083632,0.0094132507,0.016300976038389994,0.6156208005887135
7987081081.0,0.0133205043,0.0093796191,0.0162915035913633,0.6135050696496327
7987089089.0,0.0133584633,0.0093231657,0.01629017987645021,0.6093299855271124
7987097097.0,0.0134006516,0.0092936415,0.016307950074583404,0.6063648072236633
7987105105.0,0.0134057151,0.0092352098,0.01627889115979292,0.6032380288684375
7987113113.0,0.0134169557,0.0091959689,0.016265932013430087,0.6008593172897105
7987121121.0,0.0134483992,0.009145971,0.016263708881291552,0.5972305304916812
7987129129.0,0.0134835578,0.0090912377,0.016262131897873726,0.5932316371549916
7987137137.0,0.0135169247,0.009050085,0.016266877138919292,0.5899873192063163
7987145145.0,0.013545577,0.0090122127,0.016269684508710372,0.5870732682318129
7987153153.0,0.01357373,0.0089633146,0.016266135211889552,0.5836117404503993
7987161161.0,0.0136040851,0.0089267198,0.016271369266160546,0.580706973505105
7987169169.0,0.0136318721,0.0088692524,0.01626319695157333,0.5768152672243726
7987177177.0,0.0136525916,0.0088147427,0.01625093678110877,0.5733083998850399
7987185185.0,0.0136779472,0.0087682078,0.01624708304988833,0.5700556424332937
7987193193.0,0.0136938833,0.0087357463,0.016243020139493226,0.5678436892644106
7987201201.0,0.0137151677,0.0086646464,0.016222882674671486,0.5634431780470124
7987209209.0,0.0137737179,0.0086325325,0.01625533519040246,0.5598491842277031
7987217217.0,0.0137811352,0.0085879201,0.016237981988063144,0.5572786232428235
7987225225.0,0.0137957994,0.0085299524,0.016219869575039934,0.5537673285836936
7987233233.0,0.0138376553,0.0084924226,0.016235822917813832,0.5504454849509965
7987241241.0,0.0138876328,0.0084384371,0.016250340472688328,0.5460053808239171
7987249249.0,0.0138917567,0.0084081707,0.016238172271913282,0.5442805993268146
7987257257.0,0.0139233312,0.0083545087,0.01623751727707377,0.5404464319889526
7987265265.0,0.0139291451,0.0082824021,0.016205532011104678,0.5364464748019602
7987273273.0,0.0139499207,0.0082421038,0.0162028566180863,0.5336534017810567
7987281281.0,0.0139709353,0.0082029709,0.01620110381248861,0.5309139927756872
7987289289.0,0.0140192444,0.0081597343,0.0162209887921029,0.5271075079846448
7987297297.0,0.0140141439,0.0081103934,0.016191809977660645,0.5246323087294347
7987305305.0,0.0140519333,0.0080627445,0.01620076165925322,0.5209183373763275
7987313313.0,0.0140824318,0.0080059005,0.016199053312386854,0.5169376774034079
7987321321.0,0.0140907804,0.0079469103,0.01617725179371547,0.513512589935006
7987329329.0,0.0141209227,0.0079201437,0.016190402531377192,0.5111580163594921
7987337337.0,0.0141624881,0.0078641201,0.016199396721170378,0.5068864947698366
7987345345.0,0.0141719515,0.0077916152,0.016172615024887697,0.5026829427095201
7987353353.0,0.0141867468,0.0077455365,0.016163450140367387,0.4997438071231451
7987361361.0,0.0142203656,0.0077305144,0.016185785451632267,0.49793387667596956
7987369369.0,0.0142249946,0.0076645343,0.01615845157822697,0.4942095581708303
7987377377.0,0.0142615435,0.0076235958,0.016171296667990786,0.4909088634664367
7987385385.0,0.0142948515,0.0075636136,0.0161725393830764,0.4866670370761018
7987393393.0,0.0142894518,0.0075086554,0.01614212930999106,0.48381412474466706
7987401401.0,0.0143446981,0.0074814818,0.016178471296877057,0.48073885290670376
7987409409.0,0.0143535907,0.0074161562,0.01615626623839571,0.4768992548708373
7987417417.0,0.0143792317,0.0073619584,0.016154279178150148,0.4731899847752457
7987425425.0,0.0143886131,0.0073248563,0.016145764359643718,0.47087973883230055
7987433433.0,0.0144154581,0.0072939058,0.016155695406021037,0.468418627450644
7987441441.0,0.0144381114,0.0072356403,0.016149722949629634,0.4645661213074199
7987449449.0,0.0144593545,0.0071828104,0.01614514471285465,0.46105122272867166
7987457457.0,0.0144811335,0.0071183674,0.016136120410005776,0.456874031809825
7987465465.0,0.0144648949,0.007097102,0.016112170594505572,0.4561341713213759
7987473473.0,0.0145352249,0.0070310683,0.01614647591063898,0.45054397105629646
7987481481.0,0.0145214513,0.0069597813,0.016103139557306873,0.4469312820295616
7987489489.0,0.0145456291,0.0069394797,0.016116193856536936,0.44514691555092534
7987497497.0,0.0145737484,0.0068859999,0.016118658041205,0.4414011881316473
7987505506.0,0.0145854779,0.0068348613,0.016107498085103908,0.43821955337784585
7987513514.0,0.0146204565,0.0067675013,0.016110767272662526,0.4335122831164615
7987521522.0,0.0146189994,0.0067243822,0.01609137841916836,0.4311185555530267
7987529530.0,0.0146374628,0.0066561666,0.016079796983430462,0.4267845683262818
7987537538.0,0.0146444633,0.0066210058,0.01607165278210927,0.42461274540985144
7987545546.0,0.0146802298,0.0065578561,0.016078389956992435,0.4201174696479187
7987553554.0,0.0147171732,0.0065155488,0.016094954587198427,0.4167812427418158
7987561562.0,0.0147521729,0.006475438,0.016110800804532917,0.4136252343578658
7987569570.0,0.0147383254,0.0064274034,0.016078860347133336,0.41123587842061504
7987577578.0,0.014726929,0.0063560607,0.01604001076661501,0.40744291333696947
7987585586.0,0.0147687227,0.0063078707,0.01605940232254656,0.40365656671472205
7987593594.0,0.0147863041,0.0062752193,0.016062788244908456,0.40135728000095366
7987601602.0,0.0148016383,0.0062175967,0.016054501084987904,0.3976801716456255
7987609610.0,0.0148363635,0.0061615816,0.01606495470636599,0.3936283480778358
7987617618.0,0.0148301739,0.0061151671,0.016041487666833262,0.39110420842860205
7987625626.0,0.014855435,0.0060358699,0.016034826924196936,0.38593174817308795
7987633634.0,0.0148869046,0.0060179667,0.01605726788005388,0.384161069201824
7987641642.0,0.0148910459,0.0059547992,0.01603754599395517,0.3804126375638341
7987649650.0,0.0149130308,0.0059099473,0.016041382880865537,0.37730762730525397
7987657658.0,0.0149208507,0.0058520965,0.016027439566474826,0.37377227242382327
7987665666.0,0.014946944,0.0057903106,0.01602931164409777,0.36958945839256346
7987673674.0,0.0149482894,0.0057236382,0.01600660458156731,0.36567503940193263
7987681682.0,0.0149795238,0.0057046302,0.01602900305675679,0.3638708070417805
7987689690.0,0.0149797401,0.0056307999,0.016003078484385057,0.35955454086822697
7987697698.0,0.0150172298,0.0055848649,0.016022106815811087,0.35604758857662683
7987705706.0,0.0149895942,0.0055233614,0.015974838197480547,0.35304203841554394
7987713714.0,0.0150377462,0.0054762358,0.016003842329666215,0.34923870016090286
7987721722.0,0.015031225,0.0054469982,0.01598773012004607,0.34765991458917994
7987729730.0,0.0150571623,0.0053730114,0.015987100676266203,0.34275611886384283
7987737738.0,0.015078309,0.0053223121,0.015990072182116233,0.3393254026727962
7987745746.0,0.0150742262,0.0052818895,0.01597280977846342,0.33702407005396484
7987753754.0,0.015101518,0.0052375739,0.015983992813508305,0.33384292038818836
7987761762.0,0.0151072779,0.0051610722,0.015964539197904876,0.3291972681748527
7987769770.0,0.0151234996,0.0051155595,0.01596524942333318,0.3261711301707006
7987777778.0,0.0151301915,0.0050731568,0.015958057987864892,0.32351972216433916
7987785786.0,0.01514668,0.0050213441,0.01595731216693478,0.3201127153327172
7987793794.0,0.0151666221,0.004950483,0.015954112568786063,0.31550344205079806
7987801802.0,0.0151654938,0.0049137493,0.015941679158140428,0.313334884035008
7987809810.0,0.015193529,0.0048422807,0.015946504502599733,0.3085294092173623
7987817818.0,0.0151911226,0.0047924542,0.01592915010624636,0.3055949717303918
7987825826.0,0.0152185362,0.0047353689,0.01593824214553781,0.3016617735307119
7987833834.0,0.0152220355,0.004692797,0.01592898956137737,0.2990445803945194
7987841842.0,0.015259765,0.0046360882,0.01594847145194185,0.2949496712098339
7987849850.0,0.0152370938,0.0045805792,0.01591071127503328,0.29202574919165175
7987857858.0,0.01524921,0.0045169899,0.015904137932651427,0.28797740404215433
7987865866.0,0.0152741006,0.004477346,0.015916807982212903,0.2851451337709027
7987873874.0,0.0152657813,0.0044158544,0.015891628260862038,0.2815791965384646
7987881882.0,0.015287859,0.0043649257,0.015898780115795097,0.2781161683606517
7987889890.0,0.0152955336,0.00431152,0.015891587485809242,0.2747520820273568
7987897898.0,0.0153013105,0.0042770036,0.015887821210342948,0.2725624095624803
7987905906.0,0.0153326948,0.0041728493,0.015890380772985192,0.26571808813480063
7987913914.0,0.0153310635,0.0041535015,0.01588373642288031,0.2645697189113151
7987921922.0,0.0153512687,0.0041033625,0.015890218201963305,0.26119166214416906
7987929930.0,0.0153488451,0.0040468618,0.015873378226832914,0.25779234698726466
7987937938.0,0.0153711187,0.0039895471,0.015880421157910395,0.253944875233432
7987945946.0,0.0153577514,0.0039276921,0.015852043820801288,0.2503798351146972
7987953954.0,0.0153837096,0.0038949798,0.015869133205677625,0.24797743367599598
7987961962.0,0.0153621928,0.0038233187,0.01583081594568459,0.2439228064123804
7987969970.0,0.0153849471,0.0037855746,0.01584383704542443,0.24126421634991607
7987977978.0,0.0154055665,0.0037216815,0.01584873472468274,0.23703868373061204
7987985986.0,0.0153924032,0.003673668,0.01582472473206388,0.23428477106801607
7987993994.0,0.0153922689,0.0036249965,0.01581336591352137,0.2312929527123374
7988002002.0,0.015405496,0.0035553811,0.01581044091011548,0.2268152808764014
7988010010.0,0.0154368934,0.0034905305,0.015826606743531407,0.22237653083530845
7988018018.0,0.0154296889,0.0034438534,0.015809346153192887,0.219597235452751
7988026026.0,0.0154461124,0.0033951259,0.015814843285669466,0.21636387747719119
