frequency,Re(S21),Im(S21),Amplitude,phase
7989000000.0,0.0125976943,-0.003771809,0.013150226036412206,-0.29091056679936184
7989005005.0,0.0125881605,-0.0037535284,0.013135857803103945,-0.2897855561355308
7989010010.0,0.0125547296,-0.0038011417,0.013117542207006427,-0.2939922134459163
7989015015.0,0.0125553874,-0.0038345032,0.013127877496186845,-0.29640993330524346
7989020020.0,0.0124948563,-0.0038651284,0.01307901569332097,-0.30000119884372783
7989025025.0,0.0124659202,-0.0039006519,0.013061939047390385,-0.3032540232024484
7989030030.0,0.0124488247,-0.0039211036,0.013051754282596001,-0.30514064184340034
7989035035.0,0.0124039991,-0.0039617759,0.013021323356503425,-0.3091540900283646
7989040040.0,0.0123774476,-0.0039629136,0.012996380007210113,-0.3098590660111065
7989045045.0,0.0123532501,-0.0040171536,0.012990008124675786,-0.31440375262763026
7989050050.0,0.0123389281,-0.0040371121,0.012982581436869018,-0.31620687916781776
7989055055.0,0.012310092,-0.0040317645,0.012953512652247045,-0.3165067596887706
7989060060.0,0.0122613636,-0.0040946853,0.012927006035329336,-0.32230566636021024
7989065065.0,0.012207206,-0.0041365608,0.01288902686701105,-0.3267182624831981
7989070070.0,0.012219705,-0.0041585228,0.012907924006793069,-0.3280189242145481
7989075075.0,0.0121524399,-0.0041881347,0.012853881428909173,-0.33188576139574877
7989080080.0,0.0121278947,-0.0041888842,0.0128309228310086,-0.3325642843610382
7989085085.0,0.0121168662,-0.0042443751,0.01283873695104789,-0.33693006335591946
7989090090.0,0.012055441,-0.0042511589,0.012783036012525749,-0.33901947560157436
7989095095.0,0.0120200057,-0.0042791054,0.012758968612405223,-0.3420087712215522
7989100100.0,0.011990444,-0.0042932235,0.012735875130437179,-0.34383156246775787
7989105105.0,0.0119631066,-0.0043198617,0.012719163676519398,-0.3465278449824653
7989110110.0,0.0119311554,-0.0043518782,0.012700051694642209,-0.34975343435901524
7989115115.0,0.0118913854,-0.0043669361,0.012667879760749878,-0.35194591722079327
7989120120.0,0.0118516041,-0.0044246199,0.01265060397777959,-0.3573102408308047
7989125125.0,0.0118289425,-0.0044504042,0.012638432585241095,-0.3598486762678769
7989130130.0,0.0118168316,-0.0044351491,0.012621729540835097,-0.35905533246156013
7989135135.0,0.0117449774,-0.0044860222,0.012572545060782387,-0.36485194195424636
7989140140.0,0.011699376,-0.004496553,0.01253372999833589,-0.36693501908486037
7989145145.0,0.0116914179,-0.0045240813,0.012536210117952319,-0.36921248723625055
7989150150.0,0.0116501638,-0.0045711669,0.012514866495272175,-0.373910949588738
7989155155.0,0.0116189481,-0.0045867995,0.012491544524345012,-0.37598870007749136
7989160160.0,0.011586189,-0.0045967567,0.012464748200534012,-0.37769676034608474
7989165165.0,0.0115467884,-0.0046264248,0.012439136979084586,-0.3810818218354885
7989170170.0,0.0115000562,-0.0046200356,0.01239338620185887,-0.38200570280843527
7989175175.0,0.0114826211,-0.0046490529,0.012388070075405757,-0.38470388229876
7989180180.0,0.0114430748,-0.004723293,0.012379558055207142,-0.3914614432980858
7989185185.0,0.0113764419,-0.0047070673,0.012311779435597638,-0.3923081798052489
7989190190.0,0.0113639756,-0.0047148736,0.012303250566471136,-0.3932818569469234
7989195195.0,0.011311585,-0.0047552366,0.012270461700123782,-0.39795641369207935
7989200200.0,0.011264409,-0.0047756124,0.012234924761285406,-0.400985933827917
7989205205.0,0.0112520268,-0.0048113291,0.01223752404763419,-0.40406798600450616
7989210210.0,0.0112036146,-0.0048150709,0.012194502362842035,-0.40591097377778446
7989215215.0,0.0111813954,-0.0048273845,0.01217896728799209,-0.4075602454292448
7989220220.0,0.0111371441,-0.0048640899,0.012152997542147648,-0.41177640267387383
7989225225.0,0.0110956695,-0.0048569985,0.012112155715735845,-0.4126103638737234
7989230230.0,0.0110262902,-0.0048831364,0.012059191377352837,-0.41690300077548037
7989235235.0,0.011017842,-0.0049041952,0.012060015460050913,-0.4187832643270401
7989240240.0,0.0109749187,-0.0049316343,0.012032034630125789,-0.42231739197938434
7989245245.0,0.0109242944,-0.0049545572,0.011995325972475412,-0.4257903001420335
7989250250.0,0.0108928154,-0.0049698575,0.01197300759662264,-0.4280400527535775
7989255255.0,0.0108469343,-0.0049929211,0.011940906365068846,-0.4313921950355378
7989260260.0,0.0108304909,-0.0050043382,0.011930755799820983,-0.43283776127959245
7989265265.0,0.0107544464,-0.0049932809,0.011857106371993876,-0.4346813123834732
7989270270.0,0.0107262577,-0.0050452318,0.011853563521681593,-0.43965794213786763
7989275275.0,0.010663059,-0.0050557071,0.011800889861297386,-0.4427406239629005
7989280280.0,0.0106226999,-0.0050522614,0.01176295449363764,-0.44394585494480254
7989285285.0,0.0105830134,-0.0050886382,0.011742845113305327,-0.4481949378338677
7989290290.0,0.0105533167,-0.0051000699,0.011721058243835533,-0.45017183842607494
7989295295.0,0.0105002439,-0.0051327111,0.011687593644354273,-0.4546622803645111
7989300300.0,0.0104653061,-0.0051384822,0.011658757699103883,-0.4564230226653852
7989305305.0,0.0103921736,-0.0051473818,0.011597103583546549,-0.4598912246180249
7989310310.0,0.0103722913,-0.0051511267,0.011580955620824585,-0.4609430015148676
7989315315.0,0.0103117692,-0.0051784067,0.011538998222751987,-0.4653933748360963
7989320320.0,0.0102864399,-0.0051872697,0.01152035645094587,-0.4670675874648957
7989325325.0,0.0102124988,-0.0052032046,0.011461608519290066,-0.4712137542277952
7989330330.0,0.0101918032,-0.0051991479,0.011441328216321944,-0.4717189883926911
7989335335.0,0.0101269188,-0.0052429981,0.01140366228272291,-0.47772989229327784
7989340340.0,0.0100915695,-0.0052308073,0.011366667056928497,-0.47820729002570367
7989345345.0,0.0100646599,-0.0052466331,0.011350089770071584,-0.4805362575163135
7989350350.0,0.0099853448,-0.0052729238,0.011292069614357391,-0.48584770800696336
7989355355.0,0.0099665102,-0.0052847219,0.011280940170351214,-0.4875521577975577
7989360360.0,0.0099138536,-0.0052869996,0.011235517699360058,-0.4899267781705292
7989365365.0,0.0098429354,-0.0052744511,0.011167059223218275,-0.49192363223339985
7989370370.0,0.0097988113,-0.0052814238,0.011131493172446098,-0.49434799174297395
7989375375.0,0.0097836497,-0.0052952807,0.011124738160698552,-0.4960910868718892
7989380380.0,0.0097203978,-0.0053131287,0.011077701475171127,-0.5002258722636677
7989385385.0,0.0096306548,-0.0053052421,0.010995231039699686,-0.5035111739035838
7989390390.0,0.0096102741,-0.0053161624,0.010982665930469914,-0.5052774846571939
7989395395.0,0.0095787424,-0.0053011593,0.010947812379171203,-0.5054724653815551
7989400400.0,0.009522864,-0.0053361949,0.010916039335458719,-0.5107593653049268
7989405405.0,0.0094600034,-0.0053106622,0.01084872330417365,-0.5115386933389179
7989410410.0,0.0094223953,-0.0053331972,0.010827027549773296,-0.5150540003333303
7989415415.0,0.0093542521,-0.0053687875,0.010785449066706062,-0.5210379441024087
7989420420.0,0.0093136181,-0.0053346571,0.010733221719839203,-0.5201645268387899
7989425425.0,0.009261881,-0.0053689299,0.010705505496204979,-0.5253445309984084
7989430430.0,0.0092195615,-0.0053753564,0.010672149299897524,-0.5278542055576577
7989435435.0,0.0091543876,-0.0053395628,0.010597817852094722,-0.5280339701504617
7989440440.0,0.0091057667,-0.005366448,0.010569472613689526,-0.5325489108135866
7989445445.0,0.0090623671,-0.0053386366,0.010517962645019327,-0.5323659248617467
7989450450.0,0.0090158682,-0.005348645,0.010483028318944687,-0.5354399385555016
7989455455.0,0.0089372132,-0.0053814963,0.010432367047279727,-0.541995054214692
7989460460.0,0.0088898473,-0.0053657996,0.010383698299001057,-0.5430531021306174
7989465465.0,0.0088249027,-0.0053486577,0.010319256119325491,-0.5448831273981835
7989470470.0,0.0087935121,-0.0053214929,0.01027833360703946,-0.5442059076504636
7989475475.0,0.0087275998,-0.0053286749,0.010225740777999901,-0.5481440030944432
7989480480.0,0.0086813582,-0.0053275139,0.01018569509417008,-0.5504124588975712
7989485485.0,0.0086246902,-0.0053440129,0.01014612019056262,-0.5547197154493309
7989490490.0,0.0085470155,-0.0053307912,0.01007317272636768,-0.5576654228939364
7989495495.0,0.0085350864,-0.0053219521,0.010058373328235504,-0.5575474164285833
7989500501.0,0.0084717039,-0.0052965524,0.009991157805540907,-0.558746782262541
7989505506.0,0.0084187597,-0.0053270149,0.009962560044043202,-0.5641567391603439
7989510511.0,0.0083561732,-0.0053352157,0.009914139252296426,-0.5682312562232787
7989515516.0,0.0083510418,-0.0053225323,0.009902991933243737,-0.5674306058146276
7989520521.0,0.0082439514,-0.0053121844,0.009807244148340824,-0.5724097356475518
7989525526.0,0.0082097984,-0.0053114658,0.00977816233825212,-0.5742398590914103
7989530531.0,0.0081665561,-0.005265776,0.009717048698891203,-0.5727093187516026
7989535536.0,0.0080787088,-0.0052632725,0.009641969367533466,-0.577428433489231
7989540541.0,0.0080272432,-0.0052337736,0.009582745926299163,-0.5777808758413573
7989545546.0,0.0079655437,-0.0052384691,0.009533700485554625,-0.5817280945576232
7989550551.0,0.0079111959,-0.005202865,0.009468728783548604,-0.5817402052476571
7989555556.0,0.0078608868,-0.0051841287,0.009416407577233365,-0.5830134572878217
7989560561.0,0.0078056323,-0.0051728959,0.009364120225362343,-0.5852606220421699
7989565566.0,0.0077291482,-0.005165204,0.009296185468200343,-0.5891159082997667
7989570571.0,0.0076901379,-0.0051504847,0.009255577430174225,-0.590135514606402
7989575576.0,0.0076537411,-0.0051376496,0.009218199186294978,-0.5911758069418448
7989580581.0,0.0075937294,-0.0051107218,0.009153371155886754,-0.5923872742469032
7989585586.0,0.007527314,-0.0050628736,0.009071556930547973,-0.5920992564660561
7989590591.0,0.0074746338,-0.0050657106,0.009029483613532658,-0.5956160870281841
7989595596.0,0.0073889419,-0.0050397645,0.008944030893117256,-0.5985897519907564
7989600601.0,0.0073442945,-0.0050100268,0.00889038976870241,-0.5986561820081943
7989605606.0,0.0072903151,-0.0049958515,0.00883782928480406,-0.6007731107172612
7989610611.0,0.0072345045,-0.004954158,0.00876822312954479,-0.6004487254368528
7989615616.0,0.0071825662,-0.0049404374,0.008717636085585427,-0.6025163952585977
7989620621.0,0.0071250977,-0.0049084851,0.008652181413462579,-0.6032378919704093
7989625626.0,0.0070569697,-0.0049013687,0.008592103146497823,-0.6070541316209043
7989630631.0,0.0070146064,-0.0048536315,0.008530090367910132,-0.6052907342841166
7989635636.0,0.0069468242,-0.0048083729,0.008448598487983676,-0.6054505648108771
7989640641.0,0.0068729241,-0.0048115852,0.00838978175051174,-0.6107785303716252
7989645646.0,0.0068116493,-0.004762197,0.00831126262688164,-0.61013873921556
7989650651.0,0.0067537619,-0.0047127307,0.008235479977063517,-0.6092435110651194
7989655656.0,0.0067105671,-0.0046794778,0.008181028253483498,-0.6089315733327043
7989660661.0,0.0066444311,-0.0046816153,0.008128098575918065,-0.6138014311735964
7989665666.0,0.0066042588,-0.0046042458,0.00805079584166653,-0.6088194927118691
7989670671.0,0.0065317925,-0.0045875479,0.007981848720556576,-0.6122956059883589
7989675676.0,0.0064458715,-0.0045538023,0.007892171740528557,-0.6150537628435486
7989680681.0,0.0064355634,-0.0044899124,0.007847024253504848,-0.6091618400974207
7989685686.0,0.0063569788,-0.0044592107,0.007765033131329443,-0.6117098341483477
7989690691.0,0.0063074525,-0.0044170535,0.007700280427466164,-0.6109213760048977
7989695696.0,0.0062192999,-0.0043707824,0.007601541293335831,-0.6125874509478154
7989700701.0,0.0062036353,-0.0043349145,0.007568128874280376,-0.6099000122408206
7989705706.0,0.0061282855,-0.0042641797,0.00746586309031999,-0.6079146521427787
7989710711.0,0.0061012312,-0.0042445442,0.00743244089257406,-0.6078251298840893
7989715716.0,0.0060123119,-0.0041819554,0.007323704346194675,-0.6077434360535163
7989720721.0,0.0059632985,-0.0041321787,0.00725505546559335,-0.6059686505447914
7989725726.0,0.0059177117,-0.004077269,0.0071863366371662475,-0.6033012632764411
7989730731.0,0.0058624245,-0.0040253724,0.00711137426781083,-0.6017028130736404
7989735736.0,0.0057913425,-0.0039786707,0.0070263410457609265,-0.60194990306086
7989740741.0,0.0057657364,-0.0039259781,0.006975458427656534,-0.5978022770755415
7989745746.0,0.0057065063,-0.0038866412,0.006904360504020422,-0.5979212503070592
7989750751.0,0.0056591801,-0.003796324,0.0068145722769086545,-0.5908764767446298
7989755756.0,0.0056039119,-0.0037422272,0.006738552737745803,-0.588778766235444
7989760761.0,0.0055453771,-0.0036942158,0.0066632152567791215,-0.5876651655793492
7989765766.0,0.0055037417,-0.0036361503,0.006596420370512251,-0.583838715951254
7989770771.0,0.0054782825,-0.003538987,0.006521963518448662,-0.5735602539566396
7989775776.0,0.0053904947,-0.0035091777,0.006432088404313592,-0.5770734115465624
7989780781.0,0.0053387894,-0.0034226594,0.00634170873077286,-0.5700880558933776
7989785786.0,0.0053401582,-0.0033546339,0.006306414052697179,-0.5608899491047982
7989790791.0,0.005243869,-0.0033197482,0.006206358852061669,-0.5643830659765322
7989795796.0,0.0052290486,-0.0032256807,0.006143937275030927,-0.5527368435980383
7989800801.0,0.0051806179,-0.0031689707,0.006072987495727197,-0.5489761902272867
7989805806.0,0.0051586932,-0.0031027958,0.00601992170283168,-0.5414991978250433
7989810811.0,0.0050884435,-0.0030246783,0.005919538501537357,-0.5363072867464395
7989815816.0,0.0050547876,-0.0029822417,0.005868955889963108,-0.533021932275762
7989820821.0,0.0050024198,-0.0029098856,0.005787196044762904,-0.526851643612313
7989825826.0,0.0049777512,-0.0028049474,0.005713644802214099,-0.513146431286256
7989830831.0,0.0049353071,-0.0027429848,0.005646345878915092,-0.5072761617528414
7989835836.0,0.0048908143,-0.0026622316,0.005568441578136836,-0.4984819351616967
7989840841.0,0.0048599863,-0.0025837184,0.005504095530301618,-0.4886308868488283
7989845846.0,0.0048000807,-0.0025485501,0.005434692478762943,-0.48809138161453636
7989850851.0,0.0047796732,-0.0024422648,0.005367488542336842,-0.4723842469724248
7989855856.0,0.004749148,-0.0023838968,0.005313884706968551,-0.4652168130197547
7989860861.0,0.0047245962,-0.0023165779,0.005261971343500728,-0.45587603461670095
7989865866.0,0.0046982385,-0.0022019418,0.005188640736596579,-0.43827417381955414
7989870871.0,0.0046715842,-0.002135751,0.005136645916518934,-0.42880806526574605
7989875876.0,0.0046456393,-0.0020479995,0.0050770332338586025,-0.41521327039029443
7989880881.0,0.0046240124,-0.0019871969,0.005032935743154623,-0.4058920839581338
7989885886.0,0.0045733591,-0.0018989694,0.004951938836424494,-0.39356141145872453
7989890891.0,0.0045604757,-0.0018182549,0.004909581396785728,-0.3793839060311477
7989895896.0,0.0045526504,-0.0017639344,0.004882426674526052,-0.36964272601317394
7989900901.0,0.0045296528,-0.0016895018,0.004834477305847146,-0.35700471847507786
7989905906.0,0.0045089994,-0.0015839579,0.004779121071721532,-0.3378218994205087
7989910911.0,0.0045003258,-0.0014764733,0.0047363388510281365,-0.31701641293940397
7989915916.0,0.00448592,-0.0014268662,0.004707379886848144,-0.3079572366543526
7989920921.0,0.0044682538,-0.001349376,0.004667559063428169,-0.2932831290707172
7989925926.0,0.004426991,-0.0012540145,0.0046011739458850336,-0.27603436816637444
7989930931.0,0.004443172,-0.0011908809,0.004599997254300138,-0.2618700580757629
7989935936.0,0.0044215316,-0.0010949429,0.004555089641714965,-0.24275515122174465
7989940941.0,0.0044150936,-0.0010373056,0.004535311941261849,-0.23076014601497846
7989945946.0,0.0044071184,-0.0009666093,0.004511876120913012,-0.2159102847952598
7989950951.0,0.0043948544,-0.0008812751,0.004482342133202169,-0.19789964312444663
7989955956.0,0.0043898504,-0.0007933427,0.00446096168712795,-0.1787922258498386
7989960961.0,0.0043846483,-0.0007318381,0.0044453040075235015,-0.16538463762492123
7989965966.0,0.0043804601,-0.0006413961,0.004427168355143863,-0.14538894068618793
7989970971.0,0.004388361,-0.0005573114,0.004423608059366354,-0.12632139532928996
7989975976.0,0.0043942582,-0.0004928371,0.004421808853331818,-0.11168805255970501
7989980981.0,0.0044185916,-0.0004262685,0.004439105378528742,-0.09617395777812075
7989985986.0,0.0044018031,-0.0003362899,0.004414630384076522,-0.07625009595958783
7989990991.0,0.0044012109,-0.0002587148,0.004408808312233346,-0.058715075132910494
7989995996.0,0.0043907628,-0.0001821458,0.00439453923162844,-0.04146009030436015
7990001001.0,0.0044211925,-0.0001195689,0.004422809044476537,-0.027037900229298594
7990006006.0,0.004417205,-3.50399e-05,0.004417343976488248,-0.0079324290028091
7990011011.0,0.004422746,8.5937e-06,0.004422754349067523,0.0019430664082462762
7990016016.0,0.0044660137,8.95321e-05,0.004466911054131043,0.020044745628546898
7990021021.0,0.0044391709,0.0001464346,0.004441585456960608,0.03297496859199944
7990026026.0,0.0044680077,0.0002464715,0.004474800666797521,0.05510777188747384
7990031031.0,0.0044625448,0.0002895636,0.004471929468412041,0.06479671224073168
7990036036.0,0.0045098478,0.0003568331,0.004523942643361038,0.07895859318689849
7990041041.0,0.0045170395,0.0004258209,0.004537066153742644,0.09399213493812454
7990046046.0,0.0045400096,0.0004633649,0.0045635944384491665,0.10171034904108907
7990051051.0,0.004529216,0.0005552107,0.004563119163034261,0.12197574040332942
7990056056.0,0.004561046,0.0006321514,0.00460464504675854,0.13772053099631756
7990061061.0,0.0045724731,0.0006999596,0.004625738178048534,0.15190196079407176
7990066066.0,0.0045828848,0.0007518762,0.00464415233494741,0.16261311943301812
7990071071.0,0.0046136269,0.0008498578,0.00469124838956801,0.18216394177489428
7990076076.0,0.004620864,0.0008838996,0.004704642665429135,0.18900138663588548
7990081081.0,0.0046506046,0.0009474445,0.004746132554630286,0.20097472748903975
7990086086.0,0.0046940814,0.0010390588,0.004807706665311789,0.21784246611160518
7990091091.0,0.0047256031,0.001077905,0.0048469788371473845,0.22426208160090674
7990096096.0,0.0047177945,0.0011341724,0.004852208979130228,0.2359260872298039
7990101101.0,0.0047487221,0.0011683062,0.004890327285569633,0.2412343682033776
7990106106.0,0.0047747347,0.0012244242,0.00492922976507788,0.2510288724181341
7990111111.0,0.0048265044,0.0013015818,0.004998925875156642,0.26340777714599245
7990116116.0,0.0048291219,0.001335778,0.005010461175415254,0.26986135768653485
7990121121.0,0.0048334608,0.0014064857,0.005033939345030007,0.2831697965202421
7990126126.0,0.0049013298,0.0014404695,0.005108618814200007,0.2858452278625752
7990131131.0,0.0049331808,0.0015204857,0.005162184573355851,0.29897734380566565
7990136136.0,0.0049489502,0.0015730255,0.005192929549467265,0.3077517469423497
7990141141.0,0.0049837631,0.0016197743,0.005240378175271523,0.3142412077474423
7990146146.0,0.0050010422,0.0016519757,0.005266825115719273,0.3190417754985273
7990151151.0,0.0050372851,0.0017147716,0.005321154275046776,0.3281112027449464
7990156156.0,0.0050694078,0.0017934355,0.0053772954480259955,0.3400348909322634
7990161161.0,0.0051077541,0.0018099169,0.00541894372834526,0.34054208713088924
7990166166.0,0.0051227536,0.0018670908,0.005452396950127311,0.3495072208095899
7990171171.0,0.0051997077,0.0019079512,0.005538703634156709,0.35168070544709684
7990176176.0,0.0052206933,0.001965181,0.0055783129076295,0.3600162999874403
7990181181.0,0.0052465855,0.0019722813,0.005605047094819092,0.35957447630912875
7990186186.0,0.0052897392,0.0020589671,0.005676326833692635,0.37119443560139354
7990191191.0,0.0053084434,0.0020686934,0.005697285644428153,0.37159450969436664
7990196196.0,0.0053562234,0.0021455321,0.005769959887454849,0.38099600153513513
7990201201.0,0.0054161114,0.0021477403,0.00582640979450073,0.3775257259467977
7990206206.0,0.0054099815,0.0022296741,0.005851439688021492,0.3909285721735342
7990211211.0,0.0054804304,0.0022675137,0.005930997871263473,0.3923011015772355
7990216216.0,0.0054942406,0.0022955563,0.005954515807112956,0.39576610838452586
7990221221.0,0.005550104,0.0023278328,0.006018509778638882,0.39713611327792775
7990226226.0,0.0055922377,0.0023951594,0.006083577158605753,0.40466305676677544
7990231231.0,0.0055877039,0.0024072707,0.006084191573015573,0.4067862870768007
