frequency,Re(S21),Im(S21),Amplitude,phase
7490000000.0,-0.0007548452,0.0015708294,0.001742784060022182,2.018754491286971
7490003003.0,-0.0007522169,0.0015453944,0.001718742015602391,2.023785859222814
7490006006.0,-0.0007750193,0.0015572347,0.0017394352032359757,2.032593797552797
7490009009.0,-0.0007764111,0.0015464678,0.0017304267833803458,2.0360861753726054
7490012012.0,-0.0007973226,0.0015294139,0.0017247696095374506,2.0513584936252975
7490015015.0,-0.0008203502,0.0015623935,0.0017646665122572848,2.0542902971863093
7490018018.0,-0.0008376801,0.0015695775,0.001779123795142502,2.0610373849203465
7490021021.0,-0.0008602871,0.0015486328,0.001771540979955657,2.077863025943368
7490024024.0,-0.0008560254,0.0015540863,0.0017742501833994128,2.0742706477330954
7490027027.0,-0.0008911472,0.0015529651,0.0017904870661040392,2.091755350413242
7490030030.0,-0.000908316,0.001547813,0.0017946484443547713,2.101481914945403
7490033033.0,-0.0009241426,0.0015589237,0.001812258990198821,2.105910884460196
7490036036.0,-0.0009408626,0.0015677962,0.0018284439714722463,2.111302531003243
7490039039.0,-0.0009517132,0.0015549149,0.00182305193598434,2.1200419218108264
7490042042.0,-0.000985768,0.0015504294,0.0018372724006549383,2.1371265562226647
7490045045.0,-0.0009795817,0.0015454032,0.001829713463235468,2.1357472598820686
7490048048.0,-0.0010055248,0.0015670202,0.001861889478627311,2.1413001100681655
7490051051.0,-0.0010307652,0.00155153,0.001862719044416264,2.15719616116302
7490054054.0,-0.0010426913,0.0015545861,0.0018718822317146183,2.161599531317075
7490057057.0,-0.001069896,0.0015681689,0.0018983759242424062,2.1695154982816733
7490060060.0,-0.0010733045,0.001565755,0.0018983074750274914,2.171715384339968
7490063063.0,-0.0010857092,0.0015525577,0.0018945183764730103,2.1810547605423265
7490066066.0,-0.0011114499,0.0015570263,0.0019130216358164117,2.190743061892023
7490069069.0,-0.0011261772,0.0015791187,0.0019395594743367706,2.190305428759407
7490072072.0,-0.0011366373,0.0015677143,0.0019364071054857705,2.1981230962675338
7490075075.0,-0.0011485688,0.0015652737,0.0019414664674531803,2.203836502703388
7490078078.0,-0.0011748723,0.0015569621,0.0019505014488955656,2.2172303163632514
7490081081.0,-0.0011899888,0.0015630526,0.0019644863894901893,2.2215052241884097
7490084084.0,-0.0012249315,0.001566,0.0019881682976278063,2.2345914768573634
7490087087.0,-0.0012310018,0.0015717397,0.0019964295920866654,2.2352151105662235
7490090090.0,-0.001252017,0.0015699212,0.0020080336507385626,2.2440129042835273
7490093093.0,-0.0012541997,0.0015753793,0.002013662540335043,2.243170325927501
7490096096.0,-0.0012714274,0.0015644622,0.0020159537714688797,2.2532290945095435
7490099099.0,-0.0012944983,0.001571251,0.0020358181533977663,2.2599204975697282
7490102102.0,-0.0013010423,0.0015807343,0.002047298706487595,2.2594421185474363
7490105105.0,-0.001319255,0.0015855837,0.002062646218994108,2.2647655980945025
7490108108.0,-0.0013259555,0.0015695511,0.002054665092780685,2.2722632939956227
7490111111.0,-0.0013685692,0.0015786596,0.0020892936097783865,2.285030816435529
7490114114.0,-0.0013900575,0.0015747531,0.0021005016494318354,2.293978970018908
7490117117.0,-0.0013960411,0.0015790611,0.0021076917968295126,2.2947547012829177
7490120120.0,-0.0014033562,0.0015911812,0.002121618777092595,2.293554006475625
7490123123.0,-0.0014251931,0.0015790035,0.002127070150535675,2.305040641871634
7490126126.0,-0.0014334031,0.0015901349,0.002140834754783194,2.304403627509487
7490129129.0,-0.0014722153,0.0016002057,0.0021744139835520237,2.3145607297541346
7490132132.0,-0.0014782893,0.0016057656,0.002182618248030986,2.3148840139670606
7490135135.0,-0.0014851597,0.0015854914,0.0021724369528200466,2.3235317049006294
7490138138.0,-0.0014969853,0.0015993343,0.002190624383953712,2.3231514710953984
7490141141.0,-0.0015284714,0.0015924569,0.002207293319650918,2.335695288994645
7490144144.0,-0.0015456274,0.0016113675,0.0022328164455877268,2.335373867290032
7490147147.0,-0.0015665502,0.0016281011,0.002259378835198128,2.33693001348603
7490150150.0,-0.0015828664,0.0015951048,0.0022471816489175946,2.352343498874078
7490153153.0,-0.00159033,0.0016115484,0.002264119642254481,2.3495677271634197
7490156156.0,-0.0015945873,0.0016186187,0.002272143295065472,2.348715681814574
7490159159.0,-0.0016170694,0.0016052555,0.0022785431013471326,2.3598607396969262
7490162162.0,-0.0016454388,0.0016382455,0.002321921007014599,2.3583851053174367
7490165165.0,-0.001651457,0.0016247526,0.0023167069806205014,2.3643453144314637
7490168168.0,-0.0016499866,0.0016320161,0.0023207611533371483,2.361669903242297
7490171171.0,-0.0016974529,0.0016230797,0.002348559997162197,2.3785887190059944
7490174174.0,-0.0017107684,0.0016281295,0.002361680373634165,2.380939790696549
7490177177.0,-0.0017174662,0.0016484187,0.002380540770214224,2.3767055352666953
7490180180.0,-0.0017263373,0.0016377732,0.002379609532677479,2.382514567441001
7490183183.0,-0.0017599878,0.0016608201,0.0024198926547912927,2.3851759287609005
7490186186.0,-0.0017575867,0.0016554868,0.002414487016529832,2.386099929089097
7490189189.0,-0.0017783239,0.0016497288,0.0024257042290561004,2.3936894888764453
7490192192.0,-0.0018068763,0.0016654405,0.0024573347396197247,2.3969043867430537
7490195195.0,-0.0018306623,0.0016529973,0.0024665207338371554,2.407149872635957
7490198198.0,-0.0018496218,0.0016686201,0.002491062793499845,2.407595806287601
7490201201.0,-0.0018514519,0.0016746403,0.002496456342978523,2.4062963087254348
7490204204.0,-0.0018892305,0.0016988823,0.0025407465342657735,2.4091944787453987
7490207207.0,-0.0019006149,0.0016798523,0.0025365805226559043,2.4177740188868095
7490210210.0,-0.0019084593,0.0016692449,0.002535467498496579,2.4229576608001
7490213213.0,-0.0019354835,0.0016935902,0.002571836725826173,2.422750323597366
7490216216.0,-0.0019432649,0.001705046,0.0025852389316440385,2.421397599041599
7490219219.0,-0.0019512376,0.001697989,0.0025865990829223536,2.4254812855822876
7490222222.0,-0.0019837426,0.0016997373,0.0026123440799531083,2.4331446902582705
7490225225.0,-0.0019845465,0.001718461,0.0026251729503374154,2.427927790118826
7490228228.0,-0.0020039156,0.0017199409,0.002640809427318861,2.432305410436229
7490231231.0,-0.0020066392,0.0017246721,0.00264595818778284,2.431618968287992
7490234234.0,-0.0020369521,0.0017394745,0.002678608854208591,2.434804409741745
7490237237.0,-0.0020613759,0.0017326302,0.002692819713804259,2.4426273100820834
7490240240.0,-0.0020781815,0.0017285298,0.0027030822437414457,2.447788866740067
7490243243.0,-0.0020917341,0.0017538224,0.0027296967882613943,2.4438400639557902
7490246246.0,-0.0020855657,0.001749017,0.0027218825755909257,2.443736878503506
7490249249.0,-0.0021505027,0.0017720231,0.0027865261042453737,2.452385459689465
7490252252.0,-0.0021370451,0.001759339,0.00276807432637836,2.452830147214121
7490255255.0,-0.0021748725,0.0017682871,0.002803017955576214,2.458942952247095
7490258258.0,-0.0021672288,0.0017793769,0.002804115337107775,2.4541547372688606
7490261261.0,-0.002168557,0.001778992,0.0028048978588021706,2.454561276407904
7490264264.0,-0.0021870133,0.0017896354,0.0028259196802651785,2.4557916928864754
7490267267.0,-0.0022321133,0.0017921789,0.002862557421894293,2.465081796650115
7490270270.0,-0.0022116725,0.001785905,0.0028427015172686086,2.4623008648770757
7490273273.0,-0.0022468851,0.0017857298,0.002870073791945087,2.4700562656352423
7490276276.0,-0.0022771516,0.0018198344,0.00291499856823394,2.467357168150322
7490279279.0,-0.0022845169,0.0018223011,0.0029222934085144188,2.4682712486590304
7490282282.0,-0.0022963148,0.0018246867,0.0029330092420338416,2.470143746540346
7490285285.0,-0.002297413,0.001824707,0.0029338817509262367,2.4703711994740014
7490288288.0,-0.0023376256,0.0018250826,0.0029657073258496226,2.478705167457369
7490291291.0,-0.002343627,0.0018350998,0.0029766052460964724,2.477293320641862
7490294294.0,-0.0023677084,0.0018346304,0.0029953149704220958,2.482373258364482
7490297297.0,-0.0023583321,0.0018528231,0.00299911382474624,2.475663299948359
7490300300.0,-0.0023933263,0.0018466595,0.0030229393125254665,2.484418393065531
7490303303.0,-0.002443282,0.0018893812,0.003088590010091569,2.483347791290706
7490306306.0,-0.0024390358,0.001874391,0.0030760749754455982,2.4863583626074894
7490309309.0,-0.002460274,0.0019082343,0.0031135680976610244,2.4818962207449493
7490312312.0,-0.0024806997,0.0018937423,0.0031209182783900925,2.4895766338788192
7490315315.0,-0.0024875652,0.001911879,0.0031373973186212866,2.4863095065452394
7490318318.0,-0.0025124855,0.0019235151,0.003164252475330984,2.488193064280831
7490321321.0,-0.0025149004,0.001928494,0.0031691975530023626,2.48740883935931
7490324324.0,-0.0025358518,0.0019195354,0.003180434011800339,2.4936527523844974
7490327327.0,-0.0025590562,0.0019310717,0.003205901830265445,2.4951520743854516
7490330330.0,-0.0025859337,0.0019589011,0.0032441249390824795,2.4932949602135204
7490333333.0,-0.0025964986,0.0019570603,0.0032514442941004003,2.4957082693549264
7490336336.0,-0.0026220162,0.001961403,0.003274457310986271,2.499339788604026
7490339339.0,-0.0026137786,0.0019755644,0.003276384175942333,2.494372692723489
7490342342.0,-0.0026396295,0.0019714538,0.003294582520260297,2.500099284594585
7490345345.0,-0.0026391492,0.0019956719,0.0033087482273981275,2.4941480492743655
7490348348.0,-0.0026758973,0.0020009411,0.003341285926977292,2.4995237782960245
7490351351.0,-0.0027020847,0.0020125338,0.0033692067348437566,2.5014228336257873
7490354354.0,-0.0026877136,0.0019885875,0.003343394179689438,2.504599396523063
7490357357.0,-0.002725966,0.0020111019,0.0033875391489013983,2.505972887335392
7490360360.0,-0.0027300537,0.00203616,0.0034057511286768576,2.5007647380214686
7490363363.0,-0.0027436404,0.0020151909,0.0034041969696177936,2.5080886416663626
7490366366.0,-0.0027777295,0.0020339709,0.0034427922965547977,2.50955370710131
7490369369.0,-0.0027703317,0.0020441452,0.0034428574363031543,2.505899923062943
7490372372.0,-0.0027922232,0.0020631022,0.0034717288324785794,2.505250045202219
7490375375.0,-0.0028189733,0.0020611242,0.0034921116010142817,2.5102577275934843
7490378378.0,-0.0028126032,0.0020669873,0.003490440267217236,2.507824590996989
7490381381.0,-0.0028368357,0.0020915857,0.0035245379171231768,2.5062722431692843
7490384384.0,-0.0028448015,0.0020859042,0.003527590098917374,2.508908641758785
7490387387.0,-0.0028592828,0.0020957403,0.0035450847007398754,2.509086550172354
7490390390.0,-0.0028625465,0.0020971393,0.0035485441674391965,2.5093122859367973
7490393393.0,-0.0028994763,0.0021242698,0.003594368511637855,2.5092953994852474
7490396396.0,-0.0029096813,0.0021312563,0.003606729638309389,2.509405010053772
7490399399.0,-0.0029330454,0.0021460311,0.0036343093980326403,2.5099241541787376
7490402402.0,-0.002949932,0.0021461513,0.003648021958146043,2.5126309388332126
7490405405.0,-0.0029443374,0.0021599667,0.003651654264870601,2.5086702572645345
7490408408.0,-0.0029838772,0.0021649232,0.0036865180871084955,2.513930393263479
7490411411.0,-0.002985501,0.0021922559,0.0037039441345794906,2.508214948145879
7490414414.0,-0.0030105659,0.0021856117,0.0037202695522528606,2.5136421684345494
7490417417.0,-0.0030274636,0.0021898397,0.0037364332940681613,2.515383334758814
7490420420.0,-0.0030076667,0.002203609,0.0037285320976451156,2.5092792425503583
7490423423.0,-0.0030440174,0.0022221809,0.0037688366751330005,2.5110045672200183
7490426426.0,-0.0030488253,0.0022211705,0.0037721259390415826,2.511972433794086
7490429429.0,-0.0030670523,0.0022397394,0.0037977944113455706,2.5108466253095045
7490432432.0,-0.0030819487,0.0022385436,0.0038091318221522147,2.513406483514022
7490435435.0,-0.0031030109,0.0022589261,0.0038381536929596788,2.5123347233498086
7490438438.0,-0.0031278264,0.0022672133,0.0038631016212667575,2.5143810419670634
7490441441.0,-0.0031350269,0.0022770399,0.0038747005522898953,2.513418289210563
7490444444.0,-0.0031316519,0.0022915902,0.0038805449704274334,2.509873404842228
7490447447.0,-0.0031696637,0.0023033938,0.003918212726355746,2.513171231227107
7490450450.0,-0.0031886762,0.0023032789,0.00393354161025807,2.5160362865155035
7490453453.0,-0.0031884164,0.0023159898,0.003940787724997757,2.5133829922449675
7490456456.0,-0.0032108352,0.0023336119,0.003969282955570269,2.513110338308164
7490459459.0,-0.0032165441,0.0023563929,0.003987322842010065,2.509330434944002
7490462462.0,-0.0032429339,0.0023641742,0.004013220642789884,2.511652386038588
7490465465.0,-0.0032616866,0.0023751671,0.00403485045937789,2.512188762161649
7490468468.0,-0.0032596739,0.0023853249,0.004039213885510548,2.5098625277880426
7490471471.0,-0.0032563809,0.0023876937,0.0040379571284133884,2.508907516871042
7490474474.0,-0.00327582,0.0024064898,0.0040647496638666495,2.5080062563043004
7490477477.0,-0.0032929544,0.0024093487,0.004080258550468469,2.509927757390817
7490480480.0,-0.0033157542,0.0024203599,0.004105163572909812,2.511042572275282
7490483483.0,-0.0033261763,0.0024266374,0.004117282823630221,2.511303520967662
7490486486.0,-0.003353323,0.0024403406,0.004147292777986304,2.5124921158146587
7490489489.0,-0.0033499952,0.0024527709,0.004151933637223728,2.5095997862234896
7490492492.0,-0.0033743958,0.0024562677,0.004173703155367057,2.512377502829941
7490495495.0,-0.003383686,0.0024609649,0.0041839788701220765,2.512776582702001
7490498498.0,-0.0034114675,0.0024864302,0.004221426967629345,2.5117689436042587
7490501502.0,-0.0034095655,0.0025091096,0.004233292794457101,2.507174816523554
7490504505.0,-0.0034127441,0.0025244596,0.004244963906102969,2.50470620286677
7490507508.0,-0.0034485966,0.0025288786,0.004276452441343118,2.5088612121627385
7490510511.0,-0.0034319922,0.0025440405,0.00427208526676389,2.5037007600070824
7490513514.0,-0.0034882299,0.0025439271,0.00431732705795709,2.5114789916288762
7490516517.0,-0.0034705723,0.0025458854,0.0043042310067491095,2.5086941158357554
7490519520.0,-0.0034903405,0.0025754871,0.004337696463355482,2.5058871484727767
7490522523.0,-0.003525586,0.0025879983,0.004373498810357548,2.5083702149216585
7490525526.0,-0.0035210239,0.0025954648,0.004374248144814175,2.506377063467827
7490528529.0,-0.0035403636,0.0025951176,0.0043896252434615325,2.50905490530958
7490531532.0,-0.0035447946,0.0026264485,0.0044117797405742515,2.5039209622133547
7490534535.0,-0.0035647375,0.0026378694,0.0044346035240326286,2.5045289133254784
7490537538.0,-0.0035671651,0.0026605341,0.0044500683756455725,2.500759322700096
7490540541.0,-0.0035937448,0.0026715093,0.004477941896397667,2.5023433858893456
7490543544.0,-0.0035937236,0.0026808689,0.004483515068803067,2.500665206881174
7490546547.0,-0.0036360461,0.0026863798,0.004520781754428459,2.5052858979711643
7490549550.0,-0.0036050931,0.0026859812,0.004495685850503909,2.501265904491895
7490552553.0,-0.0036321,0.0027188436,0.004536988090271007,2.4990139894911505
7490555556.0,-0.003657681,0.0027258102,0.0045616522822531135,2.5011519406637337
7490558559.0,-0.0036735296,0.0027378875,0.004581576986664353,2.5011053064210116
7490561562.0,-0.0036665832,0.0027376332,0.004575857067289633,2.5002426975634937
7490564565.0,-0.0036824224,0.0027667382,0.004605982522693828,2.49723676072817
7490567568.0,-0.0036921952,0.002777637,0.004620343352898358,2.4966214197586223
7490570571.0,-0.0037130734,0.0027873775,0.004642885676095612,2.497648294582965
7490573574.0,-0.0037385456,0.002796972,0.0046690229783182,2.4992801791923136
7490576577.0,-0.0037365938,0.0028273131,0.004685705132808728,2.49384581033266
7490579580.0,-0.003736027,0.0028249868,0.004683849716302097,2.4941688555061554
7490582583.0,-0.0037699587,0.0028537724,0.004728277224392353,2.493641135384374
7490585586.0,-0.0037686725,0.0028515326,0.004725899975784402,2.493854756035665
7490588589.0,-0.0037951853,0.0028656324,0.004755552598096866,2.494854325446939
7490591592.0,-0.0038088608,0.0028860773,0.004778793024954307,2.493164473223838
7490594595.0,-0.0038068414,0.002875585,0.00477085218142199,2.494661718958336
7490597598.0,-0.0038271896,0.0029192842,0.004813481118142856,2.489965610676542
7490600601.0,-0.0038533223,0.0029350195,0.00484380348621386,2.4906547129456102
7490603604.0,-0.0038498616,0.0029556886,0.004853609938934579,2.4868349595974
7490606607.0,-0.0038543606,0.0029627412,0.004861474164593473,2.486247823292813
7490609610.0,-0.0038574899,0.0029556277,0.004859625852841894,2.4878008137478167
7490612613.0,-0.003878292,0.0029728254,0.004886597967517807,2.487596295982415
7490615616.0,-0.0039004525,0.0029825085,0.004910080107017451,2.488776837017589
7490618619.0,-0.0039051259,0.0030060071,0.00492809161644761,2.485565041798211
7490621622.0,-0.0039194542,0.0030220234,0.004949216771979704,2.4847665775160284
7490624625.0,-0.0039117191,0.0030339748,0.004950409013843185,2.4819005832694234
7490627628.0,-0.0039407779,0.0030413046,0.00497787747208683,2.4843147674963166
7490630631.0,-0.0039555056,0.0030667259,0.005005080648437362,2.482091647428773
7490633634.0,-0.0039585001,0.0030801836,0.00501570075377399,2.480336997062177
7490636637.0,-0.0039738718,0.0030879865,0.00503262532948932,2.4809890763726754
7490639640.0,-0.0039827135,0.0031202481,0.005059442165756603,2.4770263248437074
7490642643.0,-0.0039941949,0.0031225609,0.005069909217470745,2.4780638552456753
7490645646.0,-0.0039901295,0.0031215852,0.005066105761591371,2.4777213429889957
7490648649.0,-0.0040077407,0.0031636511,0.005105944946919003,2.4733577614556097
7490651652.0,-0.0040257897,0.0031701547,0.005124145151199191,2.4745439896488812
7490654655.0,-0.0040265977,0.0031767795,0.0051288806799598624,2.4736266557730624
7490657658.0,-0.0040561353,0.003203033,0.005168331836385421,2.4731785665281163
7490660661.0,-0.0040913683,0.0032093029,0.0051998961210963915,2.476431468503348
7490663664.0,-0.0040743153,0.0032116177,0.005187921878244446,2.47405167002031
7490666667.0,-0.0040809413,0.0032450523,0.005213870570294298,2.4698022479210793
7490669670.0,-0.0041068413,0.0032614708,0.005244362424798493,2.470425575823535
7490672673.0,-0.0040971005,0.0032568285,0.005233847952081957,2.469962734984395
7490675676.0,-0.0041185792,0.0032911896,0.005272060660673471,2.467395848644543
7490678679.0,-0.0041316049,0.0032933559,0.005283592729740704,2.4686145693450996
7490681682.0,-0.0041345899,0.0033087471,0.005295530286282992,2.4666931673707073
7490684685.0,-0.0041631477,0.0033377864,0.005335973840269482,2.465788073658188
7490687688.0,-0.0041665419,0.0033426945,0.005341692421394727,2.4654686690715537
7490690691.0,-0.0041703246,0.0033604558,0.005355769828243069,2.463323920737856
7490693694.0,-0.0041802487,0.0033843899,0.005378528998627199,2.4610166531989783
7490696697.0,-0.0041780866,0.0033799785,0.0053740731570719995,2.461401483184056
7490699700.0,-0.0042101709,0.0034115433,0.005418871348812564,2.4605967067188
7490702703.0,-0.004215219,0.003416549,0.005425944921150785,2.4604656620428877
7490705706.0,-0.004247074,0.0034379029,0.0054641388993421835,2.461100535577686
7490708709.0,-0.0042214105,0.003468645,0.0054636805127620015,2.4537717927941762
7490711712.0,-0.00424449,0.0034653952,0.00547947618411496,2.4569040377514266
7490714715.0,-0.004260407,0.0035028875,0.005515549713610172,2.453463627127701
7490717718.0,-0.0042666952,0.0035025997,0.005520225773294344,2.454227345842753
7490720721.0,-0.0042747324,0.0035306696,0.005544273163902904,2.4512339514468193
7490723724.0,-0.0042754149,0.003521644,0.005539056691339962,2.4525687499175928
7490726727.0,-0.0042910028,0.003570799,0.005582410816843278,2.447547496360563
7490729730.0,-0.0042926261,0.0035736622,0.005585490162385935,2.4473393688096436
7490732733.0,-0.0043140063,0.0036021261,0.005620139037136083,2.445881022583455
7490735736.0,-0.0043145856,0.0035892084,0.005612313768701633,2.4477139378418142
7490738739.0,-0.0043321476,0.0036093752,0.005638713697516553,2.446956258053236
7490741742.0,-0.0043370083,0.0036499615,0.005668497150546267,2.442004212314513
7490744745.0,-0.0043530622,0.0036608242,0.0056877749903081155,2.442360418652632
7490747748.0,-0.0043641359,0.0036653237,0.005699147302838425,2.443006784991069
