frequency,Re(S21),Im(S21),Amplitude,phase
7490000000.0,0.0049947725,0.0037450837,0.0062428682708160635,0.6433735168006925
7490003003.0,0.0049910048,0.0037170937,0.006223095249809594,0.6401381585881035
7490006006.0,0.0049895283,0.0037028801,0.006213430106750771,0.6384454417497274
7490009009.0,0.0049935133,0.0036826812,0.006204620528131461,0.6354484712866636
7490012012.0,0.0049623081,0.003643535,0.006156285322786024,0.6333394718117811
7490015015.0,0.0049795415,0.0036344584,0.006164829390303742,0.6304982446825051
7490018018.0,0.0049881242,0.0036284621,0.00616823477550604,0.628892708145654
7490021021.0,0.004958378,0.0036245658,0.006141904397612653,0.6312286852580896
7490024024.0,0.0049527171,0.003583117,0.006112948070147612,0.6263012499321317
7490027027.0,0.0049271335,0.0035574491,0.0060771776858927744,0.6253468131926732
7490030030.0,0.004968382,0.0035575769,0.00611074243421678,0.621412359760185
7490033033.0,0.0049476754,0.003557562,0.006093910013087587,0.6233885861770072
7490036036.0,0.0049483014,0.0035097602,0.006066638559098935,0.6169309342311902
7490039039.0,0.00492375,0.0035150314,0.006049690885118509,0.6199894968611757
7490042042.0,0.0049377198,0.0034697443,0.0060349152712109,0.6125369128059215
7490045045.0,0.0049114024,0.0034625449,0.006009250429066987,0.6140746368635602
7490048048.0,0.0049083065,0.0034689525,0.006010416303817773,0.6152427494764084
7490051051.0,0.0048938475,0.0034180366,0.005969314663526778,0.60967516147595
7490054054.0,0.0048898105,0.003414656,0.005964069275607574,0.60959804297414
7490057057.0,0.0048962612,0.0033890727,0.005954761750440628,0.6054553866247065
7490060060.0,0.0048951727,0.0034031464,0.005961889061585955,0.6075002946934189
7490063063.0,0.00487332,0.0033743651,0.0059275279544256905,0.6056179256706553
7490066066.0,0.004878632,0.0033215386,0.005902005494974904,0.5977467408914471
7490069069.0,0.0048607034,0.003347312,0.00590177390011813,0.6030662384329533
7490072072.0,0.0048796475,0.0033236937,0.005904057887222646,0.597951670067834
7490075075.0,0.0048645971,0.0032933767,0.005874575306643987,0.5951286405436508
7490078078.0,0.0048463747,0.0033006529,0.005863587408667027,0.597898451068627
7490081081.0,0.0048377312,0.0032616524,0.005834553928268997,0.5932075482643777
7490084084.0,0.0048353221,0.0032336003,0.0058169159105928726,0.5894404731531023
7490087087.0,0.0048178417,0.0032352006,0.00580328541160085,0.5913441436946514
7490090090.0,0.0048216878,0.0031899408,0.005781383532353954,0.5844740312853808
7490093093.0,0.0048214037,0.0032000646,0.00578673889877078,0.5859601933810389
7490096096.0,0.0048069068,0.0031730309,0.0057597289932983,0.5834414615165843
7490099099.0,0.0047913105,0.0031703237,0.005745224858105376,0.5845437056087556
7490102102.0,0.0047932702,0.0031503173,0.0057358467815037855,0.5814463347660541
7490105105.0,0.0048199382,0.0031332504,0.005748831387414263,0.5764175990408621
7490108108.0,0.0047669405,0.0031030844,0.005687956972768308,0.5770493230587941
7490111111.0,0.0047631391,0.0031217882,0.005695002691097525,0.580165933052582
7490114114.0,0.0047626837,0.003063064,0.005662642236124554,0.5715363516078287
7490117117.0,0.0047421565,0.0030767601,0.00565283123606607,0.5755384390172623
7490120120.0,0.0047413273,0.0030446677,0.005634730336861612,0.5708405977451285
7490123123.0,0.0047229693,0.003047437,0.005620792762387837,0.5730199669510119
7490126126.0,0.0047351945,0.0030122865,0.005612124099742672,0.5665760192441062
7490129129.0,0.0047033298,0.0029896808,0.005573105282825427,0.5662225072197942
7490132132.0,0.004681062,0.0029871357,0.005552956072044734,0.5679869053628384
7490135135.0,0.0046832283,0.0029716377,0.005546463551668052,0.565421317880208
7490138138.0,0.004670319,0.0029562326,0.005527313158041958,0.5643193248798118
7490141141.0,0.0046682299,0.0029222032,0.005507416993595478,0.5593013611826909
7490144144.0,0.0046775824,0.0029049136,0.00550620560206888,0.5557385559894669
7490147147.0,0.0046771755,0.0028979383,0.0055021829348366035,0.5547006176277062
7490150150.0,0.0046527789,0.0028768282,0.00547032832511911,0.5537691567632631
7490153153.0,0.0046668813,0.0028783323,0.005483117534533888,0.5526498850067239
7490156156.0,0.0046097416,0.002819273,0.005403519026273486,0.548898181483992
7490159159.0,0.0046173256,0.0028495461,0.0054258279250673416,0.5529287376951789
7490162162.0,0.0046198491,0.0028024372,0.0054033933751592295,0.5452641269097157
7490165165.0,0.0046255872,0.0028143961,0.005414506658274514,0.5466028851295672
7490168168.0,0.0046042422,0.0027760591,0.005376388226584242,0.5425748468031066
7490171171.0,0.0045987378,0.002764733,0.005365830589427683,0.541296887486872
7490174174.0,0.0045817872,0.0027618219,0.0053498069267407635,0.54246306603192
7490177177.0,0.0045465127,0.0027433427,0.005310057146670323,0.5429120319415129
7490180180.0,0.0045462196,0.0027025275,0.0052888342325771946,0.5363330544020268
7490183183.0,0.0045652719,0.0027053113,0.005306638931643767,0.5349493979217951
7490186186.0,0.0045597325,0.0026840332,0.005291048543555284,0.5320234220019712
7490189189.0,0.0045407947,0.002657017,0.005261041327136395,0.5294240565094537
7490192192.0,0.0045138026,0.0026514812,0.005234956204756655,0.5311153900361664
7490195195.0,0.0045135309,0.0026490574,0.005233494654028947,0.5307423526772835
7490198198.0,0.0044937128,0.0026297964,0.005206657645201651,0.5294786063204625
7490201201.0,0.004490741,0.0026121336,0.005195189762975936,0.5268332262621739
7490204204.0,0.004489278,0.0026087697,0.005192234230937785,0.5264148758547582
7490207207.0,0.004477418,0.0025663635,0.0051607648232462845,0.5204649299995746
7490210210.0,0.0044702443,0.002563654,0.005153193760513812,0.5207010230435566
7490213213.0,0.0044632786,0.0025430526,0.005136922462679841,0.5178966642305651
7490216216.0,0.0044525152,0.0025247208,0.0051185062981482865,0.5158258731055274
7490219219.0,0.0044411767,0.0025117904,0.005102268269520434,0.5147175000681915
7490222222.0,0.0044368633,0.0025085433,0.005096915285823552,0.5145795852897808
7490225225.0,0.0044299241,0.0024956367,0.005084528500278831,0.5130415988051793
7490228228.0,0.0044369707,0.0024486792,0.0050678140077523685,0.5042861013520197
7490231231.0,0.0043742972,0.0024202696,0.004999218031913791,0.5053681863105955
7490234234.0,0.0043665039,0.0024258513,0.004995108691352662,0.5071012694342641
7490237237.0,0.0043795535,0.0024196022,0.005003495144956882,0.504742882751304
7490240240.0,0.0043646213,0.0024137235,0.0049875826035130424,0.5051589821066859
7490243243.0,0.0043494151,0.0023858177,0.004960800117898453,0.5017197501292497
7490246246.0,0.0043380942,0.002382625,0.004949339670976184,0.5022542426594742
7490249249.0,0.0043267503,0.0023470715,0.004922348299812026,0.49703279946564927
7490252252.0,0.0043127995,0.0023579516,0.004915300120556507,0.5003318175395179
7490255255.0,0.0042948472,0.0023100819,0.0048766987661793765,0.4934849236349428
7490258258.0,0.0043163188,0.0023030557,0.004892307588504215,0.4901411093700201
7490261261.0,0.0042732331,0.0022957336,0.004850867333694519,0.4929906174447133
7490264264.0,0.0042948069,0.0022749571,0.0048601230555540475,0.4871239555690278
7490267267.0,0.0042664963,0.0022676849,0.004831706270418526,0.4885366012645597
7490270270.0,0.0042606636,0.0022399142,0.004813571432494443,0.4840109200477774
7490273273.0,0.0042208899,0.0022320989,0.004774743662994195,0.48643836568475785
7490276276.0,0.0042082607,0.002226853,0.00476112721976356,0.48670437606937267
7490279279.0,0.0042165113,0.002210846,0.004760967084400362,0.48292211326470735
7490282282.0,0.0042195515,0.0022151006,0.0047656358997800715,0.4834165439489983
7490285285.0,0.0042135367,0.0021719981,0.00474040792217827,0.47595556563138314
7490288288.0,0.0041912383,0.0021477218,0.004709478465560929,0.473543139427272
7490291291.0,0.0041616559,0.0021801689,0.004698139659751722,0.48256116861956594
7490294294.0,0.0041500501,0.0021404747,0.0046695339996460136,0.47618450885537994
7490297297.0,0.0041526563,0.002123924,0.004664290675301625,0.47277474460371494
7490300300.0,0.0041324589,0.0020942255,0.004632817393880257,0.4690526461856763
7490303303.0,0.0041305076,0.0021188862,0.004642280879288563,0.4739811350975043
7490306306.0,0.004107939,0.0020887915,0.004608493545421676,0.4704059955408659
7490309309.0,0.0041078094,0.0020661243,0.00459814828923327,0.46602455556873207
7490312312.0,0.0040794467,0.0020624787,0.004571181878474601,0.468100083562109
7490315315.0,0.0040789933,0.0020437379,0.004562351471044433,0.464479085879563
7490318318.0,0.0040581573,0.0020139978,0.004530433512363705,0.46067024663681083
7490321321.0,0.00404938,0.0020068409,0.004519390310906197,0.460115107384558
7490324324.0,0.0040373256,0.0020093276,0.004509700145745515,0.4617961197190285
7490327327.0,0.0040103132,0.0020033257,0.004482847958873324,0.4632823039992875
7490330330.0,0.0039932469,0.0019645949,0.0044503543595387565,0.45721050275395914
7490333333.0,0.0039818758,0.0019514399,0.004434349170953687,0.4556806092086554
7490336336.0,0.0039644194,0.0019391842,0.004413281833355536,0.4549276436190734
7490339339.0,0.0039789719,0.0019319748,0.0044232051737201445,0.4520178758361709
7490342342.0,0.0039530719,0.0019035406,0.0043875100298937176,0.4487664041292729
7490345345.0,0.0039314508,0.0018789874,0.004357395901473654,0.4458422668094791
7490348348.0,0.0039304393,0.0018957007,0.004363717937145455,0.4493978924921527
7490351351.0,0.0039029592,0.0018377553,0.004313981346684607,0.4400667157368021
7490354354.0,0.0039171246,0.0018514523,0.0043326366973357525,0.4415340759329415
7490357357.0,0.0039044707,0.0018512072,0.0043210947159823205,0.442734179030542
7490360360.0,0.0038913455,0.0018306799,0.0043004602889265536,0.4397286485063114
7490363363.0,0.0038583916,0.0018297578,0.00427026923572875,0.44281836436746747
7490366366.0,0.0038441669,0.0017963255,0.004243159725606127,0.43713564263272825
7490369369.0,0.003848905,0.0017694154,0.004236142178537231,0.4309069290142387
7490372372.0,0.0038510995,0.0017749647,0.0042404559949545916,0.43187979431604545
7490375375.0,0.0037924423,0.0017900114,0.004193657044985826,0.44099315404598755
7490378378.0,0.0038169861,0.0017584697,0.004202570472152883,0.4317129217322823
7490381381.0,0.0037666858,0.0017190015,0.004140397091212857,0.42813837922130366
7490384384.0,0.0037513923,0.001738889,0.00413481307229484,0.4340496802719632
7490387387.0,0.0037496565,0.0017030267,0.004118279229108335,0.42632627947329516
7490390390.0,0.003736904,0.0017243868,0.0041155754568748025,0.4323331804077689
7490393393.0,0.003723436,0.0016818316,0.004085649663989138,0.4242568347962364
7490396396.0,0.0037240061,0.0016771527,0.004084245660088837,0.4231553411595119
7490399399.0,0.0037475765,0.0016543585,0.004096490164747683,0.4157189948674411
7490402402.0,0.0037027367,0.0016559671,0.004056166429747343,0.42054624245018246
7490405405.0,0.0036848957,0.0016459174,0.004035777546830505,0.4200778621950786
7490408408.0,0.0036586698,0.0016366423,0.004008049740657086,0.42063350718380915
7490411411.0,0.0036360779,0.0016178386,0.003979756805449093,0.4186385498078801
7490414414.0,0.0036362732,0.0016133598,0.003978116718912892,0.41758995843650826
7490417417.0,0.0036234696,0.0015972481,0.003959890583725486,0.41518216372380623
7490420420.0,0.0036099521,0.0015894241,0.003944365998985797,0.4147494142765774
7490423423.0,0.0035921634,0.0015846179,0.003926149740050674,0.41545479440110866
7490426426.0,0.0035866828,0.0015558734,0.003909608106274004,0.4092937072081549
7490429429.0,0.0035455728,0.0015363709,0.0038641327646014765,0.4088973857030196
7490432432.0,0.003546067,0.0015256181,0.0038603240479960503,0.4062906509036704
7490435435.0,0.0035521594,0.0015250478,0.003865696210942241,0.40553228327573054
7490438438.0,0.0035046253,0.001525452,0.0038222247837750322,0.41053567174898725
7490441441.0,0.0035119664,0.0015203239,0.0038269168733642716,0.4085414205074153
7490444444.0,0.003485494,0.0014655041,0.003781054177230579,0.3980173155142337
7490447447.0,0.0034709655,0.001473354,0.0037707258600309635,0.4014297699102447
7490450450.0,0.0034863374,0.001460939,0.0037800649767378023,0.396817561629427
7490453453.0,0.0034382679,0.0014486892,0.0037310034240626276,0.39876883719574996
7490456456.0,0.0034327008,0.0014537644,0.0037278500121421198,0.40060330438765945
7490459459.0,0.0034008049,0.0014397145,0.0036930003803647598,0.40046819974609144
7490462462.0,0.0034160703,0.0014214442,0.0037000053930036007,0.39431251123148486
7490465465.0,0.0033767149,0.0014088665,0.003658839751984809,0.3952709586740083
7490468468.0,0.0033676311,0.0014023236,0.0036479378701951832,0.3945745104927594
7490471471.0,0.0033536792,0.0013817225,0.003627164352978631,0.3908099106118354
7490474474.0,0.0033357867,0.0013916169,0.003614425335272884,0.39522675232243537
7490477477.0,0.0033293924,0.0013683153,0.0035996028271729993,0.389936325706229
7490480480.0,0.0033001047,0.0013388621,0.0035613540618391905,0.3854129956060054
7490483483.0,0.0032760668,0.0013287139,0.003535264389846317,0.38530921044448185
7490486486.0,0.0032921634,0.0013181089,0.003546230523324558,0.38083196167800104
7490489489.0,0.0032630713,0.0013018931,0.003513197966626888,0.3796248839102198
7490492492.0,0.0032582745,0.0013259863,0.003517753883536758,0.3864916529692891
7490495495.0,0.0032296586,0.0013166722,0.003487738573174142,0.38711080641843193
7490498498.0,0.0032101989,0.0012621669,0.00344941187175681,0.374608121766358
7490501502.0,0.0031947308,0.0012794405,0.003441405654308845,0.38092406954083313
7490504505.0,0.003205011,0.0012510547,0.003440528065938874,0.37215405194511414
7490507508.0,0.0031852437,0.0012537959,0.0034231245357489552,0.37499981756959655
7490510511.0,0.0031477258,0.0012289618,0.003379130778446564,0.37222793217922645
7490513514.0,0.0031497899,0.0012251512,0.0033796703799340326,0.3709555166933586
7490516517.0,0.0031286188,0.0012445581,0.003367072981090408,0.37860660548063024
7490519520.0,0.0031031184,0.001219872,0.003334281257003158,0.3745540775961287
7490522523.0,0.0030877214,0.0011997143,0.0033126028807634713,0.37059129969416493
7490525526.0,0.0030664098,0.0011870002,0.0032881360276509363,0.3693344682665476
7490528529.0,0.0030644319,0.0011617997,0.0032772734723635288,0.36238132655865174
7490531532.0,0.0030592764,0.0011631498,0.003272932866533776,0.36332545016936213
7490534535.0,0.0030465998,0.0011461311,0.0032550555816678846,0.3598223831756235
7490537538.0,0.0029958264,0.0011619267,0.0032132615012024543,0.36998723361660923
7490540541.0,0.0030020371,0.0011367348,0.0032100456001912885,0.361970743067601
7490543544.0,0.0029806312,0.0011536291,0.003196094875121865,0.3692859152864666
7490546547.0,0.0029613377,0.0011129839,0.0031635824843206633,0.3595053484481567
7490549550.0,0.002944988,0.0011233659,0.00315196847468797,0.36441350641935133
7490552553.0,0.0029408143,0.001084218,0.0031343129101301438,0.3532179447523671
7490555556.0,0.0029105654,0.0010855974,0.003106430855912283,0.3570029752477365
7490558559.0,0.0028874062,0.0010784923,0.003082249212013482,0.35746896012606105
7490561562.0,0.0028660308,0.0010820737,0.0030634973541330715,0.3610055620637739
7490564565.0,0.0028675992,0.0010842434,0.003065731384561309,0.3614869686027871
7490567568.0,0.0028579386,0.0010434914,0.0030424804589748674,0.35008100872699105
7490570571.0,0.0028275443,0.0010454825,0.003014637694030369,0.35415938123716845
7490573574.0,0.0028009503,0.001018091,0.00298024023651636,0.34863339428680185
7490576577.0,0.0027862677,0.0010280202,0.002969867543792371,0.35346448427510546
7490579580.0,0.0027875053,0.0010133571,0.002965986920006307,0.34868190630378226
7490582583.0,0.0027549527,0.0010126307,0.002935163592343667,0.35223851672272877
7490585586.0,0.0027365027,0.0010285849,0.0029234284536508327,0.35953819641081786
7490588589.0,0.0027393141,0.0010006157,0.002916345918704655,0.3502216080767446
7490591592.0,0.0027259209,0.0009938813,0.0029014556332204186,0.349625247792621
7490594595.0,0.0027074912,0.0009562734,0.002871405128787124,0.3395186475242705
7490597598.0,0.0026845085,0.0009518065,0.0028482488479791403,0.34072714336280197
7490600601.0,0.0026490204,0.0009689411,0.00282066586728832,0.3506571295049356
7490603604.0,0.0026400949,0.000957965,0.002808522391263956,0.34807850022520626
7490606607.0,0.0026117496,0.0009531465,0.0027802381595040393,0.3499268415131438
7490609610.0,0.0026096589,0.0009179735,0.0027664046922045694,0.33824184776600336
7490612613.0,0.0025919412,0.0009536722,0.0027618200247862424,0.3525645027002263
7490615616.0,0.0025956974,0.0009071815,0.0027496587545200965,0.33622425471943396
7490618619.0,0.0025507685,0.0008965271,0.0027037345989624536,0.33798675980588955
7490621622.0,0.0025608922,0.0009213094,0.0027215767250895573,0.3453440754676115
7490624625.0,0.0025290428,0.0008832196,0.0026788307796604097,0.3359893847833074
7490627628.0,0.0025002816,0.0008943385,0.0026554188806816917,0.34351363484876707
7490630631.0,0.0024860668,0.0008923104,0.002641353059325921,0.34460318911008286
7490633634.0,0.0024581178,0.0008841727,0.0026122986969529596,0.3452855537164183
7490636637.0,0.0024643165,0.0008703939,0.002613511307289383,0.33952177988617505
7490639640.0,0.002433185,0.0008662794,0.002582794851142723,0.3420339049886117
7490642643.0,0.002405418,0.0008505686,0.002551372708568852,0.33988306757341347
7490645646.0,0.0024482397,0.0008641641,0.002596277569980702,0.33932148953750924
7490648649.0,0.0023608959,0.0008378906,0.0025051726703373503,0.3410366408312092
7490651652.0,0.0023505716,0.0008402003,0.0024962218232454122,0.34329196701038583
7490654655.0,0.0023552376,0.0008361262,0.0024992501224927847,0.34112855374862816
7490657658.0,0.0023451516,0.0008147143,0.0024826388012771914,0.3343599711150172
7490660661.0,0.0023074515,0.000806005,0.0024441719425763097,0.3360557841167486
7490663664.0,0.0022853081,0.0008280644,0.0024307043757875965,0.3476278314734437
7490666667.0,0.0022787318,0.0008135427,0.0024196012772881668,0.3429110350927709
7490669670.0,0.002267476,0.0007977239,0.002403707725828415,0.33828762408261004
7490672673.0,0.0022400807,0.0008098083,0.002381963691003996,0.34689040061316956
7490675676.0,0.0022286097,0.0007820179,0.002361832591623399,0.3374758791246962
7490678679.0,0.0022322094,0.0007696135,0.0023611572893034063,0.3320138719259856
7490681682.0,0.0021918864,0.0007526946,0.0023175234953229967,0.33078336059201857
7490684685.0,0.0021683669,0.0007686582,0.002300576110769398,0.3406666730901277
7490687688.0,0.0021370308,0.000772163,0.002272253581517178,0.3467282098096455
7490690691.0,0.0021416915,0.0007496891,0.002269113533481976,0.33671519861351207
7490693694.0,0.0021237064,0.0007593095,0.0022553668859392278,0.3433759102866858
7490696697.0,0.0021149642,0.0007484246,0.002243482326466335,0.34011924426760154
7490699700.0,0.0020873294,0.0007194494,0.0022078386406766052,0.3319227215838158
7490702703.0,0.0020623368,0.000727218,0.002186796537439695,0.339005604585547
7490705706.0,0.0020401439,0.0007434426,0.002171380674179903,0.34945141896618354
7490708709.0,0.0020113081,0.0007318841,0.002140330490592147,0.34899025618834195
7490711712.0,0.0020044023,0.0007172289,0.002128860229146221,0.3436304000095999
7490714715.0,0.0019918217,0.0007026256,0.0021121165731006067,0.33912729035235367
7490717718.0,0.0019440702,0.0007096171,0.0020695326455846138,0.34998914305138434
7490720721.0,0.0019683263,0.0006823318,0.002083239090590163,0.3336925082338592
7490723724.0,0.0019194128,0.0006739333,0.0020342889641476033,0.3376671776488403
7490726727.0,0.0019386534,0.0006818888,0.0020550789135449278,0.3382180541208066
7490729730.0,0.0018940594,0.0007001938,0.0020193395871637835,0.3540974570001929
7490732733.0,0.001888315,0.0006950028,0.0020121536798248887,0.3526675888661485
7490735736.0,0.0018538755,0.0006609793,0.0019681839356444153,0.34248847385286163
7490738739.0,0.0018384675,0.0006483038,0.0019494257014953636,0.3390183012635162
7490741742.0,0.001834835,0.0006966032,0.0019626195493460366,0.36284499202443504
7490744745.0,0.0017869122,0.0006513333,0.0019019175266550676,0.3495354443471084
7490747748.0,0.0017965143,0.0006513766,0.001910956594256408,0.3478359456487538
7490750751.0,0.0017562362,0.0006369944,0.0018681882816841027,0.34794753693349667
