frequency,Re(S21),Im(S21),Amplitude,phase
8625000000.0,-0.003232876,-0.0084844514,0.009079504545421956,-1.9348477448537593
8625020220.0,-0.0032993789,-0.0084116907,0.009035620706859695,-1.944592866011234
8625040440.0,-0.0033974292,-0.0083960685,0.009057399815935304,-1.9553008004264398
8625060661.0,-0.0034524302,-0.0083936177,0.009075907248293436,-1.9610197490879717
8625080881.0,-0.0035226188,-0.0083568193,0.00906891790805088,-1.9697210113784458
8625101101.0,-0.0035704306,-0.0082948501,0.00903064299210673,-1.9772651894541893
8625121321.0,-0.0036503495,-0.0082704697,0.009040227902590086,-1.986451653280894
8625141542.0,-0.0036874884,-0.008268776,0.009053741063135756,-1.9902799686824528
8625161762.0,-0.0037743331,-0.0082287673,0.009053076914911575,-2.00084124946748
8625181982.0,-0.0038399932,-0.0082224794,0.009074949876416431,-2.007706691294
8625202202.0,-0.0038836628,-0.0081731685,0.009048951324518,-2.0143851878076298
8625222422.0,-0.0039711123,-0.0081459568,0.009062358693335722,-2.02438989271816
8625242643.0,-0.00399356,-0.0081235831,0.009052133663187127,-2.0277020318204855
8625262863.0,-0.004102031,-0.0080707922,0.009053416209395315,-2.0410271410245793
8625283083.0,-0.0041408015,-0.0080611448,0.009062466140569535,-2.045323297734839
8625303303.0,-0.004200714,-0.0080142985,0.009048479350526157,-2.053578658243291
8625323524.0,-0.0042546841,-0.0079991089,0.00906024723640873,-2.059632986732899
8625343744.0,-0.0043108383,-0.0079393049,0.009034151268598002,-2.068229507467809
8625363964.0,-0.0043961584,-0.007911235,0.009050626934257957,-2.077994105823989
8625384184.0,-0.0044425541,-0.0078678758,0.00903547212577475,-2.0848134761979873
8625404404.0,-0.0044742837,-0.0078684094,0.009051578929341227,-2.0878369341393905
8625424625.0,-0.0045830577,-0.007789271,0.009037541733954555,-2.1026285067956807
8625444845.0,-0.0046041866,-0.0077471114,0.0090120069513749,-2.1070215776611745
8625465065.0,-0.0046824362,-0.0077273497,0.009035327451352304,-2.1155839499661955
8625485285.0,-0.0047514215,-0.0077108343,0.009057205522274446,-2.123043018387467
8625505506.0,-0.0047995982,-0.0076480539,0.009029333936606201,-2.1312330625805984
8625525726.0,-0.004871399,-0.0076511478,0.009070313714235348,-2.1377568468724157
8625545946.0,-0.0049436221,-0.0075919688,0.009059657263262329,-2.1479898827464523
8625566166.0,-0.0049942867,-0.0075285123,0.009034456103886286,-2.156522141470369
8625586386.0,-0.00504569,-0.0074852887,0.00902710000489901,-2.1639142985454276
8625606607.0,-0.0050940705,-0.0074936973,0.009061183889702135,-2.167822983591525
8625626827.0,-0.0051668907,-0.0074418105,0.009059652478084176,-2.1776903131461527
8625647047.0,-0.0051924306,-0.0073949294,0.00903583512282073,-2.1829711165418706
8625667267.0,-0.0052775796,-0.0073490935,0.009047763353784094,-2.193584491105106
8625687487.0,-0.0053309915,-0.0072951368,0.009035402110796537,-2.2018694584749987
8625707708.0,-0.0053890427,-0.0072506558,0.009034035131241019,-2.2099627786978293
8625727928.0,-0.005453733,-0.0072154746,0.009044682268522989,-2.218023571784642
8625748148.0,-0.0054839391,-0.0071773899,0.009032636039890615,-2.2232337432141014
8625768368.0,-0.0055286862,-0.0071212864,0.009015491727515222,-2.230955879802879
8625788589.0,-0.0056022146,-0.0070729741,0.009022847169476161,-2.24067656167411
8625808809.0,-0.005642711,-0.0070292032,0.009013871812734595,-2.247213418923375
8625829029.0,-0.0056929111,-0.0069993807,0.009022226276038287,-2.253621642649067
8625849249.0,-0.0057509119,-0.0069590093,0.009027779246251434,-2.261427679735543
8625869469.0,-0.005809957,-0.0069102309,0.009028116715747743,-2.2699110092847934
8625889690.0,-0.0058650293,-0.0068747682,0.009036647967780405,-2.2771012028812154
8625909910.0,-0.0059319981,-0.0067977473,0.009022082343509225,-2.288289118418811
8625930130.0,-0.0059600581,-0.0067644761,0.009015565953552046,-2.2930606315411994
8625950350.0,-0.006010061,-0.0067220608,0.009017035800229342,-2.3003311386020506
8625970571.0,-0.0060877137,-0.0067042099,0.009055754439936283,-2.3080375768260017
8625990791.0,-0.0061337058,-0.006650097,0.009046885483433657,-2.315822261416331
8626011011.0,-0.0061810651,-0.0065831737,0.009030157348286336,-2.324702157212403
8626031231.0,-0.0062088583,-0.0065360602,0.009014987760807162,-2.3305270023121825
8626051451.0,-0.006237615,-0.0064986218,0.009007770322763578,-2.33570411499773
8626071672.0,-0.0063415114,-0.0064545981,0.00904856913930891,-2.3473571356819884
8626091892.0,-0.0063645346,-0.0063961582,0.009023200119360338,-2.3537162912608958
8626112112.0,-0.0064300741,-0.0063278714,0.009021519239375858,-2.364205224664545
8626132332.0,-0.0064801675,-0.0062960514,0.009035089045465917,-2.370604336935699
8626152553.0,-0.0064869156,-0.006261883,0.009016166186756562,-2.37384393626711
8626172773.0,-0.0065754491,-0.0061963914,0.00903503166838306,-2.3858649562999927
8626192993.0,-0.0066011721,-0.0061461125,0.0090194330174615,-2.3918778890229166
8626213213.0,-0.0066633061,-0.0060999759,0.009033789579289415,-2.4003026457165704
8626233433.0,-0.0066884586,-0.0060185512,0.008997690647657064,-2.4088652450236827
8626253654.0,-0.0067660133,-0.005991672,0.00903764733386742,-2.416816184791327
8626273874.0,-0.006796879,-0.0059226386,0.009015276597356897,-2.424818760838975
8626294094.0,-0.0068490383,-0.0058673942,0.009018627408484093,-2.4332366284741083
8626314314.0,-0.0068740079,-0.0058161654,0.009004430274560384,-2.43936139510804
8626334535.0,-0.0069210205,-0.0057855389,0.00902069759635215,-2.445319601579162
8626354755.0,-0.0069782894,-0.005701193,0.009011111173068579,-2.4565774412132364
8626374975.0,-0.0070345362,-0.0056545612,0.009025450787282367,-2.464521571220204
8626395195.0,-0.0070805667,-0.0056091151,0.00903308347122935,-2.4716354694432745
8626415415.0,-0.0071186516,-0.0055449313,0.009023384272206423,-2.4798319616333995
8626435636.0,-0.0071433355,-0.0055042605,0.009017989006281861,-2.485071966161087
8626455856.0,-0.0071774693,-0.0054299588,0.009000028784517299,-2.4939264949640663
8626476076.0,-0.0072302221,-0.0053781743,0.009011152557609316,-2.5020415292552833
8626496296.0,-0.0072761777,-0.0053033693,0.009003804076842176,-2.511754104090847
8626516517.0,-0.0073315569,-0.0052931156,0.009042610205737111,-2.5162777455862213
8626536737.0,-0.0073449018,-0.0052072521,0.009003502478735576,-2.52487759155191
8626556957.0,-0.007375669,-0.0051529046,0.00899738400949199,-2.531783011703167
8626577177.0,-0.0074186496,-0.005104962,0.009005387215940476,-2.5388806855959047
8626597397.0,-0.0074673068,-0.0050472464,0.009013066463065674,-2.547216337535978
8626617618.0,-0.0075350739,-0.005014024,0.009050843902699748,-2.5544503926720314
8626637838.0,-0.007567601,-0.0049225244,0.009027725702733571,-2.564884594755143
8626658058.0,-0.0076061194,-0.0048760368,0.009034865090415605,-2.571522443121337
8626678278.0,-0.0076277444,-0.0048212832,0.009023705243763983,-2.5779240540891446
8626698498.0,-0.0076590639,-0.0047559274,0.009015547973271172,-2.5859080159262944
8626718719.0,-0.0076834433,-0.0047075496,0.009010900298015458,-2.5918963096355796
8626738939.0,-0.0077112088,-0.0046160425,0.008987245936270115,-2.602192421060187
8626759159.0,-0.0077696576,-0.0045484658,0.009003117257650675,-2.611967247665757
8626779379.0,-0.0078035846,-0.0045131914,0.009014700728387554,-2.6172455331074684
8626799600.0,-0.0078483338,-0.0044498679,0.009022065604043944,-2.6258046138838456
8626819820.0,-0.0078682048,-0.0043721409,0.009001347833752223,-2.63440519165536
8626840040.0,-0.0079004608,-0.0042988163,0.008994281651887622,-2.6432733280797476
8626860260.0,-0.0079199739,-0.0042549447,0.008990580680731323,-2.648596983939726
8626880480.0,-0.0079823806,-0.0041984547,0.009019169690786866,-2.657389275337715
8626900701.0,-0.0079853244,-0.0041405337,0.008994966653305117,-2.6632407036214056
8626920921.0,-0.0080446633,-0.0040673321,0.00901442166875154,-2.673480003867949
8626941141.0,-0.0080587889,-0.004015137,0.009003632803681647,-2.67936139013483
8626961361.0,-0.0080743596,-0.0039515422,0.008989436506727939,-2.6864658817783824
8626981582.0,-0.0081089993,-0.0038550721,0.008978722099697644,-2.697812588821529
8627001802.0,-0.0081490471,-0.0038200395,0.008999981689957966,-2.7032386211683828
8627022022.0,-0.008190231,-0.0037360181,0.009002095038205751,-2.713631699903663
8627042242.0,-0.0082024089,-0.003685215,0.008992236727256695,-2.7193339155454015
8627062462.0,-0.0082386321,-0.0036038428,0.008992371311632002,-2.7292391377094867
8627082683.0,-0.0082701759,-0.0035522411,0.00900079031249312,-2.7358961753424773
8627102903.0,-0.008284368,-0.0035056286,0.00899556474272527,-2.7412799540081214
8627123123.0,-0.0082971933,-0.0034205093,0.008974591942197225,-2.7505716298095697
8627143343.0,-0.0083024263,-0.0033676345,0.008959422112643313,-2.7562504080409505
8627163564.0,-0.0083477004,-0.0032940291,0.008974114423151009,-2.765747350383699
8627183784.0,-0.0083813103,-0.0032099296,0.008974965759368791,-2.775838476529749
8627204004.0,-0.008402289,-0.0031829848,0.008984979280808167,-2.779474066273191
8627224224.0,-0.0084015223,-0.0030825781,0.008949182348125268,-2.789935945456213
8627244444.0,-0.0084642268,-0.0030279023,0.008989512092443256,-2.798048667698344
8627264665.0,-0.0084834138,-0.0029791539,0.008991310675419665,-2.8038723856035497
8627284885.0,-0.0085027198,-0.0029099052,0.008986867767487127,-2.811854540024463
8627305105.0,-0.008501816,-0.002827514,0.008959671351006799,-2.8205223668272548
8627325325.0,-0.0085321775,-0.0027746613,0.008972000792533621,-2.8271801712026123
8627345546.0,-0.0085624937,-0.002674727,0.00897053303249415,-2.838819749730514
8627365766.0,-0.0085906308,-0.0026343801,0.008985482516436424,-2.8440394421187114
8627385986.0,-0.0085884909,-0.0025680239,0.008964202289682782,-2.8510465825304068
8627406206.0,-0.0085988093,-0.0024819339,0.008949833365026172,-2.8605930201589422
8627426426.0,-0.0086182955,-0.0024179681,0.008951066252572252,-2.8680626821511113
8627446647.0,-0.0086416968,-0.0023741188,0.008961883934734016,-2.8734790436711224
8627466867.0,-0.0086685595,-0.0022900836,0.00896595821426964,-2.88331073295733
8627487087.0,-0.0086757322,-0.0022156369,0.008954182044093054,-2.891553831651967
8627507307.0,-0.008687899,-0.0021478937,0.00894947129056799,-2.8992244325580794
8627527528.0,-0.0087217761,-0.0020851787,0.008967572054322448,-2.9069203003751505
8627547748.0,-0.0087338475,-0.0020291374,0.008966464785038472,-2.91331217568941
8627567968.0,-0.0087522446,-0.0019463538,0.008966051452730104,-2.922770132187797
8627588188.0,-0.0087451333,-0.0018825046,0.008945455829849592,-2.9295650211443225
8627608408.0,-0.0087620476,-0.0018162182,0.008948303006418424,-2.93720469882633
8627628629.0,-0.0087753592,-0.0017533528,0.008948808587197096,-2.944385460425632
8627648849.0,-0.0088184927,-0.0016739778,0.00897596875968528,-2.9539988026090547
8627669069.0,-0.0087890637,-0.001602451,0.008933951529421832,-2.961250253658663
8627689289.0,-0.0088104624,-0.0015231051,0.008941146282633998,-2.9704099794790393
8627709510.0,-0.0088160692,-0.0014891635,0.00894095543378452,-2.9742575213584113
8627729730.0,-0.0088419671,-0.0014168619,0.008954768553187404,-2.982700624033671
8627749950.0,-0.0088356522,-0.0013227311,0.00893411256713682,-2.992992357519761
8627770170.0,-0.0088562856,-0.0012702298,0.008946914461062841,-2.9991372582473046
8627790390.0,-0.008885135,-0.0011997377,0.00896576792678833,-3.007376903164864
8627810611.0,-0.0088754536,-0.0011329344,0.008947469863623811,-3.0146311975500613
8627830831.0,-0.0088783572,-0.0010561377,0.008940953719383249,-3.0231926075603393
8627851051.0,-0.0088775236,-0.000996447,0.00893327106341042,-3.0298166945129927
8627871271.0,-0.0088966882,-0.000903719,0.008942469958517068,-3.0403606234871825
8627891491.0,-0.0088884562,-0.0008345737,0.008927551001257295,-3.0479730181369087
8627911712.0,-0.0089068138,-0.0007742899,0.008940405858634856,-3.0548783448203385
8627931932.0,-0.0088988856,-0.0007181461,0.008927816011927697,-3.0610664847401696
8627952152.0,-0.0089191771,-0.0006278292,0.00894124653756606,-3.0713176355386564
8627972372.0,-0.0088982206,-0.0005753699,0.00891680325946975,-3.0770213147467667
8627992593.0,-0.0089108081,-0.0005032042,0.008925005067893422,-3.0851813483875214
8628012813.0,-0.0089339167,-0.000450594,0.008945272637285848,-3.0911990222197194
8628033033.0,-0.008906971,-0.0003578419,0.008914156338108312,-3.1014387607600638
8628053253.0,-0.0089069964,-0.0002992449,0.008912021789683247,-3.108008673803058
8628073473.0,-0.0089373504,-0.0002131058,0.008939890729442604,-3.117752766292692
8628093694.0,-0.0089172545,-0.0001421667,0.008918387701168812,-3.125651126212052
8628113914.0,-0.0089438691,-6.67917e-05,0.0089441184925695,-3.134124917014525
8628134134.0,-0.0089308291,1.3721e-05,0.008930839640215685,-3.1431290158973266
8628154354.0,-0.0089560557,6.98741e-05,0.008956328270633748,-3.14939437844069
8628174575.0,-0.0089227444,0.0001429899,0.008923890056429054,-3.157616609338253
8628194795.0,-0.0089147556,0.0002188133,0.008917440589540715,-3.1661327961997303
8628215015.0,-0.0089228062,0.0002649256,0.008926738265250853,-3.1712747723299826
8628235235.0,-0.0089239993,0.0003415032,0.008930531223953632,-3.179841944251393
8628255455.0,-0.0089040749,0.0004073172,0.008913386400590173,-3.1873058177704436
8628275676.0,-0.0089136958,0.0004776775,0.008926485792793482,-3.1951306060284255
8628295896.0,-0.0089029991,0.0005810614,0.008921940670345817,-3.2067660250667873
8628316116.0,-0.0088911426,0.0006170575,0.00891252919725041,-3.2108829219771042
8628336336.0,-0.0088826081,0.0007087668,0.008910840422483607,-3.221216600123559
8628356557.0,-0.00887789,0.0007669475,0.00891095613948673,-3.227767194565331
8628376777.0,-0.0088498715,0.000853146,0.008890898923271384,-3.2376977524111314
8628396997.0,-0.008859158,0.0009242082,0.00890723533235264,-3.245539005825598
8628417217.0,-0.0088755967,0.0009984751,0.008931582687652335,-3.253618330635727
8628437437.0,-0.0088452371,0.0010406777,0.008906246652237614,-3.258708263996926
8628457658.0,-0.0088487534,0.0011087337,0.008917944110137003,-3.266241341645712
8628477878.0,-0.0088050565,0.0011785509,0.008883580482670435,-3.274651133733082
8628498098.0,-0.008805313,0.0012519493,0.008893869465971461,-3.282827147158712
8628518318.0,-0.0087966883,0.001314438,0.008894350583555883,-3.2899194116629165
8628538539.0,-0.0088016299,0.0013779595,0.008908841747399842,-3.2968893674800763
8628558759.0,-0.0087793914,0.0014535242,0.008898901390305412,-3.305665286027372
8628578979.0,-0.0087524119,0.0015276746,0.008884734309519152,-3.3143951281529964
8628599199.0,-0.0087528484,0.0016146139,0.008900524319356461,-3.3240092536297037
8628619419.0,-0.0087265221,0.0016840544,0.00888753211999528,-3.332230314582901
8628639640.0,-0.0087216468,0.0017344055,0.00889242854018971,-3.337893895139277
8628659860.0,-0.0087058273,0.0018055098,0.008891079496625893,-3.3460846909817867
8628680080.0,-0.0086850019,0.0018755668,0.008885212930721798,-3.3542811333995313
8628700300.0,-0.0086840213,0.0019303005,0.008895970208985299,-3.3603184402623256
8628720521.0,-0.0086528316,0.0020014969,0.008881299709989986,-3.3689060110958375
8628740741.0,-0.0086122592,0.0020777872,0.008859357097242919,-3.3783279616544366
8628760961.0,-0.00862353,0.002163259,0.008890723208039996,-3.3873762295181917
8628781181.0,-0.0085800015,0.0022073319,0.008859387103900577,-3.393396950402211
8628801401.0,-0.0085805362,0.0022858592,0.008879794691417989,-3.401946540211584
8628821622.0,-0.0085701583,0.002364715,0.00889041564373027,-3.4108179832285086
8628841842.0,-0.008537956,0.0024228234,0.008875064275008015,-3.418094670307257
8628862062.0,-0.0085113579,0.0024900966,0.008868133646896847,-3.426211347216876
8628882282.0,-0.0084909546,0.0025418537,0.008863257316103648,-3.4324623542017654
8628902503.0,-0.0084661619,0.0026206597,0.008862491443167418,-3.4417833361642898
8628922723.0,-0.0084530072,0.0026913978,0.008871130302340095,-3.44983928250158
8628942943.0,-0.0084183605,0.0027325263,0.008850734064932237,-3.4554548231676434
8628963163.0,-0.0084058971,0.002819805,0.008866250971736217,-3.4652520030667753
8628983383.0,-0.0083746575,0.0028884968,0.008858798000062791,-3.473725100699831
8629003604.0,-0.0083552885,0.0029738593,0.008868747659868824,-3.483536431376007
8629023824.0,-0.0083279856,0.0030207632,0.008858913842242829,-3.4895579241109873
8629044044.0,-0.0082904972,0.0030625808,0.008838084915847803,-3.495452268747464
8629064264.0,-0.0082882549,0.0031481018,0.008865986365348034,-3.504588358047265
8629084484.0,-0.0082310173,0.0032005625,0.008831378494284205,-3.5124429245333704
8629104705.0,-0.0082539158,0.0032599729,0.008874375997343366,-3.517747328355475
8629124925.0,-0.0081753745,0.0033449735,0.008833209831706282,-3.5299639834127086
8629145145.0,-0.0081559072,0.0034125445,0.008841056623475051,-3.5378715702487398
8629165365.0,-0.0081461143,0.003480895,0.008858657245299058,-3.545416073250523
8629185586.0,-0.0081054579,0.0035298623,0.008840722573728558,-3.5523164735022124
8629205806.0,-0.0080906225,0.0036020156,0.00885622316905743,-3.5604550025931374
8629226026.0,-0.0080625492,0.0036680541,0.008857726597888842,-3.5685550963957757
8629246246.0,-0.007991644,0.0036975707,0.008805589299089214,-3.574940769243752
8629266466.0,-0.0080268362,0.0037979544,0.00888000884042971,-3.5835362613282276
8629286687.0,-0.0079577548,0.0038477899,0.008839193886970974,-3.591975290189291
8629306907.0,-0.0079031658,0.0039092356,0.008817151050004588,-3.600944465357932
8629327127.0,-0.007882653,0.0039657091,0.00882400515549667,-3.6077117573648003
8629347347.0,-0.0078320186,0.0040538201,0.008818955309667352,-3.619217625672236
8629367568.0,-0.0078342769,0.0040985869,0.008841623670046426,-3.6235967939544436
8629387788.0,-0.0077845583,0.0041731021,0.008832560730791684,-3.633681567007754
8629408008.0,-0.0077417997,0.0042245184,0.008819411449006031,-3.6411104433082166
8629428228.0,-0.0077085528,0.0042917939,0.00882277060511408,-3.649609088398954
8629448448.0,-0.0076902598,0.0043382012,0.008829500860364502,-3.655209107508623
8629468669.0,-0.0076290544,0.0043844787,0.008799211584506481,-3.6632074702012187
8629488889.0,-0.0076089288,0.0044501967,0.008814763079752078,-3.670809192712132
8629509109.0,-0.0075693434,0.0045268265,0.008819700543001775,-3.680575216711003
8629529329.0,-0.0075151066,0.0045972578,0.008809744972984427,-3.6905965706587667
8629549550.0,-0.0074944122,0.0046279308,0.008808175617748404,-3.6947932024281522
8629569770.0,-0.0074442046,0.0047234411,0.008816296158355297,-3.707003214601425
8629589990.0,-0.0074314784,0.0047567706,0.008823476511596262,-3.710965450955253
8629610210.0,-0.0073553584,0.0048237393,0.00879600807337141,-3.7220434592957536
8629630430.0,-0.0073423147,0.0048882988,0.008820717108711601,-3.7289747917296423
8629650651.0,-0.0072878756,0.0049371737,0.008802773137202109,-3.737023757825459
8629670871.0,-0.0072563333,0.0049757773,0.0087984505851817,-3.7426669605924903
8629691091.0,-0.0071860563,0.0050659579,0.00879223149100057,-3.7556467584187105
8629711311.0,-0.0071635876,0.0050963331,0.008791450299525634,-3.759943260235611
8629731532.0,-0.0071593377,0.0051865452,0.008840608995667907,-3.7685368546457996
8629751752.0,-0.0070828942,0.0051972318,0.008785135663797395,-3.7746269053541117
8629771972.0,-0.0070414144,0.0052810815,0.008801780420015578,-3.785095643820605
8629792192.0,-0.0069790073,0.0053082312,0.008768344277348303,-3.791843158557837
8629812412.0,-0.0069151708,0.005388263,0.008766582307281535,-3.8035179386490756
8629832633.0,-0.0068896615,0.0054106781,0.008760300970080986,-3.807326060630786
8629852853.0,-0.0068508755,0.0054670024,0.008764850846312561,-3.815113227800892
8629873073.0,-0.0068073232,0.0055539765,0.008785573635899394,-3.8259433526738156
8629893293.0,-0.0067615893,0.0055894581,0.008772749381666507,-3.832372829296477
8629913514.0,-0.0067139277,0.0056467886,0.008772858522392644,-3.840871243145208
8629933734.0,-0.0066529799,0.0056959913,0.00875822233329799,-3.849649983158703
8629953954.0,-0.0066031645,0.0057541554,0.008758543587915139,-3.858393661745312
8629974174.0,-0.0065756293,0.0057915755,0.008762490939408653,-3.8636777325964955
