frequency,Re(S21),Im(S21),Amplitude,phase
7805000000.0,0.0022010977,-0.0156312865,0.015785498051377016,-1.4309025161807023
7805007508.0,0.0021409564,-0.0156300781,0.015776027247656508,-1.4346667979361962
7805015015.0,0.002108808,-0.015662857,0.015804181743554867,-1.4369636219404267
7805022523.0,0.0020377799,-0.0156600359,0.015792063554524245,-1.44139728886744
7805030030.0,0.0019977513,-0.015650508,0.015777496978757934,-1.4438352243972472
7805037538.0,0.0019437034,-0.0156694847,0.015789576741341283,-1.4473828708112693
7805045045.0,0.001909404,-0.0156745255,0.01579039496926427,-1.449577817725222
7805052553.0,0.0018413728,-0.0156799076,0.01578765834863162,-1.4538965718433992
7805060060.0,0.0018000827,-0.0156683669,0.015771430469042905,-1.456411391447929
7805067568.0,0.0017655762,-0.015700007,0.015798970824647263,-1.4588097949001049
7805075075.0,0.0017189616,-0.0156859162,0.015779822432958394,-1.4616455673173836
7805082583.0,0.001681022,-0.0156841917,0.01577401991398619,-1.464024542294489
7805090090.0,0.0016529775,-0.015696129,0.015782927491443,-1.4658719155552262
7805097598.0,0.0015680525,-0.0156847554,0.01576294200333762,-1.4711543787433567
7805105105.0,0.0015528565,-0.0156841309,0.015760816139969623,-1.472109818118748
7805112613.0,0.0014926677,-0.0157170697,0.015787790751630875,-1.4761092033634027
7805120120.0,0.0014520977,-0.015683726,0.015750804708757622,-1.4784732602847392
7805127628.0,0.0014031367,-0.0157010848,0.015763656190607492,-1.4816675011643161
7805135135.0,0.0013554489,-0.0157042739,0.015762660322633754,-1.4846988707063031
7805142643.0,0.0013182569,-0.0156888879,0.01574417367768674,-1.4869683584021334
7805150150.0,0.0012436945,-0.0157004825,0.015749664337443403,-1.4917476141604802
7805157658.0,0.0012200613,-0.0156847487,0.015732129269679596,-1.493166173938199
7805165165.0,0.0011955576,-0.0156956389,0.015741106646424544,-1.4947718089463806
7805172673.0,0.0011376968,-0.0156946834,0.015735864800987768,-1.4984335859585332
7805180180.0,0.0010850755,-0.015696456,0.01573391622580457,-1.5017774352251134
7805187688.0,0.0010458605,-0.0157101482,0.015744922376798923,-1.504322125334296
7805195195.0,0.0010015803,-0.0157086008,0.015740498791051976,-1.5071225241446087
7805202703.0,0.0009319816,-0.0157139766,0.015741589827208878,-1.511556634973107
7805210210.0,0.0008946993,-0.0157106367,0.01573609202937017,-1.5139091374945837
7805217718.0,0.000869588,-0.0157139717,0.015738014165648247,-1.5155141879162646
7805225225.0,0.0008179928,-0.0156817998,0.015703119345790245,-1.518681637391675
7805232733.0,0.0007568112,-0.0157178626,0.0157360721879675,-1.5226837323474167
7805240240.0,0.000710133,-0.0157126737,0.01572871271529748,-1.525632142523011
7805247748.0,0.0006777547,-0.0157099632,0.01572457615259395,-1.527681350670755
7805255255.0,0.0005970481,-0.0157151556,0.015726492996403392,-1.5328227229977123
7805262763.0,0.0005811619,-0.015706623,0.015717371129363222,-1.5338121260074065
7805270270.0,0.0005270153,-0.0156902254,0.01569907380163681,-1.5372201845260833
7805277778.0,0.000491803,-0.0157001465,0.01570784741179616,-1.5394818269062176
7805285285.0,0.0004325431,-0.0157070184,0.015712973001672733,-1.543265079385175
7805292793.0,0.000368005,-0.0157027918,0.0157071034246984,-1.5473649743425888
7805300300.0,0.0003335606,-0.0157031941,0.01570673637698638,-1.5495579441174343
7805307808.0,0.0002968622,-0.0156895723,0.01569238051165967,-1.551877596825487
7805315315.0,0.0002587534,-0.0156972241,0.015699356603620172,-1.5543137967784706
7805322823.0,0.0001980401,-0.0157059518,0.015707200317852037,-1.5581877559890203
7805330330.0,0.0001549232,-0.0157095285,0.01571029238716487,-1.5609349119215832
7805337838.0,0.0001306518,-0.0156939148,0.01569445862852562,-1.5624715217038283
7805345345.0,6.00413e-05,-0.0157047665,0.015704881272306008,-1.5669732194933323
7805352853.0,2.98237e-05,-0.0157032044,0.015703232720725407,-1.5688971179848767
7805360360.0,-2.22382e-05,-0.0156741984,0.015674214175520944,-1.5722151033416263
7805367868.0,-8.35498e-05,-0.0156755609,0.015675783556131695,-1.5761262163840666
7805375375.0,-0.0001171585,-0.015680455,0.015680892676156778,-1.5782678140662039
7805382883.0,-0.0001696353,-0.0156660546,0.01566697299624874,-1.5816241117656078
7805390390.0,-0.0001974785,-0.0156729335,0.015674177562264135,-1.5833956305871346
7805397898.0,-0.0002367945,-0.0156713018,0.015673090688881803,-1.5859052490976888
7805405405.0,-0.0002984366,-0.0156646868,0.01566752938233447,-1.5898455746131235
7805412913.0,-0.0003490947,-0.0156717203,0.01567560793943891,-1.5930680985415124
7805420420.0,-0.0003839663,-0.0156599788,0.0156646853187667,-1.5953103691491641
7805427928.0,-0.0004284613,-0.0156693971,0.015675253891503194,-1.598133343047624
7805435435.0,-0.0004743375,-0.015646262,0.015653450438690836,-1.6011033906744208
7805442943.0,-0.000504554,-0.0156691208,0.01567724214853839,-1.6029857347721161
7805450450.0,-0.0005673914,-0.0156517081,0.01566198900039199,-1.6070315445765624
7805457958.0,-0.0006111896,-0.0156412108,0.01565314754345543,-1.6098520506095313
7805465465.0,-0.0006616677,-0.0156346167,0.015648611551864342,-1.6130917736301333
7805472973.0,-0.0007052325,-0.0156313872,0.015647287901594323,-1.6158821899967908
7805480480.0,-0.0007328455,-0.0156215915,0.01563877180342953,-1.6176743034140906
7805487988.0,-0.0007835069,-0.0156296682,0.015649294268574504,-1.6208838635081921
7805495495.0,-0.0008420792,-0.0156251147,0.015647789197430696,-1.6246369150587532
7805503003.0,-0.0008943805,-0.015626934,0.015652507234278353,-1.627967225231099
7805510511.0,-0.0009268049,-0.0156140647,0.015641546719504757,-1.6300838188575744
7805518018.0,-0.0009772465,-0.0156032341,0.01563380712114503,-1.6333456480279627
7805525526.0,-0.0010257459,-0.0155998406,0.015633527477724764,-1.6364554232942508
7805533033.0,-0.0010770633,-0.0156015518,0.015638685492083092,-1.6397226184733287
7805540541.0,-0.0011013366,-0.0156108449,0.01564964602789327,-1.6412290832607146
7805548048.0,-0.0011631757,-0.015576842,0.015620210766888982,-1.64533139004571
7805555556.0,-0.0012240083,-0.0155693161,0.015617355734572612,-1.6492516620337592
7805563063.0,-0.001263564,-0.0155705367,0.015621722283670994,-1.6517698480259335
7805570571.0,-0.0012877368,-0.0155630325,0.01561621742491217,-1.6533515744823803
7805578078.0,-0.0013296174,-0.0155748143,0.015631465795307466,-1.655959549124484
7805585586.0,-0.0013905006,-0.0155755326,0.01563747766400525,-1.6598349567524737
7805593093.0,-0.0014376373,-0.0155519814,0.01561828820557161,-1.6629751378851203
7805600601.0,-0.0014803096,-0.015552803,0.01562309180887897,-1.6656900653918196
7805608108.0,-0.0015225832,-0.0155235503,0.015598040694829344,-1.6685657602457078
7805615616.0,-0.0015628092,-0.0155216561,0.015600133995651185,-1.6711438688843039
7805623123.0,-0.0016236734,-0.0155020294,0.015586828761115326,-1.6751552282930016
7805630631.0,-0.0016629519,-0.0154976523,0.01558661720301775,-1.6776907887541017
7805638138.0,-0.0016840655,-0.0154942309,0.01558548259730205,-1.6790611747841344
7805645646.0,-0.001740647,-0.0155026385,0.015600052962739943,-1.6826087182376153
7805653153.0,-0.0017979197,-0.0154764424,0.015580525812955283,-1.6864492919082417
7805660661.0,-0.001841978,-0.0154870856,0.015596240038362175,-1.6891766064533877
7805668168.0,-0.0018805855,-0.015493774,0.015607486491613127,-1.691582336852036
7805675676.0,-0.0019186863,-0.0154625209,0.015581107460663523,-1.6942515322865377
7805683183.0,-0.0019916097,-0.0154778614,0.015605470281755176,-1.6987678696167814
7805690691.0,-0.0020132823,-0.015447589,0.015578231977102352,-1.7003957071506342
7805698198.0,-0.0020713214,-0.0154482455,0.015586489706485173,-1.704082724352979
7805705706.0,-0.0021056441,-0.0154366879,0.015579636401337202,-1.7063648199610748
7805713213.0,-0.002155461,-0.0154413416,0.0155910564917972,-1.709490389282878
7805720721.0,-0.0021735991,-0.015425209,0.01557759948583869,-1.710786754734384
7805728228.0,-0.0022275382,-0.0153939734,0.01555430305325079,-1.7145008383004112
7805735736.0,-0.0022784291,-0.0153938007,0.015561501828391992,-1.7177390315729038
7805743243.0,-0.0023439359,-0.0153832031,0.015560751046114657,-1.722003137972101
7805750751.0,-0.002365137,-0.0153633235,0.015544310277217874,-1.7235441323595606
7805758258.0,-0.0024189388,-0.0153655684,0.015554804954522059,-1.7269407612843193
7805765766.0,-0.0024602705,-0.0153577935,0.015553608974183853,-1.7296435422618206
7805773273.0,-0.0025082374,-0.0153515184,0.015555075443092434,-1.7327522178915844
7805780781.0,-0.0025408786,-0.0153181597,0.015527462144685528,-1.7351732920710992
7805788288.0,-0.0025957585,-0.0153495929,0.015567529167663463,-1.7383206489386576
7805795796.0,-0.0026294257,-0.0152972511,0.015521590470318165,-1.7410216284681428
7805803303.0,-0.0026828642,-0.0153143284,0.015547553333521265,-1.7442229841749939
7805810811.0,-0.0027306762,-0.0152886528,0.01553059873115632,-1.7475406556633366
7805818318.0,-0.0027917679,-0.0152930135,0.015545746360939144,-1.7513599251647263
7805825826.0,-0.0028182393,-0.0152590328,0.015517105230794187,-1.7534314107045281
7805833333.0,-0.0028514942,-0.0152488098,0.015513130550898155,-1.7556591084883615
7805840841.0,-0.002901154,-0.0152428836,0.015516513621779377,-1.7588752343841985
7805848348.0,-0.002944216,-0.0152396845,0.015521481614658965,-1.7616391978888661
7805855856.0,-0.0030039966,-0.015197748,0.015491789433255139,-1.7659414936647642
7805863363.0,-0.0030464752,-0.0152082652,0.015510394628691627,-1.7684967478103075
7805870871.0,-0.0030847285,-0.0151962382,0.01550616668780042,-1.771068014240585
7805878378.0,-0.003130338,-0.0151819166,0.015501277613267866,-1.77413531197429
7805885886.0,-0.0031677774,-0.0151539571,0.015481512505068462,-1.7768685253279406
7805893393.0,-0.0032197831,-0.0151547519,0.015493014824804086,-1.7801437324746743
7805900901.0,-0.0032783136,-0.0151649208,0.015515223586214207,-1.7836976218177978
7805908408.0,-0.0032974336,-0.0151380543,0.015493022827587825,-1.7852702728295313
7805915916.0,-0.0033667122,-0.0151226604,0.015492888969180569,-1.7898509490365841
7805923423.0,-0.0033724577,-0.0151231049,0.015494572364369831,-1.790206661262431
7805930931.0,-0.0034504699,-0.0151044963,0.015493597097108203,-1.795382510924415
7805938438.0,-0.0034942353,-0.0150667493,0.015466629070383002,-1.7986846365608433
7805945946.0,-0.0035409647,-0.0150745442,0.01548484142135139,-1.8015106434476942
7805953453.0,-0.0035695652,-0.0150656352,0.01548273747424951,-1.8034405313107387
7805960961.0,-0.0035930821,-0.0150387248,0.015462001247816385,-1.805321762794168
7805968468.0,-0.0036440073,-0.0150216899,0.015457359304040755,-1.8087822381066534
7805975976.0,-0.0037003772,-0.0150079364,0.015457391319647852,-1.8125360129497883
7805983483.0,-0.0037428042,-0.014984503,0.015444866896044997,-1.8155663525235608
7805990991.0,-0.0037941385,-0.014991756,0.015464418350546466,-1.8186732664794518
7805998498.0,-0.0038229252,-0.0149835522,0.015463556952231911,-1.8206081149590079
7806006006.0,-0.0038669407,-0.0149401592,0.015432484806364177,-1.8240668584615405
7806013514.0,-0.0039015424,-0.0149403298,0.015441356405179105,-1.8262334504229756
7806021021.0,-0.0039466698,-0.0149175594,0.015430806231780645,-1.8294359138735177
7806028529.0,-0.0040090345,-0.0148890519,0.015419345774159288,-1.8338188385691296
7806036036.0,-0.0040324449,-0.0149088444,0.01544455416044592,-1.8349492842723067
7806043544.0,-0.0040834548,-0.0148820733,0.015432132348130505,-1.8385930067289513
7806051051.0,-0.0041244046,-0.0148772138,0.015438335524123435,-1.8412342307206275
7806058559.0,-0.0041504727,-0.014843839,0.015413175529116842,-1.8434425264373118
7806066066.0,-0.0042081755,-0.014845209,0.015430131927254584,-1.8470201082648716
7806073574.0,-0.0042606168,-0.0148152442,0.0154157165328789,-1.8508230869309357
7806081081.0,-0.0043126977,-0.0148004602,0.015415997651250773,-1.8543349180580369
7806088589.0,-0.0043390049,-0.014785397,0.01540892364734906,-1.8562474989019457
7806096096.0,-0.0043715283,-0.0147972832,0.015429512298796199,-1.8580531493888208
7806103604.0,-0.0044286495,-0.0147690663,0.015418763107579217,-1.8621245069374703
7806111111.0,-0.0044688975,-0.0147488589,0.015411031234723245,-1.8650027182838724
7806118619.0,-0.0045112527,-0.0147159516,0.015391901520500963,-1.868256238810046
7806126126.0,-0.0045635078,-0.0147044369,0.015396300464291492,-1.8717203988004079
7806133634.0,-0.0045992186,-0.0146886555,0.015391861879846317,-1.8742401561573483
7806141141.0,-0.0046342533,-0.0146746699,0.015389029869440338,-1.8766843080467979
7806148649.0,-0.0046784205,-0.0146621209,0.015390432341589273,-1.879666422433171
7806156156.0,-0.0047522897,-0.0146203771,0.015373343290869767,-1.8850694970090325
7806163664.0,-0.004786928,-0.0146072866,0.015371646024148602,-1.887475771663405
7806171171.0,-0.0048298115,-0.0146136299,0.015391077219600527,-1.889995137999514
7806178679.0,-0.0048374974,-0.0145676468,0.01534984411596929,-1.89141062081229
7806186186.0,-0.0048792266,-0.0145617519,0.015357456515038587,-1.8941103249788318
7806193694.0,-0.0049381716,-0.0145428536,0.015358389550407931,-1.8981403883802213
7806201201.0,-0.0049870709,-0.0145189685,0.015351590225954413,-1.9016568058139576
7806208709.0,-0.0050058841,-0.0145105397,0.015349743906916131,-1.9029943520346342
7806216216.0,-0.0050454731,-0.0144852832,0.015338847029259594,-1.9059711951908282
7806223724.0,-0.0051043901,-0.014477266,0.015350766401966191,-1.9097674685991413
7806231231.0,-0.0051546665,-0.0144592669,0.01535060213840675,-1.913246201817944
7806238739.0,-0.0051757761,-0.0144328442,0.015332829156382224,-1.9151216883144997
7806246246.0,-0.0052279531,-0.0144262738,0.015344343236788145,-1.918467051350928
7806253754.0,-0.0052674628,-0.0144028523,0.015335850766260055,-1.9214095530329902
7806261261.0,-0.0053241178,-0.0143849576,0.015338619087195384,-1.9252791808143395
7806268769.0,-0.0053423655,-0.0143547567,0.015316654629904834,-1.927080884991655
7806276276.0,-0.0053869289,-0.014352097,0.015329764879836357,-1.9298658283922097
7806283784.0,-0.0054502936,-0.0143156201,0.015318050762865522,-1.9345754310982866
7806291291.0,-0.0054633202,-0.0143119453,0.015319257353994682,-1.9354554771220527
7806298799.0,-0.0055165197,-0.0142834242,0.015311701292724912,-1.9393657574420875
7806306306.0,-0.0055727299,-0.0142616958,0.015311802167938678,-1.9433015334243908
7806313814.0,-0.0055897535,-0.0142484642,0.015305687709131006,-1.9446521256378455
7806321321.0,-0.0056320615,-0.0142108822,0.01528624511258599,-1.9481265537973342
7806328829.0,-0.0056841407,-0.0142121809,0.015306715566434273,-1.951258322782328
7806336336.0,-0.0057297564,-0.0141920401,0.015305035465602457,-1.954514325002643
7806343844.0,-0.0057606911,-0.0141559739,0.015283231301236672,-1.9572746891042143
7806351351.0,-0.0058115899,-0.0141382732,0.015286116126852507,-1.9607953108533138
7806358859.0,-0.0058353331,-0.0141158028,0.01527439036676893,-1.9627923329374783
7806366366.0,-0.0058661556,-0.014116291,0.015286642964369003,-1.964643496083453
7806373874.0,-0.0059330406,-0.0140590694,0.015259698658730609,-1.9701300470318137
7806381381.0,-0.0059777803,-0.0140479157,0.015266885498665882,-1.9731140393333022
7806388889.0,-0.0060088125,-0.0140371512,0.015269166364665025,-1.9752601519777333
7806396396.0,-0.0060522712,-0.0140095903,0.015261015924642879,-1.9785887765573362
7806403904.0,-0.006082384,-0.0139944137,0.015259063206180243,-1.9807948311771029
7806411411.0,-0.0061242409,-0.0139702966,0.015253704916944092,-1.9839416867738608
7806418919.0,-0.0061671844,-0.0139594087,0.015261037142908704,-1.98680530648814
7806426426.0,-0.0062090885,-0.0139324404,0.015253382428182426,-1.9900326816069474
7806433934.0,-0.0062528134,-0.0138967618,0.015238689705521233,-1.993606603199537
7806441441.0,-0.0062833741,-0.0138709082,0.015227701217628946,-1.9961334404700848
7806448949.0,-0.006335774,-0.0138325895,0.015214551076340909,-2.0003098766122402
7806456456.0,-0.0063756444,-0.0138202847,0.01522002334769252,-2.003028205580038
7806463964.0,-0.0064089553,-0.0137882319,0.015204934954335572,-2.005900584057277
7806471471.0,-0.0064542205,-0.0137945145,0.01522976009506816,-2.008421934252652
7806478979.0,-0.0064898562,-0.0137504406,0.015205027135484066,-2.011773166865775
7806486486.0,-0.006530809,-0.0137352027,0.015208788886843303,-2.0146359196926413
7806493994.0,-0.0065708139,-0.0137036609,0.015197562876021338,-2.0179044218288054
7806501502.0,-0.0066115425,-0.0136962952,0.015208582985763311,-2.0205285785859433
7806509009.0,-0.0066369379,-0.0136620068,0.015188791080652292,-2.023015689958854
7806516517.0,-0.0066815704,-0.013635853,0.01518485660280548,-2.026412123709581
7806524024.0,-0.0067376129,-0.0136311271,0.015205362659489605,-2.0298586176553624
7806531532.0,-0.0067850244,-0.0136012281,0.015199669796966806,-2.033526560023714
7806539039.0,-0.0067963651,-0.0135786638,0.015184554295926122,-2.034858217662466
7806546547.0,-0.0068394639,-0.0135482788,0.015176762661448346,-2.0382937787873767
7806554054.0,-0.0068856607,-0.0135135022,0.01516664316798313,-2.042046235182599
7806561562.0,-0.0069199238,-0.013476724,0.015149502802731925,-2.04516355630355
7806569069.0,-0.0069588323,-0.0134670364,0.015158707609108642,-2.047738802326738
7806576577.0,-0.0069925684,-0.0134309957,0.01514224746601696,-2.0508107597210627
7806584084.0,-0.0070337961,-0.0134265943,0.015157431249165134,-2.053357435216299
7806591592.0,-0.0070894542,-0.0133929206,0.015153569977130868,-2.057642163014712
7806599099.0,-0.0071139524,-0.0133593691,0.015135424060775456,-2.0601097922280402
7806606607.0,-0.0071395483,-0.0133465934,0.01513620511597793,-2.0619991178538135
7806614114.0,-0.0072050064,-0.0133173139,0.015141432122992005,-2.0667232256281522
7806621622.0,-0.0072203863,-0.0132885286,0.01512345762959799,-2.0685233740905153
7806629129.0,-0.0072767324,-0.013283553,0.015146075885357857,-2.0719490289323144
7806636637.0,-0.007316356,-0.0132461184,0.015132373170972045,-2.0754340161133444
7806644144.0,-0.0073441664,-0.0132090959,0.015113470634049804,-2.078229131939729
7806651652.0,-0.0073957141,-0.0131887086,0.015120800957113772,-2.0818638237956013
7806659159.0,-0.0074025128,-0.0131774532,0.015114313368206777,-2.082620397759272
7806666667.0,-0.0074549231,-0.0131473884,0.015113890967165542,-2.086617978865361
7806674174.0,-0.0074987321,-0.013131855,0.015122056700349837,-2.0896447382845764
7806681682.0,-0.0075235939,-0.0130800293,0.015089454319523146,-2.0927786612053456
7806689189.0,-0.0075656545,-0.0130562676,0.015089905621181995,-2.0959799501628167
7806696697.0,-0.0076045325,-0.0130258372,0.01508314785793934,-2.099221681847718
7806704204.0,-0.0076284363,-0.0129882802,0.015062817231078314,-2.1018492568867893
7806711712.0,-0.0076849607,-0.0129718644,0.01507739655817714,-2.105633286603831
7806719219.0,-0.00770104,-0.0129426678,0.01506050021953975,-2.1075399563942496
7806726727.0,-0.0077213516,-0.0129235953,0.015054520450980982,-2.1093472475092234
7806734234.0,-0.0077919786,-0.012884853,0.015057701263289392,-2.114693413293689
7806741742.0,-0.007803297,-0.0128465919,0.015030847198855913,-2.1166549997553985
7806749249.0,-0.0078212561,-0.0128411789,0.015035555278192834,-2.1178627696808734
7806756757.0,-0.0079002263,-0.0128054389,0.015046356403224168,-2.123580876735633
7806764264.0,-0.0079400941,-0.0127918866,0.015055811406367787,-2.1263071282834622
7806771772.0,-0.007948065,-0.0127468711,0.015021799495541145,-2.1283383430979006
7806779279.0,-0.0080039435,-0.0127139413,0.015023561992118845,-2.132654202774856
7806786787.0,-0.0080317791,-0.0126882749,0.015016717199480278,-2.135133466132617
7806794294.0,-0.0080615083,-0.012673099,0.015019832034173015,-2.137346302799377
7806801802.0,-0.0081100123,-0.0126452891,0.015022504316149491,-2.141064191595938
7806809309.0,-0.0081559357,-0.0126108742,0.015018436510860914,-2.144875213977119
7806816817.0,-0.0081661442,-0.0125598324,0.014981164874978293,-2.147297647784174
7806824324.0,-0.0081964524,-0.0125311551,0.014973699612511325,-2.150038554338963
7806831832.0,-0.0082378557,-0.0125203594,0.014987383562156233,-2.1527447641829025
7806839339.0,-0.0082835694,-0.0124731386,0.014973199676068782,-2.157028695125958
