frequency,Re(S21),Im(S21),Amplitude,phase
7983000000.0,-0.0096961993,0.0136476269,0.01674138587055815,2.1885131586914444
7983011011.0,-0.0096315908,0.013692267,0.01674054111843263,2.183822523234775
7983022022.0,-0.0095746701,0.0137417183,0.01674840677080626,2.179344015549327
7983033033.0,-0.0094984987,0.0137929285,0.01674712972900174,2.1738640812757013
7983044044.0,-0.0094302814,0.0138369852,0.016744920624123753,2.1690165354168918
7983055055.0,-0.0093780917,0.0138659313,0.01673955360067671,2.1654663705830934
7983066066.0,-0.0093167256,0.0139060914,0.01673860071603506,2.161085422710422
7983077077.0,-0.0092533195,0.0139517255,0.01674140275474043,2.1564217283230254
7983088088.0,-0.0091736544,0.013987074,0.01672704917587425,2.151284632376447
7983099099.0,-0.0091272928,0.0140314335,0.016738835082581286,2.1475152142360963
7983110110.0,-0.0090912439,0.0140640881,0.01674662024809331,2.1446475271172476
7983121121.0,-0.0090011012,0.0140899643,0.016719656598983005,2.139279523291337
7983132132.0,-0.0089334408,0.0141537959,0.0167372728634614,2.133819664226778
7983143143.0,-0.0088806331,0.0141859282,0.01673637365597371,2.1301266786025983
7983154154.0,-0.0088041143,0.0142236146,0.016727929964487468,2.125053987512343
7983165165.0,-0.008747842,0.0142424411,0.016714420963465447,2.1215984933672334
7983176176.0,-0.0086750299,0.0142721766,0.016701831296821363,2.1169519054535675
7983187187.0,-0.0086345688,0.0142932694,0.016698902014890375,2.1142253243912483
7983198198.0,-0.0085632776,0.0143718997,0.016729651049604166,2.1081475317042635
7983209209.0,-0.0084831802,0.0143975607,0.01671089765440075,2.1032438872325594
7983220220.0,-0.0084386686,0.0144214129,0.016708928085694557,2.1002240510095396
7983231231.0,-0.0083962082,0.0144650149,0.01672521952606211,2.0967162785944478
7983242242.0,-0.0083229421,0.0145031179,0.016721596634928518,2.091782929177863
7983253253.0,-0.0082575675,0.0145140529,0.01669865720952001,2.0880614237425505
7983264264.0,-0.008168503,0.014563008,0.01669747415835919,2.0819753663034253
7983275275.0,-0.0081367168,0.0145993809,0.016713709431083426,2.0792520444287743
7983286286.0,-0.0080612741,0.014615714,0.01669141203868405,2.074827573662104
7983297297.0,-0.0080195061,0.0146535128,0.01670442801977072,2.0715452565340406
7983308308.0,-0.0079355203,0.01470298,0.01670778570942637,2.0657142508239006
7983319319.0,-0.0078498091,0.0147455209,0.016704786425416507,2.0599894102332823
7983330330.0,-0.007799919,0.0147663717,0.016699834418015105,2.056765619138692
7983341341.0,-0.0077507903,0.0147986549,0.01670553612201261,2.053262636540951
7983352352.0,-0.0076547399,0.0148351687,0.01669362972196615,2.0471508236528764
7983363363.0,-0.007614841,0.0148388289,0.01667862843817669,2.044924295179121
7983374374.0,-0.0075290708,0.0148939722,0.0166888380364178,2.0388432249677115
7983385385.0,-0.007468683,0.0149183944,0.016683516332849032,2.0349524831333756
7983396396.0,-0.0074341785,0.0149488802,0.016695389459482946,2.0322869871480704
7983407407.0,-0.0073519117,0.0149912015,0.0166969077394049,2.026746662475989
7983418418.0,-0.0072853138,0.0150088167,0.016683536072987323,2.022697707151063
7983429429.0,-0.0072066807,0.0150111368,0.016651440620560936,2.0183885819286176
7983440440.0,-0.0071496022,0.0150802847,0.016689271950906037,2.0135122115563533
7983451451.0,-0.0070811368,0.0150869814,0.016666118508646823,2.009628058724107
7983462462.0,-0.0070253915,0.0151358954,0.01668686475309288,2.0053584573014476
7983473473.0,-0.0069830319,0.0151222223,0.016656660583893607,2.0033973241499243
7983484484.0,-0.0068889823,0.0151961823,0.016684784494399276,1.9964213238492827
7983495495.0,-0.0068297105,0.0152225231,0.01668442852014548,1.9925338883584562
7983506507.0,-0.0067635008,0.0152248553,0.01665956668036533,1.9888505296623449
7983517518.0,-0.0067015155,0.0152609857,0.016667573144652604,1.9845718197341156
7983528529.0,-0.0066327852,0.015309746,0.016684788344292985,1.9796250713646648
7983539540.0,-0.0065760188,0.0153192957,0.016671078069578824,1.9762728851606683
7983550551.0,-0.0064750503,0.0153414853,0.016651950264087573,1.9701754079810485
7983561562.0,-0.0064282197,0.0153813722,0.016670591449207822,1.966656927465153
7983572573.0,-0.0063761785,0.0153709136,0.016640932580914064,1.9640138191714924
7983583584.0,-0.0062860146,0.0154322931,0.016663422513869135,1.9576044679953535
7983594595.0,-0.0062062392,0.015453823,0.016653469618159025,1.952680354740094
7983605606.0,-0.0061741292,0.0154541529,0.016641836233867675,1.9508824828809144
7983616617.0,-0.0060980766,0.0154805605,0.016638338006352314,1.9460489186910133
7983627628.0,-0.0060568201,0.0155059297,0.016646889366638624,1.94318449536362
7983638639.0,-0.0059825251,0.0155102332,0.016624016978170838,1.9389274674141315
7983649650.0,-0.0059189205,0.0155681784,0.01665538347140488,1.934112425011527
7983660661.0,-0.005826705,0.0155921994,0.016645334880571953,1.9284211613713578
7983671672.0,-0.0057854295,0.0156001594,0.01663839438782717,1.925929906595882
7983682683.0,-0.0056958609,0.0156378672,0.01664288802933507,1.9200960834562961
7983693694.0,-0.0056307513,0.0156512362,0.016633296570152358,1.9161429658747096
7983704705.0,-0.0055652571,0.0156816958,0.016639941999683713,1.911819705763626
7983715716.0,-0.0054953528,0.0156856176,0.01662039415567205,1.9077770489904506
7983726727.0,-0.0054246272,0.0157169248,0.0166267346592118,1.9031399713096124
7983737738.0,-0.0053531789,0.0157400483,0.016625451717825236,1.8986238123058854
7983748749.0,-0.0052861711,0.015757571,0.016620609156060322,1.8944674352066968
7983759760.0,-0.0052075729,0.0157883733,0.01662502772836687,1.8893959288065074
7983770771.0,-0.0051364131,0.0158144844,0.016627707489960692,1.8848398042291625
7983781782.0,-0.0050932683,0.0158075138,0.016607795594628907,1.8824986472882765
7983792793.0,-0.0050169006,0.0158518972,0.01662684385172508,1.8773082682774973
7983803804.0,-0.0049396092,0.0158634481,0.01661471410136564,1.872663314558774
7983814815.0,-0.0048694547,0.0158865991,0.016616125301630126,1.8682179074090226
7983825826.0,-0.0048155131,0.0159116845,0.016624405855362526,1.8646734283060618
7983836837.0,-0.0047357743,0.0159217652,0.016611145815520117,1.8599031030589126
7983847848.0,-0.0046881708,0.0159224365,0.01659828092142391,1.8571426156047528
7983858859.0,-0.0046036695,0.0159545599,0.016605473629737823,1.8517146301763068
7983869870.0,-0.004521977,0.0159710312,0.016598858803541356,1.8467108479556864
7983880881.0,-0.004439488,0.015998195,0.016602749680705572,1.8414846340638529
7983891892.0,-0.0043830304,0.0160082917,0.016597480490713433,1.8380442485892141
7983902903.0,-0.0043204568,0.0159934908,0.01656677684193129,1.8346371986792862
7983913914.0,-0.0042362848,0.0160331411,0.01658335679044566,1.8291135793975142
7983924925.0,-0.0042110196,0.0160673395,0.016609999538827337,1.827117006715811
7983935936.0,-0.0041172263,0.0160870524,0.016605565552722298,1.8213522397516064
7983946947.0,-0.0040516268,0.0161128783,0.01661446739552879,1.8171417716736267
7983957958.0,-0.0039728472,0.0161079355,0.01659063292785143,1.8126093254661628
7983968969.0,-0.0039042666,0.0161222632,0.01658826899872165,1.808388484683014
7983979980.0,-0.0038269823,0.0161609583,0.016607900731243914,1.8033173469785029
7983990991.0,-0.0037662874,0.0161351417,0.016568878008437316,1.8001117800064395
7984002002.0,-0.0036720203,0.0161645227,0.01657635446056905,1.7941708718346738
7984013013.0,-0.0036298623,0.0161896388,0.01659157330669478,1.791357731501311
7984024024.0,-0.0035515131,0.0161851113,0.016570186272123175,1.7868037139388144
7984035035.0,-0.0034997964,0.0162134586,0.01658688682711035,1.7833919414703456
7984046046.0,-0.0034176489,0.0162282502,0.0165842222777395,1.7783618941939183
7984057057.0,-0.0033548631,0.0162399515,0.01658285654349376,1.7745115517600565
7984068068.0,-0.0032863988,0.0162317159,0.016561069353485426,1.770563581546174
7984079079.0,-0.0032053872,0.0162915632,0.016603901306666398,1.7650662508522468
7984090090.0,-0.0031187003,0.0162732346,0.01656938308772711,1.7601464412627175
7984101101.0,-0.0030744345,0.0162916179,0.01657917251536972,1.757315491375295
7984112112.0,-0.0029937651,0.0162687543,0.016541916332388655,1.7527796998017942
7984123123.0,-0.0029409824,0.0163054905,0.01656859673969706,1.749245318306972
7984134134.0,-0.0028503024,0.0163139923,0.016561116162140312,1.7437656410808953
7984145145.0,-0.0027793807,0.016325514,0.0165604155877722,1.7394271862774204
7984156156.0,-0.002715408,0.016357691,0.01658154080470042,1.7352981473219105
7984167167.0,-0.0026352796,0.016349552,0.016560572126918808,1.7306054286098507
7984178178.0,-0.0025810347,0.0163359133,0.016538555059850937,1.7274985396639357
7984189189.0,-0.0024924458,0.0163557671,0.016544588344693866,1.722022288687951
7984200200.0,-0.0023971093,0.0163704399,0.01654501240602915,1.7161921665078448
7984211211.0,-0.0023406293,0.0163971062,0.01656332204764784,1.7125849365601533
7984222222.0,-0.0022630589,0.0163835098,0.016539069772861025,1.7080580277027995
7984233233.0,-0.0022100878,0.0163971866,0.01654545908939756,1.7047734779334596
7984244244.0,-0.0021296045,0.016409161,0.016546775518219287,1.6998563944961256
7984255255.0,-0.0020548578,0.016412112,0.016540249722382213,1.6953519216253357
7984266266.0,-0.0019822074,0.0164022406,0.016521581125210235,1.6910628992302037
7984277277.0,-0.001917677,0.0164243354,0.016535908756642986,1.6870283267433666
7984288288.0,-0.0018320188,0.0164304872,0.016532307839890875,1.6818388487692824
7984299299.0,-0.0017721341,0.0164375148,0.01653276601384662,1.6781918625278944
7984310310.0,-0.0016974012,0.0164569121,0.016544217319078222,1.6735750355135492
7984321321.0,-0.001648406,0.0164411297,0.01652355858019265,1.6707235025657468
7984332332.0,-0.0015741396,0.0164408709,0.016516057381553113,1.6662508646031744
7984343343.0,-0.0015010975,0.0164436098,0.016511983435043846,1.6618315972311288
7984354354.0,-0.001428458,0.0164455645,0.01650748569532696,1.6574386420402316
7984365365.0,-0.0013453952,0.0164384777,0.016493442252531167,1.6524585831330625
7984376376.0,-0.0012669733,0.0164741781,0.01652282558805946,1.6475518546105887
7984387387.0,-0.0011876326,0.01646721,0.016509981113759117,1.6427927285246082
7984398398.0,-0.0011479242,0.016472494,0.016512443445746653,1.6403711807878851
7984409409.0,-0.0010537264,0.0164762993,0.016509959962072513,1.6346634168857532
7984420420.0,-0.0009787115,0.016459557,0.016488629198222672,1.630187990264668
7984431431.0,-0.000917325,0.0164966257,0.016522110780451918,1.626345944893646
7984442442.0,-0.0008480015,0.0164826496,0.01650444922984049,1.6221991359298022
7984453453.0,-0.0007466894,0.0164680516,0.016484970990582146,1.6161069895100135
7984464464.0,-0.0007150301,0.0165020783,0.016517562055679915,1.6140989405375519
7984475475.0,-0.0006159809,0.016470999,0.016482513173881157,1.6081768141429051
7984486486.0,-0.0005660371,0.0164499656,0.01645970128039266,1.6051923779591766
7984497497.0,-0.0004706456,0.0164754941,0.01648221505502019,1.5993549629129438
7984508509.0,-0.0004090923,0.0164834978,0.01648857350508297,1.5956095274172344
7984519520.0,-0.0003423514,0.0164633809,0.01646694006607077,1.591588050457431
7984530531.0,-0.0002664026,0.0164709506,0.016473104868631388,1.5869690043597207
7984541542.0,-0.0002111947,0.0164665348,0.016467889103370815,1.5836213153740502
7984552553.0,-0.0001327377,0.0164686421,0.016469177026035446,1.5788561792656615
7984563564.0,-5.5388e-05,0.016463165,0.016463258172298975,1.5741606732631552
7984574575.0,1.46865e-05,0.0164638515,0.016463858050509744,1.5699042818135365
7984585586.0,9.26712e-05,0.0164742129,0.016474473546242256,1.5651711583507133
7984596597.0,0.0001689645,0.016465606,0.016466472905558624,1.5605350239540885
7984607608.0,0.0002387563,0.0164348963,0.016436630462553555,1.5562699494065224
7984618619.0,0.0003108053,0.0164634539,0.016466387407441056,1.5519200699446085
7984629630.0,0.0003695008,0.016432582,0.016436735747341218,1.5483142516133384
7984640641.0,0.0004410195,0.0164379672,0.016443882262642727,1.5439734402906733
7984651652.0,0.0005361044,0.0164436198,0.016452356671755305,1.5382052926579417
7984662663.0,0.0005789918,0.0164311239,0.016441321848367864,1.5355733961711477
7984673674.0,0.0006897841,0.0164144353,0.016428922311658146,1.5287980198564795
7984684685.0,0.0007657087,0.0163952194,0.016413090171792516,1.524127069672558
7984695696.0,0.0008145136,0.0164114101,0.01643161020335399,1.5212060841691444
7984706707.0,0.0008687527,0.0164041431,0.016427131280264212,1.5178864086080914
7984717718.0,0.0009644105,0.0163998529,0.016428185010954457,1.5120579274660924
7984728729.0,0.0010076859,0.0163730117,0.016403991678899246,1.5093283159034592
7984739740.0,0.001107819,0.0163906135,0.016428008821617525,1.5033103423522716
7984750751.0,0.0011870727,0.0163778792,0.016420842508375687,1.4984426052774147
7984761762.0,0.0012527553,0.0163608769,0.016408768655162147,1.4943752653803235
7984772773.0,0.0013083687,0.0163956625,0.016447783360351204,1.4911653855599112
7984783784.0,0.0013794025,0.0163422297,0.016400342155716393,1.4865886899424816
7984794795.0,0.0014445209,0.0163175865,0.01638140011767978,1.4825010941597916
7984805806.0,0.0015260036,0.016321656,0.01639283811820116,1.4775716999520283
7984816817.0,0.0015719156,0.0163285014,0.016403989655669908,1.4748238648524281
7984827828.0,0.0016625556,0.0163036209,0.01638817090385648,1.469172986357139
7984838839.0,0.0017624751,0.0162911777,0.016386237802836174,1.4630296010986505
7984849850.0,0.0018175262,0.0163042627,0.016405254758104115,1.4597791528953932
7984860861.0,0.0018878141,0.0162857828,0.016394833438767673,1.4553934537373758
7984871872.0,0.001943741,0.0162657666,0.016381492366715447,1.4518614297279824
7984882883.0,0.002025075,0.0162539785,0.016379644252366633,1.4468455405544054
7984893894.0,0.0020989383,0.0162240363,0.016359244965796087,1.4421387974703723
7984904905.0,0.0021737442,0.0162306345,0.016375550681415996,1.4376600895462313
7984915916.0,0.0022347421,0.0161967987,0.016350240376882357,1.433687686665633
7984926927.0,0.0023146143,0.0162101791,0.016374594523585653,1.428967320218734
7984937938.0,0.0023622731,0.0161919762,0.0163633867967591,1.4259267887372864
7984948949.0,0.0024565798,0.0161623557,0.016347982324650664,1.4199569078354846
7984959960.0,0.0025306324,0.0161897386,0.01638632772405885,1.4157401495475466
7984970971.0,0.0026127945,0.0161669662,0.016376736280809212,1.4105685674388846
7984981982.0,0.0026527649,0.0161281723,0.016344880034835352,1.4077757800654016
7984992993.0,0.0027513053,0.0161211454,0.016354235227052018,1.401760520953132
7985004004.0,0.00279848,0.0160755781,0.01631734358158826,1.3984408436071691
7985015015.0,0.0028911064,0.0160736453,0.01633158196398417,1.3928329382942781
7985026026.0,0.0029400259,0.0160507368,0.01631777877394914,1.3896338291038894
7985037037.0,0.0030081156,0.0160590121,0.016338317817049273,1.38562579138904
7985048048.0,0.0030792576,0.0160181155,0.016311402500658795,1.3808772265654896
7985059059.0,0.0031634682,0.0159926773,0.016302553734748017,1.3755100256269495
7985070070.0,0.0032501009,0.0159870167,0.016314038703713427,1.3702332928242535
7985081081.0,0.0033272991,0.0159712412,0.016314149219908414,1.3654035069501647
7985092092.0,0.0033649333,0.0159558842,0.01630683956863679,1.362952063716366
7985103103.0,0.0034411764,0.0159299129,0.016297356227851906,1.3580456407061472
7985114114.0,0.0035021942,0.015927165,0.016307665349513972,1.3543527494263536
7985125125.0,0.0035912097,0.015913991,0.016314162456511676,1.348850278462809
7985136136.0,0.0036332682,0.0158963899,0.016306313184345295,1.346096657769415
7985147147.0,0.0037184905,0.0158639666,0.01629394390209153,1.3405544319445208
7985158158.0,0.0037970063,0.0158420202,0.016290698599490686,1.3355544832067456
7985169169.0,0.0038493253,0.0158294446,0.016290752640982835,1.3322514298058898
7985180180.0,0.0039183341,0.0157937938,0.016272592439932284,1.3276130276582605
7985191191.0,0.0040166648,0.0157804636,0.01628363066230882,1.321554926420799
7985202202.0,0.0040413077,0.0157480976,0.01625837464032629,1.3195950050977276
7985213213.0,0.004148221,0.0157337063,0.016271362923845706,1.3130106911994117
7985224224.0,0.0042006059,0.0157011916,0.016253384496375683,1.3093841624795803
7985235235.0,0.0042766679,0.0156967601,0.016268932539163176,1.3047972955674487
7985246246.0,0.0043487511,0.0156631881,0.01625567893339841,1.2999759930377512
7985257257.0,0.0044032596,0.0156411215,0.01624910387937607,1.296380398615412
7985268268.0,0.0044626848,0.0156108915,0.016236239991110114,1.292352756045536
7985279279.0,0.0045409041,0.015565656,0.01621448293211143,1.2869476826375272
7985290290.0,0.0046209894,0.0155556328,0.016227484550704344,1.282037001270155
7985301301.0,0.0046720469,0.0155487816,0.016235536070000837,1.2789022316385197
7985312312.0,0.0047493187,0.0155107266,0.016221549487460105,1.273665087363594
7985323323.0,0.0048182607,0.0154985067,0.016230198584832822,1.269383012877619
7985334334.0,0.0048559184,0.0154800022,0.01622376071135985,1.266827903159516
7985345345.0,0.0049479556,0.0154321197,0.016205942831402913,1.2605246470061937
7985356356.0,0.0050288838,0.0153945374,0.016195105866708658,1.2550576311200026
7985367367.0,0.0051110879,0.0153934804,0.016219816840726365,1.2502197805315884
7985378378.0,0.0051317762,0.0153327915,0.016168785425917393,1.2478226766717715
7985389389.0,0.0052426642,0.0153091177,0.016181922403299766,1.240860011160457
7985400400.0,0.0052878855,0.015316076,0.01620320700043316,1.238358785901027
7985411411.0,0.0053502383,0.0152507925,0.016162045716580656,1.2333937932664314
7985422422.0,0.0054350582,0.0152573261,0.016196476695847416,1.2285856491042348
7985433433.0,0.0054756328,0.0151930204,0.016149626108218483,1.2248827080595217
7985444444.0,0.0055586146,0.0152097851,0.01619369504033947,1.2204129112771216
7985455455.0,0.0056377697,0.0151850371,0.01619783315504313,1.2152985828976162
7985466466.0,0.0056961968,0.0151302025,0.016166931857199637,1.210730018160066
7985477477.0,0.0057485835,0.0151147343,0.016171005077485714,1.2073611840445473
7985488488.0,0.0058123912,0.0150740782,0.016155857298254174,1.2027750556805072
7985499499.0,0.0058962921,0.015040948,0.01615538230024986,1.1971916098427005
7985510511.0,0.0059434622,0.0150228879,0.016155862829907764,1.1940653300292743
7985521522.0,0.0060231926,0.0149731788,0.01613923580822414,1.18833849718047
7985532533.0,0.006076763,0.0149310964,0.01612031911173789,1.1842811732408847
7985543544.0,0.0061832943,0.0149063266,0.01613789642754842,1.177588205989848
7985554555.0,0.0062259284,0.0148728826,0.01612342461375093,1.1743510063261582
7985565566.0,0.0062701345,0.0148560619,0.016125047653409334,1.1714193751167907
7985576577.0,0.0063589063,0.0147903769,0.016099408007011727,1.164752806736915
7985587588.0,0.0064055567,0.0147859768,0.016113853250140177,1.161985294371764
7985598599.0,0.0064905279,0.0147309036,0.016097405793890247,1.1557816652452406
7985609610.0,0.006534864,0.0147085665,0.01609491770663703,1.152701258162264
7985620621.0,0.0065887309,0.0146851979,0.016095540134918717,1.1490533358495603
7985631632.0,0.0066666126,0.0146602098,0.016104827690431676,1.144005984985703
7985642643.0,0.0067269255,0.0146254883,0.016098336395292127,1.1397026833492725
7985653654.0,0.0067926849,0.0145514937,0.01605884606850155,1.1340569953415562
7985664665.0,0.0068659265,0.014552823,0.016091165401322903,1.1299675006785044
7985675676.0,0.0069381566,0.0144955992,0.0160704826677099,1.1243832237753768
7985686687.0,0.0069898105,0.0144759705,0.016075172557169656,1.1209576706058961
7985697698.0,0.0070643739,0.0144250918,0.016062025153679358,1.1153998921194546
7985708709.0,0.0071163033,0.0143996172,0.0160620904045559,1.1117987775435352
7985719720.0,0.0071804789,0.0143465038,0.016043112183013606,1.10674580186291
7985730731.0,0.0072392171,0.0143445053,0.016067703523610973,1.1034210560573894
7985741742.0,0.0072787056,0.0142647614,0.01601446137122324,1.0989762027692822
7985752753.0,0.007372791,0.0142450884,0.016039968536549425,1.0931939019466985
7985763764.0,0.0074371383,0.0142056863,0.01603472947533991,1.0885004454150193
7985774775.0,0.0074802886,0.0141460519,0.01600204680335561,1.0843829891541137
