frequency,Re(S21),Im(S21),Amplitude,phase
7480000000.0,0.0034997135,-0.0160402544,0.01641760505673107,-1.3559796391324566
7480013013.0,0.0034187764,-0.0160547613,0.016414730959512396,-1.3609854814601714
7480026026.0,0.0033369871,-0.0161019996,0.016444144064802112,-1.366448501369807
7480039039.0,0.0032590844,-0.0161158309,0.016442069113214376,-1.3712586558073863
7480052052.0,0.0031784715,-0.0161347601,0.016444852220706158,-1.376291588135396
7480065065.0,0.0030748279,-0.0161416687,0.016431921221670278,-1.382561410035683
7480078078.0,0.0030049419,-0.0161465931,0.016423828559728185,-1.3867975249730473
7480091091.0,0.0029054694,-0.0161607624,0.016419865827210344,-1.3929112454661388
7480104104.0,0.0028178707,-0.0161790423,0.016422600434374206,-1.3983580957177093
7480117117.0,0.0027511838,-0.0161888859,0.016420993848869237,-1.4024618114778882
7480130130.0,0.0026779211,-0.0162107027,0.01643040302139946,-1.407080238335446
7480143143.0,0.0025736654,-0.0161917366,0.01639500191262376,-1.4131656935369963
7480156156.0,0.0024977713,-0.0162046378,0.01639601011515584,-1.4178606565132705
7480169169.0,0.0024089094,-0.0162248622,0.01640271312638239,-1.4234027987121043
7480182182.0,0.0023140396,-0.0162210932,0.016385317936294507,-1.4290961966384188
7480195195.0,0.0022484597,-0.0162561714,0.01641093171056117,-1.4333541385071211
7480208208.0,0.0021581088,-0.0162483958,0.01639108903233995,-1.43874938449253
7480221221.0,0.002081916,-0.0162572209,0.01638998491831072,-1.443428566621252
7480234234.0,0.001985351,-0.0162640192,0.016384747148832344,-1.449327156192456
7480247247.0,0.0019023405,-0.0162748405,0.01638564410325027,-1.454435923388425
7480260260.0,0.0018279636,-0.0162582988,0.016360737477051773,-1.4588338742496212
7480273273.0,0.0017446964,-0.016288392,0.016381565232719275,-1.4640903019481297
7480286286.0,0.0016690542,-0.0162624034,0.016347828793661534,-1.4685217361261795
7480299299.0,0.0015685809,-0.0162848021,0.016360171926847505,-1.4747708006246565
7480312312.0,0.0014938936,-0.0163123711,0.01638063396185374,-1.4794706655468384
7480325325.0,0.0014131895,-0.0162857103,0.016346909938530777,-1.4842383339355252
7480338338.0,0.0013280828,-0.0163017595,0.016355768606809526,-1.4895071739646775
7480351351.0,0.0012459923,-0.0162871179,0.016334708638361433,-1.4944433415851603
7480364364.0,0.0011467733,-0.0162921513,0.016332461020424464,-1.5005241448284314
7480377377.0,0.0010569824,-0.0162898295,0.016324085179053066,-1.5060011263398703
7480390390.0,0.0009948084,-0.0163000778,0.016330406609719288,-1.5098410343797706
7480403403.0,0.0009006978,-0.0162854354,0.01631032380716269,-1.515545663208804
7480416416.0,0.0008319961,-0.0162970342,0.016318257910279053,-1.5197886154629463
7480429429.0,0.0007301881,-0.016278509,0.016294877413606478,-1.5259704177572213
7480442442.0,0.0006389351,-0.0162973558,0.01630987566273286,-1.5316115622462885
7480455455.0,0.0005486964,-0.0163162283,0.01632545171433531,-1.5371801202994697
7480468468.0,0.00048655,-0.0162741273,0.01628139890424362,-1.5409080813079155
7480481481.0,0.0004044573,-0.0163035567,0.01630857280014527,-1.5459934959789523
7480494494.0,0.0003198488,-0.016300318,0.016303455773423788,-1.5511766016605832
7480507508.0,0.0002237328,-0.0162891459,0.016290682322029446,-1.5570621056324725
7480520521.0,0.0001443542,-0.0162751615,0.016275801669538122,-1.5619269576805968
7480533534.0,7.07765e-05,-0.0162874046,0.01628755837800907,-1.5664508797301953
7480546547.0,-2.78161e-05,-0.0162467636,0.016246787411968687,-1.572508426109312
7480559560.0,-9.86718e-05,-0.0162575436,0.016257843031288504,-1.576865545545636
7480572573.0,-0.0001912928,-0.0162587325,0.01625985779279413,-1.5825613259407108
7480585586.0,-0.0002741676,-0.0162515879,0.016253900367121616,-1.5876649304301842
7480598599.0,-0.0003477974,-0.0162417379,0.01624546130596922,-1.5922068590797605
7480611612.0,-0.0004424196,-0.0162442798,0.016250303422494984,-1.5980250044143551
7480624625.0,-0.00051866,-0.0162403526,0.016248632581479797,-1.6027219743829475
7480637638.0,-0.000595925,-0.0162258994,0.016236838914780963,-1.6075066047838353
7480650651.0,-0.0006867651,-0.0162073637,0.01622190754525052,-1.6131446395807554
7480663664.0,-0.0007736759,-0.0162169705,0.016235415196295754,-1.618467976038912
7480676677.0,-0.0008611649,-0.0161972792,0.01622015593228822,-1.6239135712501944
7480689690.0,-0.0009430129,-0.0161835266,0.01621097796378966,-1.629000437387657
7480702703.0,-0.0010088856,-0.0162025061,0.016233885981933732,-1.6329832953512562
7480715716.0,-0.0010964959,-0.0161883243,0.016225416694208114,-1.6384267759815152
7480728729.0,-0.0011886677,-0.0161771407,0.01622075251425222,-1.6441427481172302
7480741742.0,-0.0012809016,-0.0161359018,0.01618666228127732,-1.6500123013511394
7480754755.0,-0.0013241024,-0.0161436532,0.0161978636186244,-1.6526331396022922
7480767768.0,-0.0014252277,-0.0161413802,0.016204179360825383,-1.6588644529106906
7480780781.0,-0.0015082611,-0.0161242788,0.016194666355498117,-1.664064691348107
7480793794.0,-0.0015954269,-0.0160903784,0.016169281494501548,-1.6696273791068585
7480806807.0,-0.0016830031,-0.0161004764,0.016188200633225628,-1.6749493343342994
7480819820.0,-0.0017751127,-0.0160729715,0.016170696890904657,-1.6807914161871784
7480832833.0,-0.0018340784,-0.0160627762,0.016167146403389593,-1.6844858627024375
7480845846.0,-0.0019222122,-0.0160658227,0.01618040663177734,-1.6898763111448232
7480858859.0,-0.0020104922,-0.0160182695,0.016143947369243097,-1.6956558525764138
7480871872.0,-0.0021058647,-0.0160486233,0.01618619708146447,-1.7012686840980362
7480884885.0,-0.0021773005,-0.0159849439,0.016132546883658744,-1.7061726711584628
7480897898.0,-0.0022554631,-0.0160018927,0.01616006447319363,-1.7108236591689265
7480910911.0,-0.0023392953,-0.016005291,0.016175340568138994,-1.715926347557834
7480923924.0,-0.0024145179,-0.0159718629,0.016153337153226786,-1.7208334771851195
7480936937.0,-0.0024967178,-0.015947792,0.016142046631332126,-1.7260914729577577
7480949950.0,-0.0025836258,-0.0159130579,0.016121430891926997,-1.7317507107981152
7480962963.0,-0.0026651637,-0.0159077096,0.016129424114509787,-1.7367937594196763
7480975976.0,-0.0027532869,-0.0158732939,0.01611030874904292,-1.7425415753093796
7480988989.0,-0.0028282915,-0.0158789368,0.01612885199595329,-1.7470637196677719
7481002002.0,-0.0028988884,-0.0158596728,0.016122430811720493,-1.7515842113169058
7481015015.0,-0.0029778658,-0.0158412591,0.01611872124568641,-1.7566095146037979
7481028028.0,-0.0030729497,-0.0158006784,0.01609672195693759,-1.7628806630704752
7481041041.0,-0.0031229188,-0.015788475,0.01609436437567568,-1.766073076953811
7481054054.0,-0.0032242478,-0.0157602953,0.016086723775182037,-1.7725922302372714
7481067067.0,-0.0033312557,-0.0157443522,0.016092914302152588,-1.7793052959136644
7481080080.0,-0.0034120113,-0.0157175829,0.016083663554355396,-1.7845620682613577
7481093093.0,-0.0034670333,-0.0156991266,0.016077403269997813,-1.788150030291349
7481106106.0,-0.0035510506,-0.0156844292,0.016081395452309882,-1.793448721020836
7481119119.0,-0.0036331178,-0.0156639616,0.016079777298052093,-1.7987075859397257
7481132132.0,-0.0037276734,-0.0156282117,0.016066628455188862,-1.8049434016872046
7481145145.0,-0.003782485,-0.0156035701,0.016055484814879898,-1.8086202291822093
7481158158.0,-0.0038521133,-0.0155686919,0.01603817147785752,-1.8133517940264614
7481171171.0,-0.0039326989,-0.0155558165,0.01604523442084077,-1.8184199319497316
7481184184.0,-0.0040283562,-0.0155237217,0.01603787981913848,-1.8246929957540696
7481197197.0,-0.0040987705,-0.0155064465,0.016039008780751773,-1.8292129932366563
7481210210.0,-0.0041829625,-0.0154666126,0.01602227451377878,-1.8349285693280448
7481223223.0,-0.0042477235,-0.0154539977,0.016027139477899903,-1.839034643829517
7481236236.0,-0.0043179289,-0.0154221918,0.016015258658586894,-1.8437879052125319
7481249249.0,-0.0044185915,-0.0154100812,0.01603104966726963,-1.850038323100892
7481262262.0,-0.0045044873,-0.0153836695,0.016029588052133205,-1.8556435105466909
7481275275.0,-0.0045601759,-0.0153239375,0.015988066322818625,-1.8600361723783536
7481288288.0,-0.0046424942,-0.0153110012,0.01599935967916951,-1.865198190455658
7481301301.0,-0.0047167607,-0.0152652158,0.015977316574495047,-1.8704779929354842
7481314314.0,-0.0047975772,-0.0152515225,0.015988298394699983,-1.8755602962734512
7481327327.0,-0.0049021171,-0.0152292486,0.015998773858727874,-1.882211239813829
7481340340.0,-0.0049477199,-0.0151736934,0.015959978183132318,-1.8859977067785205
7481353353.0,-0.0050419072,-0.0151642174,0.01598043546239822,-1.891785109583935
7481366366.0,-0.0051062347,-0.0151346311,0.015972811003219543,-1.8961911440833188
7481379379.0,-0.0051733612,-0.0150908242,0.01595295085998108,-1.9010559890296248
7481392392.0,-0.0052797591,-0.0150466431,0.015946075527627807,-1.9082663141608267
7481405405.0,-0.0053315664,-0.0150291902,0.01594685418336121,-1.9116941943557404
7481418418.0,-0.0054095914,-0.0150056876,0.015950998071084695,-1.9167968906232409
7481431431.0,-0.0054825982,-0.0149692049,0.015941642900304448,-1.9218812594160806
7481444444.0,-0.0055600132,-0.0149333409,0.015934817765502908,-1.9272172055962362
7481457457.0,-0.0056354607,-0.0149037511,0.015933618991051456,-1.9323027194422777
7481470470.0,-0.0057070205,-0.0148673852,0.01592511305054376,-1.9373134780916828
7481483483.0,-0.0057887025,-0.0148147367,0.01590551791435391,-1.9432940930816622
7481496496.0,-0.0058857645,-0.0147906614,0.015918727599871486,-1.9495237545823612
7481509510.0,-0.0059527245,-0.014757287,0.015912650582893765,-1.9542090211354908
7481522523.0,-0.0060140626,-0.014728544,0.015909084113067438,-1.9584605010068932
7481535536.0,-0.0060824251,-0.0146946231,0.015903705327632415,-1.9632463629249457
7481548549.0,-0.0061514393,-0.0146535112,0.01589231247962706,-1.9682482213399912
7481561562.0,-0.006239932,-0.0146079267,0.015884844155269414,-1.974495670887092
7481574575.0,-0.0063267608,-0.0145654161,0.015880152656273676,-1.9805755069527293
7481587588.0,-0.0063858503,-0.0145315393,0.015872766566715917,-1.98484031882709
7481600601.0,-0.0064597514,-0.0144827241,0.01585804797276521,-1.9903451627991253
7481613614.0,-0.0065308737,-0.0144644672,0.01587051110283558,-1.994906530338612
7481626627.0,-0.0066105592,-0.0144134363,0.015857069051715147,-2.0008109034391772
7481639640.0,-0.0066910632,-0.0143676326,0.015849264755028132,-2.0066326399177448
7481652653.0,-0.00673079,-0.0143438104,0.01584450790700829,-2.0095402772634383
7481665666.0,-0.0068280849,-0.0143011964,0.0158476169146336,-2.0162405303069275
7481678679.0,-0.0068975545,-0.01425761,0.015838424826748722,-2.0213843912447245
7481691692.0,-0.0069599403,-0.014221246,0.015833022666947714,-2.0259315794013473
7481704705.0,-0.0070467441,-0.0141620277,0.015818332117718735,-2.032506195762003
7481717718.0,-0.0070979812,-0.0141360975,0.01581804632832575,-2.0361364589682704
7481730731.0,-0.0071807327,-0.0140895521,0.015813867347599184,-2.042133675461265
7481743744.0,-0.0072506732,-0.0140711822,0.015829416614606965,-2.046597258880531
7481756757.0,-0.0073235304,-0.0140003076,0.015800085772372942,-2.0527509870971117
7481769770.0,-0.0073887691,-0.0139663497,0.015800406094648483,-2.0574057764014464
7481782783.0,-0.0074644989,-0.0139176053,0.015792988352895387,-2.063087680898257
7481795796.0,-0.0075347108,-0.0138812319,0.01579431751932366,-2.0680936886408054
7481808809.0,-0.0075843124,-0.0138343635,0.01577692644436571,-2.072274000060435
7481821822.0,-0.0076565761,-0.0137780693,0.01576256169569825,-2.078010913027126
7481834835.0,-0.0077284596,-0.0137390006,0.015763541013225187,-2.083200813015531
7481847848.0,-0.0078046303,-0.0137021416,0.01576898660491944,-2.0885568568319925
7481860861.0,-0.0078711153,-0.0136528234,0.015759252611005435,-2.093771602347679
7481873874.0,-0.0079468547,-0.013621645,0.015770279392862293,-2.098919803071148
7481886887.0,-0.0079984163,-0.0135518852,0.0157362084309431,-2.1039839063788817
7481899900.0,-0.0080563749,-0.0135205988,0.015738861726310182,-2.108165651959208
7481912913.0,-0.0081419361,-0.0134721116,0.01574131234742954,-2.114411777761321
7481925926.0,-0.0081996857,-0.0134170055,0.0157242132447323,-2.119367682944562
7481938939.0,-0.0082850936,-0.0133736893,0.015732080010402168,-2.125435835528777
7481951952.0,-0.0083452531,-0.0133344331,0.015730554834507117,-2.130001155893832
7481964965.0,-0.0084026989,-0.0132615743,0.01569951278602243,-2.135564923325278
7481977978.0,-0.0084717321,-0.013220553,0.01570201472423139,-2.1406769418293425
7481990991.0,-0.0085481364,-0.0131768507,0.015706687438256848,-2.1462738574602414
7482004004.0,-0.008597407,-0.0131241912,0.015689480608924132,-2.1507350700179235
7482017017.0,-0.0086716092,-0.0130645256,0.015680517697786,-2.156778592185967
7482030030.0,-0.0087222088,-0.0130319817,0.015681500992568674,-2.1606146754539775
7482043043.0,-0.0088041318,-0.012956427,0.01566466524883632,-2.1676436557503056
7482056056.0,-0.0088675852,-0.0129037085,0.015656939686037985,-2.172888180307812
7482069069.0,-0.0089220924,-0.0128539837,0.01564700066319432,-2.1775590461643706
7482082082.0,-0.0089870125,-0.0128209865,0.015657077904524155,-2.1821670178389723
7482095095.0,-0.009038906,-0.0127487599,0.015627946143517514,-2.1875388942755714
7482108108.0,-0.0091061606,-0.012701732,0.01562869657626049,-2.1927897792884936
7482121121.0,-0.0091873804,-0.0126582811,0.015640973084208074,-2.1986286938436357
7482134134.0,-0.0092345186,-0.01261051,0.015630140633847347,-2.202864716142823
7482147147.0,-0.0093172876,-0.0125583685,0.015637278139206515,-2.2091052669717546
7482160160.0,-0.0093752869,-0.0124656938,0.01559774106634259,-2.2156318112575812
7482173173.0,-0.0094265227,-0.0124286211,0.015599036914533555,-2.219685326333817
7482186186.0,-0.0094938201,-0.0123801174,0.015601279656776452,-2.2250009696690913
7482199199.0,-0.0095625211,-0.0123358897,0.015608202474292525,-2.230218138682361
7482212212.0,-0.009619835,-0.0122795949,0.015599028057392902,-2.235333057685296
7482225225.0,-0.0096677621,-0.0122400878,0.01559760793756226,-2.239313944502939
7482238238.0,-0.0097300601,-0.0121553696,0.01557006999541801,-2.2458263657178574
7482251251.0,-0.0097730697,-0.0121093648,0.015561157001345917,-2.249831633958073
7482264264.0,-0.0098420671,-0.0120524382,0.015560448302209087,-2.255579871132881
7482277277.0,-0.009893415,-0.0119870473,0.01554248896845876,-2.2607999029247727
7482290290.0,-0.009965735,-0.0119318216,0.01554619698783119,-2.2666489365824765
7482303303.0,-0.0100209464,-0.0118673813,0.015532356732681059,-2.2720366816138293
7482316316.0,-0.0100759279,-0.0118133814,0.015526760871085262,-2.2769860340020815
7482329329.0,-0.0101427886,-0.0117741647,0.01554049918654533,-2.281897064724257
7482342342.0,-0.0101875562,-0.011689831,0.015506077845048998,-2.28763418970031
7482355355.0,-0.0102431423,-0.0116644909,0.015523604998009711,-2.291406143929683
7482368368.0,-0.0103036872,-0.0116101167,0.015522911444154502,-2.29664823126782
7482381381.0,-0.0103724616,-0.0115154734,0.015498196258583839,-2.30402079345125
7482394394.0,-0.0104187523,-0.0114632778,0.015490549938873317,-2.3084962996823895
7482407407.0,-0.0104905413,-0.0114092757,0.015499129935761432,-2.3142673821001596
7482420420.0,-0.0105327834,-0.0113522896,0.015485929268648483,-2.318766080150711
7482433433.0,-0.0105969683,-0.011289697,0.015483959296737184,-2.324554333429207
7482446446.0,-0.0106350983,-0.0112199536,0.0154593879127479,-2.329440229831688
7482459459.0,-0.0106950219,-0.011171595,0.0154657049074882,-2.3344033889040525
7482472472.0,-0.010753498,-0.0111112019,0.015462746421595603,-2.3398360679812047
7482485485.0,-0.0108054958,-0.0110428544,0.015450028245392206,-2.3453310034560517
7482498498.0,-0.0108319642,-0.0109781023,0.01542239211469307,-2.349494101955247
7482511512.0,-0.0109115187,-0.010911335,0.015431087836658653,-2.3562029079731963
7482524525.0,-0.0109739668,-0.0108581542,0.015437858010698241,-2.3614991288807703
7482537538.0,-0.0110251507,-0.0107900856,0.015426597006891632,-2.366969344971546
7482550551.0,-0.0110686643,-0.0107501891,0.015429902626778087,-2.370789784440894
7482563564.0,-0.0111091689,-0.0106637696,0.015399013466148127,-2.3766481917795215
7482576577.0,-0.0111780364,-0.0106032474,0.015407055305454437,-2.3825774911219137
7482589590.0,-0.0112178897,-0.0105390821,0.015391988202695144,-2.3873839168154167
7482602603.0,-0.0112621305,-0.0104696664,0.01537691444751902,-2.3926439897711855
7482615616.0,-0.0113079853,-0.0104231542,0.015378968594219632,-2.396889208551282
7482628629.0,-0.01137059,-0.0103377319,0.015367466212241289,-2.403737537669711
7482641642.0,-0.0114129908,-0.0102843238,0.015363062032815303,-2.408166387721322
7482654655.0,-0.0114686164,-0.0102101163,0.015354987365344025,-2.4141816993772722
7482667668.0,-0.0114953754,-0.0101591788,0.015341204955194837,-2.4178214618749765
7482680681.0,-0.0115600599,-0.0100704499,0.015331306078739606,-2.424952085062831
7482693694.0,-0.0116099381,-0.0100207848,0.015336453002364747,-2.429530152619269
7482706707.0,-0.0116626693,-0.0099525063,0.015332000419146296,-2.435148645954315
7482719720.0,-0.0116870719,-0.0098860311,0.015307555667249322,-2.4394868148384328
7482732733.0,-0.0117566947,-0.0098213039,0.015319199736447178,-2.4456479099785877
7482745746.0,-0.0118021035,-0.0097460385,0.015306041730904645,-2.4513237631037157
7482758759.0,-0.0118508915,-0.0096727074,0.015297218629240644,-2.4570509308339834
7482771772.0,-0.0118874342,-0.0096196936,0.015292141668752961,-2.4612476654329174
7482784785.0,-0.0119119229,-0.0095253839,0.015252109546483188,-2.4670644069945995
7482797798.0,-0.0119774309,-0.0094918038,0.015282447131986725,-2.4714575497598936
7482810811.0,-0.0120218358,-0.0094120138,0.01526795794379694,-2.4773597458662313
7482823824.0,-0.0120624372,-0.0093463694,0.015259653081417027,-2.482387187102286
7482836837.0,-0.01210887,-0.0092668042,0.01524789797834566,-2.4883771769595766
7482849850.0,-0.0121590299,-0.0091916321,0.015242313104343591,-2.4942937039594804
7482862863.0,-0.0121957093,-0.0091086994,0.015221817568531915,-2.500093019338134
7482875876.0,-0.0122235637,-0.0090667375,0.015219107674954664,-2.5033972828582343
7482888889.0,-0.0122523658,-0.0089934188,0.015198751574034068,-2.5084007609629335
7482901902.0,-0.0123055576,-0.0089155793,0.015195864638167392,-2.5146014653114444
7482914915.0,-0.0123688846,-0.0088470889,0.015207244597645568,-2.520691884721094
7482927928.0,-0.012397603,-0.0088052858,0.015206367684798716,-2.524026559524126
7482940941.0,-0.0124343779,-0.0087104997,0.015181783781351535,-2.530519437727382
7482953954.0,-0.0124792191,-0.0086352112,0.015175565288133758,-2.53627815063185
7482966967.0,-0.0125020908,-0.0085649458,0.015154556111228804,-2.540949722369011
7482979980.0,-0.0125460676,-0.0085153283,0.015162936004631512,-2.5452884450883233
7482992993.0,-0.0125817702,-0.0084284668,0.015143975500650754,-2.5513582773474424
7483006006.0,-0.012633865,-0.0083535413,0.015145831013484557,-2.557382581122363
7483019019.0,-0.0126774177,-0.0082638247,0.015133000965195351,-2.5639152385809227
7483032032.0,-0.0127040068,-0.0082057766,0.015123708486464351,-2.5680907206354893
7483045045.0,-0.0127439191,-0.0081270214,0.015114759371667244,-2.5739003292271447
7483058058.0,-0.012768143,-0.008083176,0.015111691166624103,-2.577208560768061
7483071071.0,-0.0127950862,-0.0080007253,0.015090587668858048,-2.5827800024864613
7483084084.0,-0.0128443447,-0.007916941,0.015088245278026834,-2.5892191875910493
7483097097.0,-0.0128802376,-0.007851239,0.015084511078174684,-2.5941755657029297
7483110110.0,-0.0129270628,-0.007781542,0.015088450832769672,-2.599735081040662
7483123123.0,-0.0129417684,-0.0077005327,0.015059467891761907,-2.6048474345061248
7483136136.0,-0.0129830793,-0.0076223855,0.015055268473883113,-2.6107113243944062
7483149149.0,-0.0130180522,-0.0075644771,0.015056261052411028,-2.6152041223355034
7483162162.0,-0.0130640517,-0.0074857486,0.015056755258775872,-2.6212600188462716
7483175175.0,-0.0130895827,-0.0074143772,0.015043608760002339,-2.626220211135229
7483188188.0,-0.0131260592,-0.0073336109,0.015035799910696585,-2.6320897876860387
