frequency,Re(S21),Im(S21),Amplitude,phase
7811500000.0,-0.0084097997,0.0070247179,0.010957709275605942,2.4456939884614926
7811500100.0,-0.0084119153,0.0070302478,0.01096287841507781,2.4454305706950197
7811500200.0,-0.0084449935,0.0070575936,0.011005795865715628,2.445451435020196
7811500300.0,-0.0084257672,0.0070704142,0.01099928678906762,2.4434361557118938
7811500400.0,-0.0083969234,0.0070837174,0.01098578057256426,2.440820806887863
7811500500.0,-0.0083985175,0.007108823,0.01100320229038507,2.439170246218951
7811500600.0,-0.0084004927,0.0071073616,0.011003766015138083,2.4393875873656907
7811500700.0,-0.0083944347,0.0070994858,0.010994054418501199,2.4395785690771046
7811500800.0,-0.0083778012,0.0071139325,0.010990704643528443,2.437597632477496
7811500900.0,-0.0084052404,0.0071381652,0.01102730559131664,2.4375331418456474
7811501000.0,-0.0083645704,0.007147153,0.011002174057065502,2.434517635094061
7811501100.0,-0.00833472,0.0071494889,0.010981017667303118,2.432590025197681
7811501200.0,-0.0083657798,0.007143767,0.011000894446015609,2.434823055698761
7811501300.0,-0.0083596668,0.0071523667,0.011001835229555619,2.433867812907855
7811501400.0,-0.0083281629,0.0071706668,0.010989848026499669,2.430738911219621
7811501500.0,-0.0083395265,0.0071667063,0.01099588020281514,2.431686158854545
7811501600.0,-0.0083295985,0.0071690805,0.010989901109049276,2.4309335269780736
7811501700.0,-0.0083299063,0.0071946464,0.01100682859809367,2.4291912960711834
7811501800.0,-0.0083059725,0.007159321,0.010965630686458361,2.4302026074495724
7811501900.0,-0.0083017496,0.007196544,0.0109867780520513,2.427385414962419
7811502000.0,-0.0083007461,0.0072109389,0.010995454771686272,2.4263364103030947
7811502100.0,-0.0082994625,0.0071997022,0.010987119256547237,2.4270318673920026
7811502200.0,-0.0082982683,0.0072140609,0.010995632380526992,2.425974280623984
7811502300.0,-0.008287453,0.0072178017,0.010989928962815542,2.4250717375113635
7811502400.0,-0.008294829,0.0072142505,0.010993161438639536,2.4257560031724505
7811502500.0,-0.0082849115,0.0072259169,0.010993344969050042,2.4243632358899427
7811502600.0,-0.0083058914,0.007241609,0.011019470625101505,2.424541469374096
7811502700.0,-0.0082615269,0.0072122066,0.010966711027491659,2.4239038283634393
7811502800.0,-0.0083063143,0.0072418243,0.01101993087285283,2.424551962482111
7811502900.0,-0.0082705075,0.0072128268,0.010973885581431695,2.42439944463916
7811503000.0,-0.0082651217,0.0072148775,0.010971175600445793,2.4239359161417955
7811503100.0,-0.008262963,0.0072594216,0.010998898104170051,2.4207558785920957
7811503200.0,-0.008257862,0.0072344106,0.010978569193680766,2.422160695767552
7811503300.0,-0.008275708,0.0072455112,0.010999307953257306,2.422470724781118
7811503400.0,-0.0082736725,0.0072231657,0.010983067848598257,2.423879400230453
7811503500.0,-0.0082513487,0.0072506066,0.01098435484846312,2.42066089861855
7811503600.0,-0.0082592586,0.0072530688,0.010991922472397966,2.420967635039211
7811503700.0,-0.008253261,0.0072516672,0.010986491446939592,2.4207032749434343
7811503800.0,-0.008241475,0.0072675289,0.01098812479397464,2.4189108848481107
7811503900.0,-0.0082531065,0.0072820667,0.011006464569678636,2.418619165525725
7811504000.0,-0.0082620764,0.0072661582,0.011002679738448456,2.4202427250586545
7811504100.0,-0.0082354572,0.0072443687,0.010968301288466303,2.4201317478770323
7811504200.0,-0.0082107126,0.0072502542,0.010953628958679238,2.4182362609229053
7811504300.0,-0.0082556851,0.0072694097,0.011000029720724216,2.4196370532299123
7811504400.0,-0.0082483636,0.0072563555,0.01098590903021617,2.420088443325362
7811504500.0,-0.0082335797,0.0072877606,0.010995603177596236,2.4170559226470347
7811504600.0,-0.0082134746,0.0072755008,0.010972423474130306,2.416678138019387
7811504700.0,-0.0082360098,0.0072891246,0.01099832691185442,2.4171095008395587
7811504800.0,-0.0082095814,0.007257411,0.010957519846486566,2.4176783426693187
7811504900.0,-0.0082042924,0.0072830618,0.01097056985608847,2.4156072465488045
7811505001.0,-0.0082197984,0.0072603184,0.010967101212536572,2.4180967457648475
7811505101.0,-0.0082173931,0.0072720936,0.010973098682099261,2.4171473515207866
7811505201.0,-0.0082006416,0.007274578,0.010962208159387166,2.4159649213975034
7811505301.0,-0.0082120537,0.0072775155,0.010972696014399739,2.4164548315287506
7811505401.0,-0.0082219878,0.0072896266,0.010988163602293897,2.4162295558643136
7811505501.0,-0.0082179251,0.0072854722,0.010982367601122395,2.41626719266181
7811505601.0,-0.0081960266,0.0072729585,0.010957681204097416,2.415795997205737
7811505701.0,-0.0082038386,0.0072741121,0.010964290885333915,2.4161902052433684
7811505801.0,-0.008215039,0.0072916045,0.010984277944222881,2.415675139379081
7811505901.0,-0.0082091247,0.0072666379,0.010963291235293647,2.4170201962015794
7811506001.0,-0.0082147525,0.0072854897,0.010980005410065259,2.4160743210593996
7811506101.0,-0.0081914195,0.0072816139,0.010959984234188178,2.414926300151789
7811506201.0,-0.0081895912,0.0072958141,0.0109680585066308,2.413847911777945
7811506301.0,-0.00820272,0.0072988523,0.010979884348007281,2.414436675720468
7811506401.0,-0.0081996119,0.0072941376,0.010974428396884978,2.4145693568207616
7811506501.0,-0.0081896959,0.0072948367,0.010967486558648874,2.4139208042037645
7811506601.0,-0.0081996055,0.0072909505,0.010972305571258964,2.4147859938516243
7811506701.0,-0.0082008868,0.0072564518,0.010950371547675333,2.4172180863380213
7811506801.0,-0.0082019609,0.0072993351,0.01097963822296622,2.4143578667157386
7811506901.0,-0.0081932857,0.0072822883,0.010961827103459595,2.41499342648001
7811507001.0,-0.0081926316,0.0073084642,0.010978745898143386,2.413171778371804
7811507101.0,-0.0081949623,0.0072716545,0.010956019636062705,2.415820544859689
7811507201.0,-0.0081910952,0.0073017793,0.01097315002728804,2.4135331769293944
7811507301.0,-0.0081819288,0.0072738667,0.010947743861528655,2.4148792363600426
7811507401.0,-0.0081952209,0.0073175218,0.01098670882900207,2.4127134659428795
7811507501.0,-0.0081836074,0.0072913116,0.010960595555243762,2.413791488070125
7811507601.0,-0.008180019,0.0073103199,0.010970573726141082,2.4122802222806956
7811507701.0,-0.0081779858,0.0073185542,0.010974547249127834,2.4115973146930463
7811507801.0,-0.0081594201,0.0073053891,0.01095193344897068,2.411362607215392
7811507901.0,-0.0081685417,0.0073294872,0.010974810072142604,2.41028112056145
7811508001.0,-0.0081575117,0.0072992473,0.010946415316540578,2.4116643305315564
7811508101.0,-0.0081561957,0.0073130917,0.010954671994601544,2.4106424207635926
7811508201.0,-0.0081810723,0.0072963793,0.010962075299289628,2.4132924798494657
7811508301.0,-0.0081633588,0.0073093389,0.010957502546319149,2.4113338224370677
7811508401.0,-0.0081889444,0.0073083257,0.010975902465108364,2.412957564780799
7811508501.0,-0.0081764651,0.0073011685,0.01096182662684054,2.4126866706958157
7811508601.0,-0.0081659518,0.0072950341,0.010949899146571445,2.412465047194033
7811508701.0,-0.0081545191,0.0072987641,0.010943863081184524,2.4115148930932886
7811508801.0,-0.008148533,0.0073021122,0.010941637566355314,2.410922016542081
7811508901.0,-0.0081477039,0.0073089887,0.010945610748551353,2.410403595827501
7811509001.0,-0.0081500251,0.0072905673,0.01093504827087925,2.4117993406693126
7811509101.0,-0.008157121,0.0073167067,0.01095777440644157,2.410453166628923
7811509201.0,-0.0081537936,0.0072867542,0.010935316037619517,2.4122889897997104
7811509301.0,-0.0081456604,0.0072998489,0.010937987809234355,2.410900847730357
7811509401.0,-0.0081608734,0.0073136368,0.010958518964401247,2.4108903445920404
7811509501.0,-0.008134155,0.0072992822,0.010929043791625225,2.4102368826879776
7811509601.0,-0.0081563477,0.007289325,0.010938933529321782,2.412269338737829
7811509701.0,-0.0081391721,0.0072944911,0.010929580178643533,2.410869723810946
7811509801.0,-0.0081544361,0.0073189881,0.010957299617922512,2.410134560470408
7811509901.0,-0.0081507177,0.0073087373,0.01094768651110839,2.4106045166390824
7811510001.0,-0.0081337287,0.0073101318,0.010935975928035638,2.4094724566121197
7811510101.0,-0.0081433992,0.0073100854,0.010943139361529387,2.4100663207181037
7811510201.0,-0.0081457972,0.0073084207,0.010943812185509962,2.410325889769112
7811510301.0,-0.0081590792,0.0073124721,0.010956405505691684,2.4108602181734415
7811510401.0,-0.0081311993,0.007291952,0.01092194881999657,2.4105556531047356
7811510501.0,-0.0081080709,0.0073105107,0.010917159906048884,2.4078756380076998
7811510601.0,-0.0081380297,0.0073124689,0.01094073712377504,2.4095763578656326
7811510701.0,-0.0081360806,0.0073267657,0.010948849398562062,2.408486098279184
7811510801.0,-0.0081377893,0.0073155432,0.010942613353411549,2.4093526976153514
7811510901.0,-0.008119734,0.007316984,0.010930157139172886,2.40815032388783
7811511001.0,-0.0081323246,0.0073017172,0.010929308188011765,2.4099592088648976
7811511101.0,-0.0081339325,0.0073266565,0.010947180156713806,2.4083622013494
7811511201.0,-0.0081197449,0.0073278164,0.010937419733793934,2.4074152495424115
7811511301.0,-0.0081464358,0.0073289934,0.01095803634328547,2.4089673984573516
7811511401.0,-0.0081277324,0.0073123683,0.010933012582122764,2.4089536945697234
7811511501.0,-0.0081308194,0.0073346547,0.010950222996982685,2.4076292200999307
7811511601.0,-0.0081395269,0.0073035328,0.010935880829475943,2.4102756713797366
7811511701.0,-0.0081271438,0.0073034173,0.010926590072104734,2.4095266642935793
7811511801.0,-0.0081257673,0.0073159688,0.010933960567713912,2.4085886868357007
7811511901.0,-0.0080998511,0.0073358098,0.010928023300851221,2.405652574881964
7811512001.0,-0.0081240503,0.0073164642,0.010933016128535242,2.4084499310916603
7811512101.0,-0.0081059074,0.0073134002,0.010917488596867633,2.4075463718756027
7811512201.0,-0.0081012865,0.0073298171,0.01092506575149709,2.4061473408728746
7811512301.0,-0.0081277156,0.0073115603,0.010932459690985347,2.409007611115436
7811512401.0,-0.0081221118,0.0073094083,0.010926854523961053,2.408811041640032
7811512501.0,-0.0081297665,0.0073226871,0.010941428138457459,2.408376928459995
7811512601.0,-0.0081402199,0.0073177991,0.010945929092055951,2.4093478813380735
7811512701.0,-0.0081212878,0.0073334843,0.010942362976467895,2.4071251805104965
7811512801.0,-0.0081158616,0.0073166531,0.01092705916960708,2.407935582965518
7811512901.0,-0.0081065412,0.0073256216,0.010926149461438096,2.4067547431452323
7811513001.0,-0.0081325637,0.0073059023,0.010932282504202999,2.409688970045992
7811513101.0,-0.0081079702,0.0073234032,0.010925722639434806,2.40699308121835
7811513201.0,-0.0081269888,0.0073281873,0.010943046927579482,2.4078335877679833
7811513301.0,-0.0081174389,0.0073120925,0.010925177848611412,2.408342298749862
7811513401.0,-0.008099651,0.007318706,0.010916400681370989,2.406801581415248
7811513501.0,-0.0081201854,0.007340689,0.01094637501299376,2.406569191875439
7811513601.0,-0.0080970712,0.0073403514,0.01092901279591855,2.4051738182579596
7811513701.0,-0.0081013508,0.0073230575,0.010920579468735479,2.4066102833651954
7811513801.0,-0.0081122382,0.0073550139,0.01095009762891329,2.405112048685667
7811513901.0,-0.0080798686,0.0073405015,0.010916374804153996,2.404105226748708
7811514001.0,-0.0081008359,0.0073279001,0.010923445525762868,2.4062497995302277
7811514101.0,-0.0080747639,0.0073173493,0.010897036882517822,2.4053627971158424
7811514201.0,-0.0081111077,0.0073343374,0.010935381713412571,2.4064433769040754
7811514301.0,-0.0080662166,0.0073385259,0.010904944411737566,2.4033974965421088
7811514401.0,-0.0081130545,0.0073393207,0.010940168264584358,2.406224865485862
7811514501.0,-0.0080940643,0.0073394879,0.01092620517502673,2.4050475344561164
7811514601.0,-0.0081003992,0.0073400176,0.010931254528537446,2.4054009211875913
7811514701.0,-0.0081040839,0.0073345028,0.010930283947887495,2.4060011623887076
7811514801.0,-0.0080726032,0.0073136135,0.010892927285722259,2.405483732500371
7811514901.0,-0.0080778075,0.007324198,0.010903891523225103,2.4050848092218033
7811515002.0,-0.0081000729,0.0073299686,0.010924267511476472,2.4060625235149007
7811515102.0,-0.0080915963,0.0073368542,0.010922607757959238,2.4050743771726015
7811515202.0,-0.0081026522,0.0073307292,0.010926690408257089,2.4061692981666423
7811515302.0,-0.0080936168,0.0073082494,0.010904913672186618,2.407142067437767
7811515402.0,-0.0080695106,0.0073277142,0.010900109940748028,2.4043345473770614
7811515502.0,-0.0080931657,0.0073323112,0.010920719691545148,2.405479084368724
7811515602.0,-0.0080717379,0.0073419138,0.010911308398763498,2.4035083544039573
7811515702.0,-0.008071493,0.0073183853,0.010895309203887016,2.405090745382134
7811515802.0,-0.0080732745,0.0073439706,0.010913829086347953,2.4034636770430553
7811515902.0,-0.0080876126,0.0073351618,0.01091851987221061,2.4049441258177082
7811516002.0,-0.008079585,0.0073359955,0.010913135376611309,2.4043933622444005
7811516102.0,-0.008085579,0.0073429543,0.010922250940952121,2.4042905713892524
7811516202.0,-0.0080595631,0.0073255413,0.01089128609030574,2.4038682404023657
7811516302.0,-0.0080780845,0.0073366739,0.010912480611853634,2.4042549044573835
7811516402.0,-0.0080924915,0.0073511445,0.010932874468201513,2.4041610669041664
7811516502.0,-0.0080619691,0.0073360008,0.010900103371388524,2.403306617113358
7811516602.0,-0.0080574351,0.0073422394,0.010900951325348828,2.4026034039949575
7811516702.0,-0.0080978209,0.0073136106,0.010911626979369721,2.4070356143759453
7811516802.0,-0.0080790766,0.0073350685,0.010912135840813192,2.404424937470023
7811516902.0,-0.0080662952,0.0073301449,0.010899364316717697,2.4039711253144906
7811517002.0,-0.0080558422,0.0073245496,0.010887865741005488,2.4037057806854367
7811517102.0,-0.0080655448,0.0073657894,0.010922814033295605,2.4015098431723763
7811517202.0,-0.0080507303,0.0073414784,0.010895483626760433,2.4022405503524995
7811517302.0,-0.0080479644,0.0073440957,0.010895204111645906,2.401891990931047
7811517402.0,-0.008056504,0.0073368928,0.01089666245511477,2.4029085252900773
7811517502.0,-0.0080636418,0.0073560858,0.010914866805218875,2.4020487389533303
7811517602.0,-0.0080604142,0.0073600107,0.010915128701929086,2.4015838001818177
7811517702.0,-0.0080562164,0.0073305401,0.01089217337547181,2.403321964936837
7811517802.0,-0.0080400592,0.0073418031,0.01088782001590191,2.401558117163007
7811517902.0,-0.0080533887,0.0073440504,0.010899180970652239,2.402230530363969
7811518002.0,-0.0080359099,0.0073398224,0.010883420454271708,2.401435426864018
7811518102.0,-0.0080622747,0.0073636793,0.010918976425082555,2.4014505826550008
7811518202.0,-0.0080725991,0.0073591279,0.010923535127323901,2.4023956368338544
7811518302.0,-0.0080596739,0.0073529759,0.010909839502042273,2.402014214999916
7811518402.0,-0.0080554798,0.0073766225,0.01092269720882687,2.40015609085629
7811518502.0,-0.0080347327,0.0073505725,0.010889804664832402,2.400633632830352
7811518602.0,-0.0080376425,0.0073081193,0.01086334684435873,2.4036977936044113
7811518702.0,-0.0080484379,0.0073461097,0.010896911505311517,2.4017847576592097
7811518802.0,-0.0080370935,0.0073289802,0.010876985919809509,2.4022448146736246
7811518902.0,-0.0080614722,0.0073286765,0.010894807629004978,2.4037731510955687
7811519002.0,-0.0080497615,0.007349091,0.010899899023989317,2.4016646021643635
7811519102.0,-0.0080371996,0.0073261684,0.010875169922139088,2.4024424348293265
7811519202.0,-0.008069475,0.0073502918,0.010915274450089298,2.4028010572051155
7811519302.0,-0.0080457415,0.0073265371,0.010881732498205359,2.4029462014112397
7811519402.0,-0.0080592687,0.0073586079,0.010913336895960928,2.4016079459614588
7811519502.0,-0.0080222209,0.0073592964,0.010886471957041444,2.3992666060488075
7811519602.0,-0.00801414,0.0073431271,0.010869588563802882,2.3998602263393467
7811519702.0,-0.0080481387,0.0073493731,0.010898890837944993,2.4015450960709366
7811519802.0,-0.0080623274,0.0073474319,0.010908064843496686,2.4025536362769495
7811519902.0,-0.0080358471,0.0073667377,0.010901544062892178,2.399608565216415
7811520002.0,-0.0080345389,0.0073372349,0.01088066318352844,2.4015260376238685
7811520102.0,-0.0080400074,0.0073309053,0.010880436181956258,2.402294530669539
7811520202.0,-0.0080360372,0.007356697,0.010894901772370087,2.400299691664535
7811520302.0,-0.0079982491,0.0073337133,0.010851513232367535,2.3995105453798744
7811520402.0,-0.0080346349,0.0073580034,0.010894749745207991,2.4001243331022124
7811520502.0,-0.0080361373,0.0073699388,0.010903921341434773,2.399410148403367
7811520602.0,-0.0080186526,0.0073548814,0.010880857959166304,2.3993439180513736
7811520702.0,-0.0080201833,0.007333541,0.010867573959457552,2.4008862581155594
7811520802.0,-0.0080225932,0.00734062,0.010874130017481226,2.4005553789833685
7811520902.0,-0.0080156931,0.0073683189,0.010887766496645896,2.3982506508533077
7811521002.0,-0.0080243555,0.007358306,0.01088737564245931,2.399466178628054
7811521102.0,-0.0080407459,0.0073697539,0.010907193368366219,2.399708228206319
7811521202.0,-0.0080382207,0.0073784109,0.010911184144314827,2.3989669581043946
7811521302.0,-0.0080296418,0.0073532404,0.010887850651827449,2.400137229021865
7811521402.0,-0.0080208532,0.0073672884,0.010890868855363414,2.3986409570910374
7811521502.0,-0.0080101934,0.0073677302,0.010883319650060619,2.397948488800389
7811521602.0,-0.0080137338,0.0073755917,0.010891247969923894,2.3976372890092263
7811521702.0,-0.0080041334,0.0073452187,0.010863626891412704,2.3990960011631377
7811521802.0,-0.0080296244,0.007336348,0.01087643645603556,2.4012815529703433
7811521902.0,-0.0080127661,0.0073497972,0.010873083254276914,2.3993225664463957
7811522002.0,-0.0080074685,0.0073333406,0.010858058580340255,2.400109676034925
7811522102.0,-0.0079848751,0.007370022,0.010866253017626821,2.3962159105887992
7811522202.0,-0.0080146138,0.0073577353,0.010879811722084924,2.3988996827040556
7811522302.0,-0.0080222047,0.0073722712,0.010895235238169551,2.3983880515038822
7811522402.0,-0.007986936,0.0073537108,0.01085671263311932,2.397448678306666
7811522502.0,-0.007986338,0.0073447395,0.010850197831058393,2.3980196216206475
7811522602.0,-0.008010282,0.0073735155,0.010887302170338814,2.397562898488079
7811522702.0,-0.0080184119,0.007356169,0.010881550981115817,2.3992417637043615
7811522802.0,-0.0079740824,0.0073686615,0.010857401273950042,2.3956337827444814
7811522902.0,-0.0079932138,0.0073562458,0.010863048334722996,2.397668441777059
7811523002.0,-0.0079915261,0.0073468464,0.010855442940395116,2.3982002818220227
7811523102.0,-0.0079965502,0.0073666482,0.010872548956141025,2.3971722457307862
7811523202.0,-0.0080069752,0.0073610152,0.01087640550126953,2.3982025841330104
7811523302.0,-0.0079953092,0.0073626485,0.010868926448281675,2.397365536957567
7811523402.0,-0.0079980327,0.0073568716,0.01086701830352539,2.3979263590333724
7811523502.0,-0.0080120541,0.0073715831,0.010887297566500717,2.397803722597503
7811523602.0,-0.0079933305,0.007374407,0.01087544073055797,2.3964469471007175
7811523702.0,-0.0079908488,0.007356868,0.01086172966492379,2.3974788442200414
7811523802.0,-0.0080049059,0.0073468066,0.010865269701468913,2.399036395890926
7811523902.0,-0.0079817341,0.0073533321,0.010852629737349065,2.3971496844578555
7811524002.0,-0.008015722,0.0073532069,0.01087756640501411,2.399275253214064
7811524102.0,-0.0079658342,0.0073576015,0.010843837620265803,2.395866635754034
7811524202.0,-0.0079968717,0.0073669625,0.010872998365798973,2.397171019696648
7811524302.0,-0.0079836794,0.0073602525,0.010858750095003596,2.3968023467580437
7811524402.0,-0.007998841,0.0073609597,0.010870381090297851,2.397699909286744
7811524502.0,-0.0079868963,0.0073720017,0.01086908099021056,2.3962081940684836
7811524602.0,-0.0079486531,0.0073786888,0.010845558284910236,2.3933634790861604
7811524702.0,-0.0079778513,0.007366766,0.010858883582747707,2.3959975392579276
7811524802.0,-0.0079770296,0.0073751364,0.010863960518976545,2.395380172258891
7811524902.0,-0.0079731166,0.0073587137,0.010849942655874419,2.3962467419223117
7811525003.0,-0.0079569585,0.0073581474,0.010837689870578924,2.395273960950914
7811525103.0,-0.0079764584,0.007367241,0.01085818256242782,2.395878372800165
